date Sat Feb 14 1:24:8 pm 2026
base hex  no internal events logged
// version 7.1.0
55541.316600 1 781 Rx d 3 08 00 00 
55541.316600 1 FF07 Rx d 3 08 00 00 
55541.317000 1 789 Rx d 3 08 00 00 
55541.317000 1 701 Rx d 3 08 00 00 
55541.330300 1 FFFF103x Rx d 3 08 00 00 
55541.330300 1 FFFF101x Rx d 3 08 00 00 
55541.330500 1 FFFF102x Rx d 3 08 00 00 
55541.330500 1 FFFF101x Rx d 3 08 00 00 
55541.331000 1 FFFF143x Rx d 3 08 00 00 
55541.331000 1 FFFF101x Rx d 3 08 00 00 
55541.331200 1 FFFF142x Rx d 3 08 00 00 
55541.331200 1 FFFF101x Rx d 3 08 00 00 
55541.356400 1 781 Rx d 3 08 00 00 
55541.356400 1 701 Rx d 3 08 00 00 
55541.357000 1 789 Rx d 3 08 00 00 
55541.357000 1 701 Rx d 3 08 00 00 
55541.370300 1 FFFF103x Rx d 3 08 00 00 
55541.370300 1 FFFF101x Rx d 3 08 00 00 
55541.370400 1 FFFF102x Rx d 3 08 00 00 
55541.370400 1 FFFF101x Rx d 3 08 00 00 
55541.371000 1 FFFF143x Rx d 3 08 00 00 
55541.371000 1 FFFF101x Rx d 3 08 00 00 
55541.371200 1 FFFF142x Rx d 3 08 00 00 
55541.371200 1 FFFF101x Rx d 3 08 00 00 
55541.396400 1 781 Rx d 3 08 00 00 
55541.396400 1 701 Rx d 3 08 00 00 
55541.397000 1 789 Rx d 3 08 00 00 
55541.397000 1 701 Rx d 3 08 00 00 
55541.410200 1 FFFF103x Rx d 3 08 00 00 
55541.410200 1 FFFF101x Rx d 3 08 00 00 
55541.410500 1 FFFF102x Rx d 3 08 00 00 
55541.410500 1 FFFF101x Rx d 3 08 00 00 
55541.411000 1 FFFF143x Rx d 3 08 00 00 
55541.411000 1 FFFF101x Rx d 3 08 00 00 
55541.411200 1 FFFF142x Rx d 3 08 00 00 
55541.411200 1 FFFF101x Rx d 3 08 00 00 
55541.436400 1 781 Rx d 3 08 00 00 
55541.436400 1 701 Rx d 3 08 00 00 
55541.437000 1 789 Rx d 3 08 00 00 
55541.437000 1 701 Rx d 3 08 00 00 
55541.450300 1 FFFF103x Rx d 3 08 00 00 
55541.450300 1 FFFF101x Rx d 3 08 00 00 
55541.450400 1 FFFF102x Rx d 3 08 00 00 
55541.450400 1 FFFF101x Rx d 3 08 00 00 
55541.451000 1 FFFF143x Rx d 3 08 00 00 
55541.451000 1 FFFF101x Rx d 3 08 00 00 
55541.451200 1 FFFF142x Rx d 3 08 00 00 
55541.451200 1 FFFF101x Rx d 3 08 00 00 
55541.476400 1 781 Rx d 3 08 00 00 
55541.476400 1 701 Rx d 3 08 00 00 
55541.477000 1 789 Rx d 3 08 00 00 
55541.477000 1 701 Rx d 3 08 00 00 
55541.490200 1 FFFF103x Rx d 3 08 00 00 
55541.490200 1 FFFF101x Rx d 3 08 00 00 
55541.490500 1 FFFF102x Rx d 3 08 00 00 
55541.490500 1 FFFF101x Rx d 3 08 00 00 
55541.491000 1 FFFF143x Rx d 3 08 00 00 
55541.491000 1 FFFF101x Rx d 3 08 00 00 
55541.491200 1 FFFF142x Rx d 3 08 00 00 
55541.491200 1 FFFF101x Rx d 3 08 00 00 
55541.516400 1 781 Rx d 3 08 00 00 
55541.516400 1 701 Rx d 3 08 00 00 
55541.517000 1 789 Rx d 3 08 00 00 
55541.517000 1 704 Rx d 3 08 00 00 
55541.517500 1 781 Rx d 3 0B 00 00 
55541.517500 1 704 Rx d 3 0B 00 00 
55541.523100 1 781 Rx d 3 0B 00 00 
55541.523100 1 701 Rx d 3 0B 00 00 
55541.523300 1 789 Rx d 3 0B 00 00 
55541.523300 1 701 Rx d 3 0B 00 00 
55541.523600 1 5E00A001x Rx d 0 0B 00 00 
55541.530300 1 FFFF103x Rx d 3 08 00 00 
55541.530300 1 FFFF101x Rx d 3 08 00 00 
55541.530400 1 FFFF102x Rx d 3 08 00 00 
55541.530400 1 FFFF101x Rx d 3 08 00 00 
55541.531000 1 FFFF143x Rx d 3 08 00 00 
55541.531000 1 FFFF101x Rx d 3 08 00 00 
55541.531200 1 FFFF142x Rx d 3 08 00 00 
55541.531200 1 FFFF101x Rx d 3 08 00 00 
55541.531400 1 FFFF103x Rx d 3 0B 00 00 
55541.531400 1 FFFF101x Rx d 3 0B 00 00 
55541.531600 1 FFFF102x Rx d 3 0B 00 00 
55541.531600 1 FFFF101x Rx d 3 0B 00 00 
55541.536100 1 5900A001x Rx d 0 0B 00 00 
55541.536200 1 5A00A001x Rx d 0 0B 00 00 
55541.556100 1 702 Rx d 8 22 00 00 00 00 00 00 30 
55541.556100 1 701 Rx d 8 22 00 00 00 00 00 00 30 
55541.556400 1 703 Rx d 8 12 26 4C 00 30 2E 2F 2F 
55541.556400 1 701 Rx d 8 12 26 4C 00 30 2E 2F 2F 
55541.556600 1 704 Rx d 7 95 82 D8 98 82 22 22 
55541.556600 1 701 Rx d 7 95 82 D8 98 82 22 22 
55541.556800 1 705 Rx d 8 86 A3 38 88 03 7D 00 00 
55541.556800 1 701 Rx d 8 86 A3 38 88 03 7D 00 00 
55541.557100 1 706 Rx d 8 20 20 02 20 00 7D 00 00 
55541.557100 1 701 Rx d 8 20 20 02 20 00 7D 00 00 
55541.566100 1 702 Rx d 8 22 00 00 00 00 00 00 30 
55541.566100 1 701 Rx d 8 22 00 00 00 00 00 00 30 
55541.566400 1 703 Rx d 8 13 26 4C 08 2F 2F 00 20 
55541.566400 1 701 Rx d 8 13 26 4C 08 2F 2F 00 20 
55541.566600 1 704 Rx d 7 95 82 D9 98 82 22 22 
55541.566600 1 701 Rx d 7 95 82 D9 98 82 22 22 
55541.566800 1 705 Rx d 8 86 A3 38 88 03 7D 00 00 
55541.566800 1 701 Rx d 8 86 A3 38 88 03 7D 00 00 
55541.567100 1 706 Rx d 8 20 20 02 20 00 7D 00 00 
55541.567100 1 701 Rx d 8 20 20 02 20 00 7D 00 00 
55541.576100 1 702 Rx d 8 22 00 00 00 00 00 00 B0 
55541.576100 1 701 Rx d 8 22 00 00 00 00 00 00 B0 
55541.576400 1 703 Rx d 8 13 26 4C 10 00 00 7D 00 
55541.576400 1 701 Rx d 8 13 26 4C 10 00 00 7D 00 
55541.576600 1 704 Rx d 7 95 82 D8 98 82 22 22 
55541.576600 1 701 Rx d 7 95 82 D8 98 82 22 22 
55541.576800 1 705 Rx d 8 86 A3 38 88 03 7D 00 00 
55541.576800 1 701 Rx d 8 86 A3 38 88 03 7D 00 00 
55541.577100 1 706 Rx d 8 20 20 02 20 00 7D 00 00 
55541.577100 1 701 Rx d 8 20 20 02 20 00 7D 00 00 
55541.586200 1 702 Rx d 8 22 00 00 00 00 00 00 B0 
55541.586200 1 701 Rx d 8 22 00 00 00 00 00 00 B0 
55541.586400 1 703 Rx d 8 13 28 50 18 00 00 72 79 
55541.586400 1 701 Rx d 8 13 28 50 18 00 00 72 79 
55541.586600 1 704 Rx d 7 95 82 D8 98 82 22 22 
55541.586600 1 701 Rx d 7 95 82 D8 98 82 22 22 
55541.586800 1 705 Rx d 8 86 A3 38 88 03 7D 00 00 
55541.586800 1 701 Rx d 8 86 A3 38 88 03 7D 00 00 
55541.587000 1 706 Rx d 8 1E 00 02 20 00 7D 00 00 
55541.587000 1 701 Rx d 8 1E 00 02 20 00 7D 00 00 
55541.596100 1 702 Rx d 8 22 00 00 00 00 00 00 B0 
55541.596100 1 701 Rx d 8 22 00 00 00 00 00 00 B0 
55541.596400 1 703 Rx d 8 14 28 50 20 36 33 89 30 
55541.596400 1 701 Rx d 8 14 28 50 20 36 33 89 30 
55541.596600 1 704 Rx d 7 95 82 D8 98 82 22 22 
55541.596600 1 701 Rx d 7 95 82 D8 98 82 22 22 
55541.596800 1 705 Rx d 8 86 A3 38 88 03 7D 00 00 
55541.596800 1 701 Rx d 8 86 A3 38 88 03 7D 00 00 
55541.597100 1 706 Rx d 8 1E 00 02 1E 00 7D 00 00 
55541.597100 1 701 Rx d 8 1E 00 02 1E 00 7D 00 00 
55541.606100 1 702 Rx d 8 22 00 00 00 00 00 00 B0 
55541.606100 1 701 Rx d 8 22 00 00 00 00 00 00 B0 
55541.606400 1 703 Rx d 8 14 2A 50 28 A5 71 5D 05 
55541.606400 1 701 Rx d 8 14 2A 50 28 A5 71 5D 05 
55541.606600 1 704 Rx d 7 95 82 D8 98 82 22 22 
55541.606600 1 701 Rx d 7 95 82 D8 98 82 22 22 
55541.606800 1 705 Rx d 8 86 A3 38 88 03 7D 00 00 
55541.606800 1 701 Rx d 8 86 A3 38 88 03 7D 00 00 
55541.607100 1 706 Rx d 8 1E 00 02 1E 00 7D 00 00 
55541.607100 1 701 Rx d 8 1E 00 02 1E 00 7D 00 00 
55541.616100 1 702 Rx d 8 22 00 00 00 00 00 00 B0 
55541.616100 1 701 Rx d 8 22 00 00 00 00 00 00 B0 
55541.616400 1 703 Rx d 8 14 2A 54 30 D0 07 E5 DF 
55541.616400 1 701 Rx d 8 14 2A 54 30 D0 07 E5 DF 
55541.616600 1 704 Rx d 7 95 82 D8 98 82 22 22 
55541.616600 1 701 Rx d 7 95 82 D8 98 82 22 22 
55541.616800 1 705 Rx d 8 86 A3 38 88 03 7D 00 00 
55541.616800 1 701 Rx d 8 86 A3 38 88 03 7D 00 00 
55541.617000 1 706 Rx d 8 1E 00 02 1E 00 7D 00 00 
55541.617000 1 701 Rx d 8 1E 00 02 1E 00 7D 00 00 
55541.626100 1 702 Rx d 8 22 00 00 00 00 00 00 B0 
55541.626100 1 701 Rx d 8 22 00 00 00 00 00 00 B0 
55541.626300 1 703 Rx d 8 15 2A 54 38 DA 07 13 38 
55541.626300 1 701 Rx d 8 15 2A 54 38 DA 07 13 38 
55541.626600 1 704 Rx d 7 95 82 D8 98 83 22 22 
55541.626600 1 701 Rx d 7 95 82 D8 98 83 22 22 
55541.626800 1 705 Rx d 8 86 A3 38 88 03 7D 00 00 
55541.626800 1 701 Rx d 8 86 A3 38 88 03 7D 00 00 
55541.627100 1 706 Rx d 8 1E 00 02 1E 00 7D 00 00 
55541.627100 1 701 Rx d 8 1E 00 02 1E 00 7D 00 00 
55541.636100 1 702 Rx d 8 22 00 00 00 00 00 00 B0 
55541.636100 1 701 Rx d 8 22 00 00 00 00 00 00 B0 
55541.636400 1 703 Rx d 8 15 2C 54 00 30 2E 2F 2F 
55541.636400 1 701 Rx d 8 15 2C 54 00 30 2E 2F 2F 
55541.636600 1 704 Rx d 7 95 82 D8 98 82 22 22 
55541.636600 1 701 Rx d 7 95 82 D8 98 82 22 22 
55541.636800 1 705 Rx d 8 86 A3 38 88 03 7D 00 00 
55541.636800 1 701 Rx d 8 86 A3 38 88 03 7D 00 00 
55541.637100 1 706 Rx d 8 1E 00 02 1E 00 7D 00 00 
55541.637100 1 701 Rx d 8 1E 00 02 1E 00 7D 00 00 
55541.639300 1 1003x Rx d 8 02 12 04 00 64 00 00 00 
55541.639300 1 1001x Rx d 8 02 12 04 00 64 00 00 00 
55541.639600 1 1002x Rx d 8 02 12 04 60 64 00 00 00 
55541.639600 1 1001x Rx d 8 02 12 04 60 64 00 00 00 
55541.646100 1 703 Rx d 8 15 2C 58 08 2F 2F 00 40 
55541.646100 1 701 Rx d 8 15 2C 58 08 2F 2F 00 40 
55541.646400 1 702 Rx d 8 22 00 00 00 00 00 00 B0 
55541.646400 1 701 Rx d 8 22 00 00 00 00 00 00 B0 
55541.646600 1 704 Rx d 7 95 82 D8 98 82 22 22 
55541.646600 1 701 Rx d 7 95 82 D8 98 82 22 22 
55541.646800 1 705 Rx d 8 86 A3 38 88 03 7D 00 00 
55541.646800 1 701 Rx d 8 86 A3 38 88 03 7D 00 00 
55541.647000 1 706 Rx d 8 1E 00 02 1E 00 7D 00 00 
55541.647000 1 701 Rx d 8 1E 00 02 1E 00 7D 00 00 
55541.656100 1 702 Rx d 8 22 00 00 00 00 00 00 B0 
55541.656100 1 701 Rx d 8 22 00 00 00 00 00 00 B0 
55541.656300 1 703 Rx d 8 16 2C 58 10 00 00 7D 00 
55541.656300 1 701 Rx d 8 16 2C 58 10 00 00 7D 00 
55541.656600 1 704 Rx d 7 95 82 D8 98 83 22 22 
55541.656600 1 701 Rx d 7 95 82 D8 98 83 22 22 
55541.656800 1 705 Rx d 8 86 A3 38 88 03 7D 00 00 
55541.656800 1 701 Rx d 8 86 A3 38 88 03 7D 00 00 
55541.657100 1 706 Rx d 8 1C E0 01 1E 00 7D 00 00 
55541.657100 1 701 Rx d 8 1C E0 01 1E 00 7D 00 00 
55541.666100 1 702 Rx d 8 22 00 00 00 00 00 00 B0 
55541.666100 1 701 Rx d 8 22 00 00 00 00 00 00 B0 
55541.666400 1 703 Rx d 8 16 2E 58 18 00 00 72 79 
55541.666400 1 701 Rx d 8 16 2E 58 18 00 00 72 79 
55541.666600 1 704 Rx d 7 95 82 D8 98 83 22 22 
55541.666600 1 701 Rx d 7 95 82 D8 98 83 22 22 
55541.666800 1 705 Rx d 8 86 A3 38 88 03 7D 00 00 
55541.666800 1 701 Rx d 8 86 A3 38 88 03 7D 00 00 
55541.667100 1 706 Rx d 8 1C E0 01 1E 00 7D 00 00 
55541.667100 1 701 Rx d 8 1C E0 01 1E 00 7D 00 00 
55541.676100 1 702 Rx d 8 22 00 00 00 00 00 00 B0 
55541.676100 1 701 Rx d 8 22 00 00 00 00 00 00 B0 
55541.676400 1 703 Rx d 8 17 2E 5C 20 36 33 89 30 
55541.676400 1 701 Rx d 8 17 2E 5C 20 36 33 89 30 
55541.676600 1 704 Rx d 7 95 82 D8 98 82 22 22 
55541.676600 1 701 Rx d 7 95 82 D8 98 82 22 22 
55541.676800 1 705 Rx d 8 86 A3 38 88 03 7D 00 00 
55541.676800 1 701 Rx d 8 86 A3 38 88 03 7D 00 00 
55541.677000 1 706 Rx d 8 1C E0 01 1C 00 7D 00 00 
55541.677000 1 701 Rx d 8 1C E0 01 1C 00 7D 00 00 
55541.686100 1 702 Rx d 8 22 00 00 00 00 00 00 B0 
55541.686100 1 701 Rx d 8 22 00 00 00 00 00 00 B0 
55541.686300 1 703 Rx d 8 17 2E 5C 28 A5 71 5D 05 
55541.686300 1 701 Rx d 8 17 2E 5C 28 A5 71 5D 05 
55541.686500 1 704 Rx d 7 95 82 D8 98 82 22 22 
55541.686500 1 701 Rx d 7 95 82 D8 98 82 22 22 
55541.686800 1 705 Rx d 8 86 A3 38 88 03 7D 00 00 
55541.686800 1 701 Rx d 8 86 A3 38 88 03 7D 00 00 
55541.687000 1 706 Rx d 8 1C E0 01 1C 00 7D 00 00 
55541.687000 1 701 Rx d 8 1C E0 01 1C 00 7D 00 00 
55541.696100 1 702 Rx d 8 22 00 00 00 00 00 00 B0 
55541.696100 1 701 Rx d 8 22 00 00 00 00 00 00 B0 
55541.696400 1 703 Rx d 8 17 30 60 30 D0 07 E5 DF 
55541.696400 1 701 Rx d 8 17 30 60 30 D0 07 E5 DF 
55541.696600 1 704 Rx d 7 95 82 D8 98 82 22 22 
55541.696600 1 701 Rx d 7 95 82 D8 98 82 22 22 
55541.696800 1 705 Rx d 8 86 A3 38 88 03 7D 00 00 
55541.696800 1 701 Rx d 8 86 A3 38 88 03 7D 00 00 
55541.697000 1 706 Rx d 8 1C E0 01 1C 00 7D 00 00 
55541.697000 1 701 Rx d 8 1C E0 01 1C 00 7D 00 00 
55541.706100 1 702 Rx d 8 22 00 00 00 00 00 00 B0 
55541.706100 1 701 Rx d 8 22 00 00 00 00 00 00 B0 
55541.706300 1 703 Rx d 8 18 30 60 38 DA 07 13 38 
55541.706300 1 701 Rx d 8 18 30 60 38 DA 07 13 38 
55541.706600 1 704 Rx d 7 95 82 D9 98 82 22 22 
55541.706600 1 701 Rx d 7 95 82 D9 98 82 22 22 
55541.706800 1 705 Rx d 8 86 A3 38 88 03 7D 00 00 
55541.706800 1 701 Rx d 8 86 A3 38 88 03 7D 00 00 
55541.707000 1 706 Rx d 8 1C E0 01 1C 00 7D 00 00 
55541.707000 1 701 Rx d 8 1C E0 01 1C 00 7D 00 00 
55541.716100 1 702 Rx d 8 22 00 00 00 00 00 00 B0 
55541.716100 1 701 Rx d 8 22 00 00 00 00 00 00 B0 
55541.716400 1 703 Rx d 8 18 30 60 00 30 2E 2F 2F 
55541.716400 1 701 Rx d 8 18 30 60 00 30 2E 2F 2F 
55541.716600 1 704 Rx d 7 95 82 D8 98 82 22 22 
55541.716600 1 701 Rx d 7 95 82 D8 98 82 22 22 
55541.716800 1 705 Rx d 8 86 A3 38 88 03 7D 00 00 
55541.716800 1 701 Rx d 8 86 A3 38 88 03 7D 00 00 
55541.717100 1 706 Rx d 8 1C E0 01 1C 00 7D 00 00 
55541.717100 1 701 Rx d 8 1C E0 01 1C 00 7D 00 00 
55541.726100 1 702 Rx d 8 22 00 00 00 00 00 00 B0 
55541.726100 1 701 Rx d 8 22 00 00 00 00 00 00 B0 
55541.726400 1 703 Rx d 8 18 32 64 08 2F 2E 00 40 
55541.726400 1 701 Rx d 8 18 32 64 08 2F 2E 00 40 
55541.726600 1 704 Rx d 7 95 82 D8 98 82 22 22 
55541.726600 1 701 Rx d 7 95 82 D8 98 82 22 22 
55541.726800 1 705 Rx d 8 86 A3 38 88 03 7D 00 00 
55541.727100 1 706 Rx d 8 1C E0 01 1C 00 7D 00 00 
55541.736100 1 702 Rx d 8 22 00 00 00 00 00 00 B0 
55541.736400 1 703 Rx d 8 19 32 64 10 00 00 7D 00 
55541.736600 1 704 Rx d 7 95 82 D8 98 82 22 22 
55541.736800 1 705 Rx d 8 86 A3 38 88 03 7D 00 00 
55541.737100 1 706 Rx d 8 1C E0 01 1C 00 7D 00 00 
55541.739300 1 1003x Rx d 8 04 12 00 20 54 00 00 00 
55541.739500 1 1002x Rx d 8 04 12 00 80 54 00 00 00 
55541.739800 1 1042x Rx d 7 00 59 A4 A5 83 00 00 
55541.740100 1 1043x Rx d 7 00 58 A4 A5 83 00 00 
55541.740400 1 1083x Rx d 7 00 30 00 01 00 7D 00 
55541.740700 1 10C3x Rx d 7 00 10 00 00 00 7D 00 
55541.740900 1 1103x Rx d 7 00 20 00 00 00 7D 00 
55541.741200 1 1142x Rx d 7 00 30 00 02 00 7D 00 
55541.741500 1 1182x Rx d 7 00 10 00 00 00 7D 00 
55541.741700 1 11C2x Rx d 7 00 30 00 01 00 7D 00 
55541.742000 1 1403x Rx d 7 00 60 00 03 00 7D 00 
55541.742300 1 1442x Rx d 7 00 60 00 03 00 7D 00 
55541.746200 1 702 Rx d 8 22 00 00 00 00 00 00 B0 
55541.746400 1 703 Rx d 8 19 32 64 18 00 00 72 79 
55541.746600 1 704 Rx d 7 95 82 D8 98 83 22 22 
55541.746800 1 705 Rx d 8 86 A3 38 88 03 7D 00 00 
55541.747100 1 706 Rx d 8 1C E0 01 1C 00 7D 00 00 
55541.756100 1 702 Rx d 8 22 00 00 00 00 00 00 B0 
55541.756400 1 703 Rx d 8 19 34 68 20 36 33 89 30 
55541.756600 1 704 Rx d 7 95 82 D8 98 82 22 22 
55541.756800 1 705 Rx d 8 86 A3 38 88 03 7D 00 00 
55541.757100 1 706 Rx d 8 1C E0 01 1C 00 7D 00 00 
55541.766100 1 702 Rx d 8 22 00 00 00 00 00 00 B0 
55541.766400 1 703 Rx d 8 1A 34 68 28 A5 71 5D 05 
55541.766600 1 704 Rx d 7 95 82 D8 98 82 22 22 
55541.766800 1 705 Rx d 8 86 A3 38 88 03 7D 00 00 
55541.767100 1 706 Rx d 8 1A E0 01 1C 00 7D 00 00 
55541.776100 1 702 Rx d 8 22 00 00 00 00 00 00 B0 
55541.776400 1 703 Rx d 8 1A 36 68 30 D0 07 E5 DF 
55541.776600 1 704 Rx d 7 95 82 D8 98 83 22 22 
55541.776800 1 705 Rx d 8 86 A3 38 88 03 7D 00 00 
55541.777000 1 706 Rx d 8 1A C0 01 1C 00 7D 00 00 
55541.786100 1 702 Rx d 8 22 00 00 00 00 00 00 B0 
55541.786400 1 703 Rx d 8 1A 36 6C 38 DA 07 13 38 
55541.786600 1 704 Rx d 7 95 82 D8 98 82 22 22 
55541.786800 1 705 Rx d 8 86 A3 38 88 03 7D 00 00 
55541.787100 1 706 Rx d 8 1A C0 01 1C 00 7D 00 00 
55541.796200 1 702 Rx d 8 22 00 00 00 00 00 00 B0 
55541.796400 1 703 Rx d 8 1B 36 6C 00 30 2E 2F 2F 
55541.796600 1 704 Rx d 7 95 82 D8 98 82 22 22 
55541.796800 1 705 Rx d 8 86 A3 38 88 03 7D 00 00 
55541.797100 1 706 Rx d 8 1A C0 01 1A 00 7D 00 00 
55541.806100 1 703 Rx d 8 1B 38 6C 08 2F 2E 00 40 
55541.806400 1 702 Rx d 8 22 00 00 00 00 00 00 B0 
55541.806600 1 704 Rx d 7 95 82 D8 98 82 22 22 
55541.806800 1 705 Rx d 8 86 A3 38 88 03 7D 00 00 
55541.807000 1 706 Rx d 8 1A C0 01 1A 00 7D 00 00 
55541.816100 1 702 Rx d 8 22 00 00 00 00 00 00 B0 
55541.816400 1 703 Rx d 8 1B 38 70 10 00 00 7D 00 
55541.816600 1 704 Rx d 7 95 82 D8 98 83 22 22 
55541.816800 1 705 Rx d 8 86 A3 38 88 03 7D 00 00 
55541.817100 1 706 Rx d 8 1A C0 01 1A 00 7D 00 00 
55541.826100 1 702 Rx d 8 22 00 00 00 00 00 00 B0 
55541.826400 1 703 Rx d 8 1C 38 70 18 00 00 72 79 
55541.826600 1 704 Rx d 7 95 82 D8 98 82 22 22 
55541.826800 1 705 Rx d 8 86 A3 38 88 03 7D 00 00 
55541.827100 1 706 Rx d 8 1A C0 01 1A 00 7D 00 00 
55541.836100 1 702 Rx d 8 22 00 00 00 00 00 00 B0 
55541.836400 1 703 Rx d 8 1C 3A 70 20 36 33 89 30 
55541.836600 1 704 Rx d 7 95 82 D8 98 82 22 22 
55541.836800 1 705 Rx d 8 86 A3 38 88 03 7D 00 00 
55541.837000 1 706 Rx d 8 1A C0 01 1A 00 7D 00 00 
55541.839300 1 1003x Rx d 8 04 12 00 40 64 00 00 00 
55541.839600 1 1002x Rx d 8 04 12 00 A0 64 00 00 00 
55541.839800 1 1042x Rx d 7 01 2B 2B 2D 2D 2E 2E 
55541.840100 1 1043x Rx d 7 01 2E 2E 2E 2E 2C 2C 
55541.840400 1 1083x Rx d 7 00 30 00 01 00 7D 00 
55541.840600 1 10C3x Rx d 7 00 10 00 00 00 7D 00 
55541.840900 1 1103x Rx d 7 00 20 00 01 00 7D 00 
55541.841200 1 1142x Rx d 7 02 30 00 03 00 7D 00 
55541.841400 1 1182x Rx d 7 00 10 00 00 00 7D 00 
55541.841700 1 11C2x Rx d 7 00 30 00 02 00 7D 00 
55541.842000 1 1403x Rx d 7 00 70 00 04 00 7D 00 
55541.842200 1 1442x Rx d 7 00 70 00 04 00 7D 00 
55541.846100 1 702 Rx d 8 22 00 00 00 00 00 00 B0 
55541.846300 1 703 Rx d 8 1C 3A 74 28 A5 71 5D 05 
55541.846600 1 704 Rx d 7 95 82 D8 98 83 22 22 
55541.846800 1 705 Rx d 8 86 A3 38 88 03 7D 00 00 
55541.847100 1 706 Rx d 8 1A C0 01 1A 00 7D 00 00 
55541.856100 1 702 Rx d 8 22 00 00 00 00 00 00 B0 
55541.856400 1 703 Rx d 8 1D 3A 74 30 D0 07 E5 DF 
55541.856600 1 704 Rx d 7 95 82 D9 98 82 22 22 
55541.856800 1 705 Rx d 8 86 A3 38 88 03 7D 00 00 
55541.857000 1 706 Rx d 8 1A C0 01 1A 00 7D 00 00 
55541.866100 1 702 Rx d 8 22 00 00 00 00 00 00 B0 
55541.866300 1 703 Rx d 8 1D 3C 74 38 DA 07 13 38 
55541.866600 1 704 Rx d 7 95 82 D8 98 82 22 22 
55541.866800 1 705 Rx d 8 86 A3 38 88 03 7D 00 00 
55541.867000 1 706 Rx d 8 1A C0 01 1A 00 7D 00 00 
55541.876100 1 702 Rx d 8 22 00 00 00 00 00 00 B0 
55541.876400 1 703 Rx d 8 1D 3C 78 00 30 2E 2F 2F 
55541.876600 1 704 Rx d 7 95 82 D8 98 83 22 22 
55541.876800 1 705 Rx d 8 86 A3 38 88 03 7D 00 00 
55541.877100 1 706 Rx d 8 1A C0 01 1A 00 7D 00 00 
55541.886100 1 702 Rx d 8 22 00 00 00 00 00 00 B0 
55541.886400 1 703 Rx d 8 1E 3C 78 08 2F 2F 00 40 
55541.886600 1 704 Rx d 7 95 82 D8 98 82 22 22 
55541.886800 1 705 Rx d 8 86 A3 38 88 03 7D 00 00 
55541.887100 1 706 Rx d 8 1A C0 01 1A 00 7D 00 00 
55541.896100 1 702 Rx d 8 22 00 00 00 00 00 00 B0 
55541.896400 1 703 Rx d 8 1E 3E 78 10 00 00 7D 00 
55541.896600 1 704 Rx d 7 95 82 D8 98 83 22 22 
55541.896900 1 705 Rx d 8 86 A3 38 88 03 7D 00 00 
55541.897100 1 706 Rx d 8 18 C0 01 1A 00 7D 00 00 
55541.906100 1 703 Rx d 8 1E 3E 7C 18 00 00 72 79 
55541.906400 1 702 Rx d 8 22 00 00 00 00 00 00 B0 
55541.906600 1 704 Rx d 7 95 82 D8 98 83 22 22 
55541.906800 1 705 Rx d 8 86 A3 38 88 03 7D 00 00 
55541.907100 1 706 Rx d 8 18 A0 01 1A 00 7D 00 00 
55541.916100 1 703 Rx d 8 1F 3E 7C 20 36 33 89 30 
55541.916400 1 702 Rx d 8 22 00 00 00 00 00 00 B0 
55541.916600 1 704 Rx d 7 95 82 D8 98 83 22 22 
55541.916800 1 705 Rx d 8 86 A3 38 88 03 7D 00 00 
55541.917000 1 706 Rx d 8 18 A0 01 1A 00 7D 00 00 
55541.926100 1 703 Rx d 8 1F 3E 7C 28 A5 71 5D 05 
55541.926300 1 702 Rx d 8 22 00 00 00 00 00 00 B0 
55541.926600 1 704 Rx d 7 95 82 D8 98 82 22 22 
55541.926800 1 705 Rx d 8 88 A3 38 88 03 7D 00 00 
55541.927100 1 706 Rx d 8 18 A0 01 1A 00 7D 00 00 
55541.936100 1 703 Rx d 8 1F 40 80 30 D0 07 E5 DF 
55541.936400 1 702 Rx d 8 22 00 00 00 00 00 00 B0 
55541.936600 1 704 Rx d 7 95 82 D8 98 83 22 22 
55541.936800 1 705 Rx d 8 86 A3 38 88 03 7D 00 00 
55541.937000 1 706 Rx d 8 18 C0 01 1A 00 7D 00 00 
55541.939300 1 1003x Rx d 8 04 12 00 00 64 00 00 00 
55541.939600 1 1002x Rx d 8 04 12 00 60 64 00 00 00 
55541.939800 1 1042x Rx d 7 02 2D 2D 2A 2A 2E 2E 
55541.940100 1 1043x Rx d 7 02 29 29 2A 2A 2D 2D 
55541.940300 1 1083x Rx d 7 00 30 00 02 00 7D 00 
55541.940600 1 10C3x Rx d 7 00 10 00 00 00 7D 00 
55541.940900 1 1103x Rx d 7 00 20 00 01 00 7D 00 
55541.941200 1 1142x Rx d 7 03 30 00 03 00 7D 00 
55541.941400 1 1182x Rx d 7 00 10 00 00 00 7D 00 
55541.941700 1 11C2x Rx d 7 01 30 00 02 00 7D 00 
55541.942000 1 1403x Rx d 7 00 70 00 04 00 7D 00 
55541.942300 1 1442x Rx d 7 00 80 00 04 00 7D 00 
55541.946100 1 703 Rx d 8 20 40 80 38 DA 07 13 38 
55541.946300 1 702 Rx d 8 22 00 00 00 00 00 00 B0 
55541.946600 1 704 Rx d 7 95 82 D8 98 82 22 22 
55541.946800 1 705 Rx d 8 86 A3 38 88 03 7D 00 00 
55541.947000 1 706 Rx d 8 18 A0 01 18 00 7D 00 00 
55541.956100 1 702 Rx d 8 22 00 00 00 00 00 00 B0 
55541.956400 1 703 Rx d 8 20 40 80 00 30 2E 2F 2F 
55541.956600 1 704 Rx d 7 95 82 D8 98 83 22 22 
55541.956800 1 705 Rx d 8 86 A3 38 88 03 7D 00 00 
55541.957100 1 706 Rx d 8 18 A0 01 18 00 7D 00 00 
55541.966100 1 702 Rx d 8 22 00 00 00 00 00 00 B0 
55541.966400 1 703 Rx d 8 20 42 84 08 2F 2E 00 40 
55541.966600 1 704 Rx d 7 95 82 D8 98 83 22 22 
55541.966800 1 705 Rx d 8 86 A3 38 88 03 7D 00 00 
55541.967000 1 706 Rx d 8 18 A0 01 18 00 7D 00 00 
55541.976100 1 702 Rx d 8 22 00 00 00 00 00 00 B0 
55541.976400 1 703 Rx d 8 21 42 84 10 00 00 7D 00 
55541.976600 1 704 Rx d 7 95 82 D8 98 83 22 22 
55541.976900 1 705 Rx d 8 86 A3 38 88 03 7D 00 00 
55541.977100 1 706 Rx d 8 18 A0 01 18 00 7D 00 00 
55541.986200 1 702 Rx d 8 22 00 00 00 00 00 00 B0 
55541.986400 1 703 Rx d 8 21 42 84 18 00 00 72 79 
55541.986600 1 704 Rx d 7 95 82 D8 98 83 22 22 
55541.986800 1 705 Rx d 8 86 A3 38 88 03 7D 00 00 
55541.987100 1 706 Rx d 8 18 A0 01 18 00 7D 00 00 
55541.996100 1 702 Rx d 8 22 00 00 00 00 00 00 B0 
55541.996400 1 703 Rx d 8 21 44 88 20 36 33 89 30 
55541.996600 1 704 Rx d 7 95 82 D8 98 82 22 22 
55541.996800 1 705 Rx d 8 86 A3 38 88 03 7D 00 00 
55541.997100 1 706 Rx d 8 18 A0 01 18 00 7D 00 00 
55542.006100 1 702 Rx d 8 22 00 00 00 00 00 00 B0 
55542.006400 1 703 Rx d 8 22 44 88 28 A5 71 5D 05 
55542.006600 1 704 Rx d 7 95 82 D8 98 83 22 22 
55542.006800 1 705 Rx d 8 86 A3 38 88 03 7D 00 00 
55542.007100 1 706 Rx d 8 18 A0 01 18 00 7D 00 00 
55542.016200 1 702 Rx d 8 22 00 00 00 00 00 00 B0 
55542.016400 1 703 Rx d 8 22 44 88 30 D0 07 E5 DF 
55542.016600 1 704 Rx d 7 95 82 D8 98 83 22 22 
55542.016800 1 705 Rx d 8 86 A3 38 88 03 7D 00 00 
55542.017100 1 706 Rx d 8 18 A0 01 18 00 7D 00 00 
55542.026100 1 702 Rx d 8 22 00 00 00 00 00 00 B0 
55542.026400 1 703 Rx d 8 22 46 8C 38 DA 07 13 38 
55542.026600 1 704 Rx d 7 95 82 D8 98 83 22 22 
55542.026800 1 705 Rx d 8 86 A3 38 88 03 7D 00 00 
55542.027100 1 706 Rx d 8 18 A0 01 18 00 7D 00 00 
55542.036200 1 702 Rx d 8 22 00 00 00 00 00 00 B0 
55542.036400 1 703 Rx d 8 23 46 8C 00 30 2E 2F 2F 
55542.036600 1 704 Rx d 7 95 82 D8 98 82 22 22 
55542.036900 1 705 Rx d 8 86 A3 38 88 03 7D 00 00 
55542.037100 1 706 Rx d 8 18 A0 01 18 00 7D 00 00 
55542.039200 1 1043x Rx d 7 03 2D 2D 2B 2B 31 00 
55542.039500 1 1002x Rx d 8 04 12 00 80 54 00 00 00 
55542.039800 1 1003x Rx d 8 04 12 00 20 54 00 00 00 
55542.040100 1 1042x Rx d 7 03 2B 2B 28 28 30 00 
55542.040400 1 1083x Rx d 7 00 30 00 02 00 7D 00 
55542.040600 1 10C3x Rx d 7 00 10 00 00 00 7D 00 
55542.040900 1 1103x Rx d 7 00 30 00 01 00 7D 00 
55542.041200 1 1142x Rx d 7 03 40 00 03 00 7D 00 
55542.041500 1 1182x Rx d 7 00 10 00 00 00 7D 00 
55542.041700 1 11C2x Rx d 7 01 30 00 02 00 7D 00 
55542.042000 1 1403x Rx d 7 00 80 00 05 00 7D 00 
55542.042300 1 1442x Rx d 7 00 80 00 05 00 7D 00 
55542.046100 1 703 Rx d 8 23 46 8C 08 2F 2E 00 40 
55542.046400 1 702 Rx d 8 22 00 00 00 00 00 00 B0 
55542.046600 1 704 Rx d 7 95 82 D8 98 82 22 22 
55542.046800 1 705 Rx d 8 86 A3 38 88 03 7D 00 00 
55542.047100 1 706 Rx d 8 18 A0 01 18 00 7D 00 00 
55542.056100 1 703 Rx d 8 23 48 8C 10 00 00 7D 00 
55542.056400 1 702 Rx d 8 22 00 00 00 00 00 00 B0 
55542.056600 1 704 Rx d 7 95 82 D8 98 83 22 22 
55542.056800 1 705 Rx d 8 86 A3 38 88 03 7D 00 00 
55542.057100 1 706 Rx d 8 18 A0 01 18 00 7D 00 00 
55542.066100 1 702 Rx d 8 22 00 00 00 00 00 00 B0 
55542.066400 1 703 Rx d 8 24 48 90 18 00 00 72 79 
55542.066600 1 704 Rx d 7 95 82 D8 98 82 22 22 
55542.066800 1 705 Rx d 8 86 A3 38 88 03 7D 00 00 
55542.067100 1 706 Rx d 8 18 A0 01 18 00 7D 00 00 
55542.076200 1 702 Rx d 8 22 00 00 00 00 00 00 B0 
55542.076400 1 703 Rx d 8 24 48 90 20 36 33 89 30 
55542.076600 1 704 Rx d 7 95 82 D9 98 83 22 22 
55542.076800 1 705 Rx d 8 86 A3 38 88 03 7D 00 00 
55542.077000 1 706 Rx d 8 16 80 01 18 00 7D 00 00 
55542.086100 1 702 Rx d 8 22 00 00 00 00 00 00 B0 
55542.086300 1 703 Rx d 8 24 4A 90 28 A5 71 5D 05 
55542.086600 1 704 Rx d 7 95 82 D8 98 83 22 22 
55542.086800 1 705 Rx d 8 86 A3 38 88 03 7D 00 00 
55542.087100 1 706 Rx d 8 16 80 01 18 00 7D 00 00 
55542.096100 1 702 Rx d 8 22 00 00 00 00 00 00 B0 
55542.096400 1 703 Rx d 8 24 4A 94 30 D0 07 E5 DF 
55542.096600 1 704 Rx d 7 95 82 D9 98 82 22 22 
55542.096800 1 705 Rx d 8 86 A3 38 88 03 7D 00 00 
55542.097100 1 706 Rx d 8 16 80 01 18 00 7D 00 00 
55542.106100 1 702 Rx d 8 22 00 00 00 00 00 00 B0 
55542.106400 1 703 Rx d 8 25 4A 94 38 DA 07 13 38 
55542.106600 1 704 Rx d 7 95 82 D8 98 83 22 22 
55542.106800 1 705 Rx d 8 86 A3 38 88 03 7D 00 00 
55542.107000 1 706 Rx d 8 16 80 01 18 00 7D 00 00 
55542.116100 1 702 Rx d 8 22 00 00 00 00 00 00 B0 
55542.116400 1 703 Rx d 8 25 4C 94 00 30 2E 2F 2F 
55542.116600 1 704 Rx d 7 95 82 D8 98 83 22 22 
55542.116800 1 705 Rx d 8 86 A3 38 88 03 7D 00 00 
55542.117100 1 706 Rx d 8 16 80 01 16 00 7D 00 00 
55542.126200 1 702 Rx d 8 22 00 00 00 00 00 00 B0 
55542.126400 1 703 Rx d 8 25 4C 98 08 2F 2E 00 40 
55542.126600 1 704 Rx d 7 95 82 D8 98 82 22 22 
55542.126800 1 705 Rx d 8 86 A3 38 88 03 7D 00 00 
55542.127100 1 706 Rx d 8 16 A0 01 1A 00 7D 00 00 
55542.136100 1 702 Rx d 8 22 00 00 00 00 00 00 B0 
55542.136400 1 703 Rx d 8 26 4C 98 10 00 00 7D 00 
55542.136600 1 704 Rx d 7 95 82 D9 98 83 22 22 
55542.136900 1 705 Rx d 8 86 A3 38 88 03 7D 00 00 
55542.137100 1 706 Rx d 8 1A C0 01 1A 00 7D 00 00 
55542.139300 1 1043x Rx d 7 04 E8 03 86 96 BE 32 
55542.139600 1 1002x Rx d 8 04 12 00 A0 64 00 00 00 
55542.139900 1 1003x Rx d 8 04 12 00 40 64 00 00 00 
55542.140100 1 1042x Rx d 7 04 E8 03 5C 76 BE 32 
55542.140400 1 1083x Rx d 7 00 30 00 02 00 7D 00 
55542.140700 1 10C3x Rx d 7 00 10 00 00 00 7D 00 
55542.140900 1 1103x Rx d 7 00 30 00 02 00 7D 00 
55542.141200 1 1142x Rx d 7 03 40 00 04 00 7D 00 
55542.141500 1 1182x Rx d 7 00 10 00 00 00 7D 00 
55542.141700 1 11C2x Rx d 7 02 40 00 03 00 7D 00 
55542.142000 1 1403x Rx d 7 00 90 00 05 00 7D 00 
55542.142300 1 1442x Rx d 7 00 90 00 05 00 7D 00 
55542.146100 1 703 Rx d 8 26 4C 98 18 00 00 72 79 
55542.146400 1 702 Rx d 8 22 00 00 00 00 00 00 B0 
55542.146600 1 704 Rx d 7 95 82 D8 98 83 22 22 
55542.146800 1 705 Rx d 8 86 A3 38 88 03 7D 00 00 
55542.147100 1 706 Rx d 8 18 A0 01 1A 00 7D 00 00 
55542.156100 1 703 Rx d 8 26 4E 9C 20 36 33 89 30 
55542.156400 1 702 Rx d 8 22 00 00 00 00 00 00 B0 
55542.156600 1 704 Rx d 7 95 82 D8 98 82 22 22 
55542.156800 1 705 Rx d 8 86 A3 38 88 03 7D 00 00 
55542.157000 1 706 Rx d 8 18 C0 01 1A 00 7D 00 00 
55542.166100 1 703 Rx d 8 27 4E 9C 28 A5 71 5D 05 
55542.166300 1 702 Rx d 8 22 00 00 00 00 00 00 B0 
55542.166600 1 704 Rx d 7 95 82 D8 98 83 22 22 
55542.166800 1 705 Rx d 8 86 A3 38 88 03 7D 00 00 
55542.167100 1 706 Rx d 8 18 C0 01 1A 00 7D 00 00 
55542.176100 1 703 Rx d 8 27 4E 9C 30 D0 07 E5 DF 
55542.176400 1 702 Rx d 8 22 00 00 00 00 00 00 B0 
55542.176600 1 704 Rx d 7 95 82 D8 98 83 22 22 
55542.176800 1 705 Rx d 8 86 A3 38 88 03 7D 00 00 
55542.177100 1 706 Rx d 8 18 C0 01 1A 00 7D 00 00 
55542.186100 1 703 Rx d 8 27 50 A0 38 DA 07 13 38 
55542.186400 1 702 Rx d 8 22 00 00 00 00 00 00 B0 
55542.186600 1 704 Rx d 7 95 82 D8 98 82 22 22 
55542.186800 1 705 Rx d 8 86 A3 38 88 03 7D 00 00 
55542.187000 1 706 Rx d 8 18 C0 01 1A 00 7D 00 00 
55542.196100 1 703 Rx d 8 28 50 A0 00 30 2E 2F 2F 
55542.196400 1 702 Rx d 8 22 00 00 00 00 00 00 B0 
55542.196600 1 704 Rx d 7 95 82 D8 98 83 22 22 
55542.196800 1 705 Rx d 8 86 A3 38 88 03 7D 00 00 
55542.197100 1 706 Rx d 8 18 C0 01 1A 00 7D 00 00 
55542.206200 1 702 Rx d 8 22 00 00 00 00 00 00 B0 
55542.206400 1 703 Rx d 8 28 50 A0 08 2F 2F 00 40 
55542.206600 1 704 Rx d 7 95 82 D8 98 83 22 22 
55542.206800 1 705 Rx d 8 86 A3 38 88 03 7D 00 00 
55542.207100 1 706 Rx d 8 18 C0 01 1A 00 7D 00 00 
55542.216100 1 702 Rx d 8 22 00 00 00 00 00 00 B0 
55542.216400 1 703 Rx d 8 28 52 A0 10 00 00 7D 00 
55542.216600 1 704 Rx d 7 95 82 D8 98 82 22 22 
55542.216900 1 705 Rx d 8 86 A3 38 88 03 7D 00 00 
55542.217100 1 706 Rx d 8 1A C0 01 1A 00 7D 00 00 
55542.226200 1 702 Rx d 8 22 00 00 00 00 00 00 B0 
55542.226400 1 703 Rx d 8 28 52 A4 18 00 00 72 79 
55542.226600 1 704 Rx d 7 95 82 D8 98 83 22 22 
55542.226900 1 705 Rx d 8 86 A3 38 88 03 7D 00 00 
55542.227100 1 706 Rx d 8 18 A0 01 1A 00 7D 00 00 
55542.236200 1 702 Rx d 8 22 00 00 00 00 00 00 B0 
55542.236400 1 703 Rx d 8 29 52 A4 20 36 33 89 30 
55542.236600 1 704 Rx d 7 95 82 D8 98 82 22 22 
55542.236800 1 705 Rx d 8 86 A3 38 88 03 7D 00 00 
55542.237100 1 706 Rx d 8 1A C0 01 1A 00 7D 00 00 
55542.239300 1 1003x Rx d 8 04 12 00 00 64 00 00 00 
55542.239600 1 1002x Rx d 8 04 12 00 60 64 00 00 00 
55542.239800 1 1042x Rx d 7 05 E9 03 D5 28 85 34 
55542.240100 1 1043x Rx d 7 05 E9 03 D5 28 85 34 
55542.240300 1 1083x Rx d 7 01 40 00 03 00 7D 00 
55542.240600 1 10C3x Rx d 7 00 10 00 00 00 7D 00 
55542.240900 1 1103x Rx d 7 01 40 00 02 00 7D 00 
55542.241200 1 1142x Rx d 7 03 40 00 04 00 7D 00 
55542.241400 1 1182x Rx d 7 00 10 00 00 00 7D 00 
55542.241700 1 11C2x Rx d 7 02 40 00 03 00 7D 00 
55542.242000 1 1403x Rx d 7 01 90 00 06 00 7D 00 
55542.242300 1 1442x Rx d 7 01 90 00 06 00 7D 00 
55542.246200 1 702 Rx d 8 22 00 00 00 00 00 00 B0 
55542.246400 1 703 Rx d 8 29 54 A4 28 A5 71 5D 05 
55542.246600 1 704 Rx d 7 95 82 D8 98 83 22 22 
55542.246900 1 705 Rx d 8 86 A3 38 88 03 7D 00 00 
55542.247100 1 706 Rx d 8 1A C0 01 1A 00 7D 00 00 
55542.256200 1 702 Rx d 8 22 00 00 00 00 00 00 B0 
55542.256400 1 703 Rx d 8 29 54 A8 30 D0 07 E5 DF 
55542.256600 1 704 Rx d 7 95 82 D8 98 83 22 22 
55542.256800 1 705 Rx d 8 86 A3 38 88 03 7D 00 00 
55542.257100 1 706 Rx d 8 18 C0 01 1A 00 7D 00 00 
55542.266100 1 702 Rx d 8 22 00 00 00 00 00 00 B0 
55542.266400 1 703 Rx d 8 2A 54 A8 38 DA 07 13 38 
55542.266600 1 704 Rx d 7 95 82 D8 98 83 22 22 
55542.266800 1 705 Rx d 8 86 A3 38 88 03 7D 00 00 
55542.267100 1 706 Rx d 8 18 C0 01 1A 00 7D 00 00 
55542.276200 1 702 Rx d 8 22 00 00 00 00 00 00 B0 
55542.276400 1 703 Rx d 8 2A 56 A8 00 30 2E 2F 2F 
55542.276600 1 704 Rx d 7 95 82 D8 98 82 22 22 
55542.276900 1 705 Rx d 8 86 A3 38 88 03 7D 00 00 
55542.277100 1 706 Rx d 8 1A C0 01 1A 00 7D 00 00 
55542.286100 1 703 Rx d 8 2A 56 AC 08 2F 2E 00 40 
55542.286400 1 702 Rx d 8 22 00 00 00 00 00 00 B0 
55542.286600 1 704 Rx d 7 95 82 D8 98 83 22 22 
55542.286800 1 705 Rx d 8 86 A3 38 88 03 7D 00 00 
55542.287100 1 706 Rx d 8 1A C0 01 1A 00 7D 00 00 
55542.296100 1 703 Rx d 8 2B 56 AC 10 00 00 7D 00 
55542.296400 1 702 Rx d 8 22 00 00 00 00 00 00 B0 
55542.296600 1 704 Rx d 7 95 82 D8 98 83 22 22 
55542.296800 1 705 Rx d 8 86 A3 38 88 03 7D 00 00 
55542.297100 1 706 Rx d 8 1A C0 01 1A 00 7D 00 00 
55542.306100 1 702 Rx d 8 22 00 00 00 00 00 00 B0 
55542.306400 1 703 Rx d 8 2B 58 AC 18 00 00 72 79 
55542.306600 1 704 Rx d 7 95 82 D8 98 83 22 22 
55542.306800 1 705 Rx d 8 86 A3 38 88 03 7D 00 00 
55542.307100 1 706 Rx d 8 18 C0 01 1A 00 7D 00 00 
55542.316200 1 702 Rx d 8 22 00 00 00 00 00 00 B0 
55542.316400 1 703 Rx d 8 2B 58 B0 20 36 33 89 30 
55542.316600 1 704 Rx d 7 95 82 D8 98 82 22 22 
55542.316800 1 705 Rx d 8 86 A3 38 88 03 7D 00 00 
55542.317100 1 706 Rx d 8 1A C0 01 1A 00 7D 00 00 
55542.326100 1 702 Rx d 8 22 00 00 00 00 00 00 B0 
55542.326400 1 703 Rx d 8 2C 58 B0 28 A5 71 5D 05 
55542.326600 1 704 Rx d 7 95 82 D8 98 83 22 22 
55542.326800 1 705 Rx d 8 86 A3 38 88 03 7D 00 00 
55542.327100 1 706 Rx d 8 1A C0 01 1A 00 7D 00 00 
55542.336200 1 702 Rx d 8 22 00 00 00 00 00 00 B0 
55542.336400 1 703 Rx d 8 2C 5A B0 30 D0 07 E5 DF 
55542.336600 1 704 Rx d 7 95 82 D8 98 83 22 22 
55542.336800 1 705 Rx d 8 86 A3 38 88 03 7D 00 00 
55542.337100 1 706 Rx d 8 1A C0 01 1A 00 7D 00 00 
55542.339300 1 1043x Rx d 7 06 31 7E FF FF FF FF 
55542.339600 1 1002x Rx d 8 04 12 00 80 54 00 00 00 
55542.339900 1 1003x Rx d 8 04 12 00 20 54 00 00 00 
55542.340100 1 1042x Rx d 7 06 31 7E C1 64 25 0B 
55542.340400 1 1083x Rx d 7 01 40 00 03 00 7D 00 
55542.340700 1 10C3x Rx d 7 00 10 00 00 00 7D 00 
55542.340900 1 1103x Rx d 7 01 40 00 03 00 7D 00 
55542.341200 1 1142x Rx d 7 03 50 00 04 00 7D 00 
55542.341500 1 1182x Rx d 7 00 10 00 00 00 7D 00 
55542.341800 1 11C2x Rx d 7 02 40 00 03 00 7D 00 
55542.342000 1 1403x Rx d 7 01 90 00 06 00 7D 00 
55542.342300 1 1442x Rx d 7 01 90 00 06 00 7D 00 
55542.346100 1 702 Rx d 8 22 00 00 00 00 00 00 B0 
55542.346400 1 703 Rx d 8 2C 5A B4 38 DA 07 13 38 
55542.346600 1 704 Rx d 7 95 82 D8 98 83 22 22 
55542.346800 1 705 Rx d 8 86 A3 38 88 03 7D 00 00 
55542.347100 1 706 Rx d 8 1A C0 01 1A 00 7D 00 00 
55542.356100 1 702 Rx d 8 22 00 00 00 00 00 00 B0 
55542.356400 1 703 Rx d 8 2D 5A B4 00 30 2E 2F 2F 
55542.356600 1 704 Rx d 7 95 82 D8 98 83 22 22 
55542.356800 1 705 Rx d 8 86 A3 38 88 03 7D 00 00 
55542.357100 1 706 Rx d 8 1A C0 01 1A 00 7D 00 00 
55542.366200 1 702 Rx d 8 22 00 00 00 00 00 00 B0 
55542.366400 1 703 Rx d 8 2D 5A B4 08 2F 2E 00 40 
55542.366600 1 704 Rx d 7 95 82 D8 98 82 22 22 
55542.366800 1 705 Rx d 8 86 A3 38 88 03 7D 00 00 
55542.367100 1 706 Rx d 8 1A C0 01 1A 00 7D 00 00 
55542.376200 1 702 Rx d 8 22 00 00 00 00 00 00 B0 
55542.376400 1 703 Rx d 8 2D 5C B8 10 00 00 7D 00 
55542.376600 1 704 Rx d 7 95 82 D8 98 83 22 22 
55542.376900 1 705 Rx d 8 86 A3 38 88 03 7D 00 00 
55542.377100 1 706 Rx d 8 1A C0 01 1A 00 7D 00 00 
55542.386200 1 702 Rx d 8 22 00 00 00 00 00 00 B0 
55542.386400 1 703 Rx d 8 2E 5C B8 18 00 00 72 79 
55542.386600 1 704 Rx d 7 95 82 D8 98 82 22 22 
55542.386900 1 705 Rx d 8 86 A3 38 88 03 7D 00 00 
55542.387100 1 706 Rx d 8 1A C0 01 1A 00 7D 00 00 
55542.396200 1 702 Rx d 8 22 00 00 00 00 00 00 B0 
55542.396400 1 703 Rx d 8 2E 5C B8 20 36 33 89 30 
55542.396600 1 704 Rx d 7 95 82 D8 98 82 22 22 
55542.396800 1 705 Rx d 8 88 A3 38 88 03 7D 00 00 
55542.397100 1 706 Rx d 8 18 C0 01 1A 00 7D 00 00 
55542.406200 1 702 Rx d 8 22 00 00 00 00 00 00 B0 
55542.406400 1 703 Rx d 8 2E 5E BC 28 A5 71 5D 05 
55542.406600 1 704 Rx d 7 95 82 D8 98 83 22 22 
55542.406900 1 705 Rx d 8 86 A3 38 88 03 7D 00 00 
55542.407100 1 706 Rx d 8 18 C0 01 1A 00 7D 00 00 
55542.416200 1 702 Rx d 8 22 00 00 00 00 00 00 B0 
55542.416400 1 703 Rx d 8 2F 5E BC 30 D0 07 E5 DF 
55542.416600 1 704 Rx d 7 95 82 D8 98 82 22 22 
55542.416800 1 705 Rx d 8 86 A3 38 88 03 7D 00 00 
55542.417100 1 706 Rx d 8 1A C0 01 1A 00 7D 00 00 
55542.426100 1 702 Rx d 8 22 00 00 00 00 00 00 B0 
55542.426400 1 703 Rx d 8 2F 5E BC 38 DA 07 13 38 
55542.426600 1 704 Rx d 7 95 82 D8 98 82 22 22 
55542.426800 1 705 Rx d 8 86 A3 38 88 03 7D 00 00 
55542.427100 1 706 Rx d 8 1A C0 01 1A 00 7D 00 00 
55542.436200 1 702 Rx d 8 22 00 00 00 00 00 00 B0 
55542.436400 1 703 Rx d 8 2F 60 BC 00 30 2E 2F 2F 
55542.436600 1 704 Rx d 7 95 82 D8 98 83 22 22 
55542.436900 1 705 Rx d 8 86 A3 38 88 03 7D 00 00 
55542.437100 1 706 Rx d 8 1A C0 01 1A 00 7D 00 00 
55542.439300 1 1003x Rx d 8 04 12 00 40 64 00 00 00 
55542.439500 1 1002x Rx d 8 04 12 00 A0 64 00 00 00 
55542.439800 1 1042x Rx d 7 07 00 00 00 00 00 00 
55542.440100 1 1043x Rx d 7 07 00 00 00 00 00 00 
55542.440400 1 1083x Rx d 7 01 50 00 03 00 7D 00 
55542.440700 1 10C3x Rx d 7 00 10 00 00 00 7D 00 
55542.440900 1 1103x Rx d 7 02 50 00 04 00 7D 00 
55542.441200 1 1142x Rx d 7 03 50 00 04 00 7D 00 
55542.441500 1 1182x Rx d 7 00 10 00 00 00 7D 00 
55542.441700 1 11C2x Rx d 7 02 40 00 03 00 7D 00 
55542.442000 1 1403x Rx d 7 02 90 00 06 00 7D 00 
55542.442300 1 1442x Rx d 7 02 A0 00 06 00 7D 00 
55542.446100 1 703 Rx d 8 2F 60 C0 08 2F 2E 00 40 
55542.446400 1 702 Rx d 8 22 00 00 00 00 00 00 B0 
55542.446600 1 704 Rx d 7 95 82 D8 98 83 22 22 
55542.446800 1 705 Rx d 8 86 A3 38 88 03 7D 00 00 
55542.447100 1 706 Rx d 8 1A C0 01 1A 00 7D 00 00 
55542.456100 1 702 Rx d 8 22 00 00 00 00 00 00 B0 
55542.456400 1 703 Rx d 8 30 60 C0 10 00 00 7D 00 
55542.456600 1 704 Rx d 7 95 82 D8 98 83 22 22 
55542.456800 1 705 Rx d 8 86 A3 38 88 03 7D 00 00 
55542.457100 1 706 Rx d 8 1A C0 01 1A 00 7D 00 00 
55542.466100 1 702 Rx d 8 22 00 00 00 00 00 00 B0 
55542.466400 1 703 Rx d 8 30 62 C0 18 00 00 72 79 
55542.466600 1 704 Rx d 7 95 82 D8 98 83 22 22 
55542.466900 1 705 Rx d 8 86 A3 38 88 03 7D 00 00 
55542.467100 1 706 Rx d 8 1A C0 01 1A 00 7D 00 00 
55542.476200 1 702 Rx d 8 22 00 00 00 00 00 00 B0 
55542.476400 1 703 Rx d 8 30 62 C4 20 36 33 89 30 
55542.476600 1 704 Rx d 7 95 82 D8 98 83 22 22 
55542.476800 1 705 Rx d 8 86 A3 38 88 03 7D 00 00 
55542.477100 1 706 Rx d 8 18 C0 01 1A 00 7D 00 00 
55542.486100 1 702 Rx d 8 22 00 00 00 00 00 00 B0 
55542.486400 1 703 Rx d 8 31 62 C4 28 A5 71 5D 05 
55542.486600 1 704 Rx d 7 95 82 D8 98 83 22 22 
55542.486800 1 705 Rx d 8 86 A3 38 88 03 7D 00 00 
55542.487100 1 706 Rx d 8 1A C0 01 1A 00 7D 00 00 
55542.496200 1 702 Rx d 8 22 00 00 00 00 00 00 B0 
55542.496400 1 703 Rx d 8 31 62 C4 30 D0 07 E5 DF 
55542.496600 1 704 Rx d 7 95 82 D8 98 82 22 22 
55542.496800 1 705 Rx d 8 86 A3 38 88 03 7D 00 00 
55542.497100 1 706 Rx d 8 1A C0 01 1A 00 7D 00 00 
55542.506100 1 702 Rx d 8 22 00 00 00 00 00 00 B0 
55542.506400 1 703 Rx d 8 31 64 C8 38 DA 07 13 38 
55542.506600 1 704 Rx d 7 95 82 D8 98 83 22 22 
55542.506800 1 705 Rx d 8 86 A3 38 88 03 7D 00 00 
55542.507100 1 706 Rx d 8 1A C0 01 1A 00 7D 00 00 
55542.516100 1 702 Rx d 8 22 00 00 00 00 00 00 B0 
55542.516400 1 703 Rx d 8 32 64 C8 00 30 2E 2F 2F 
55542.516600 1 704 Rx d 7 95 82 D8 98 83 22 22 
55542.516800 1 705 Rx d 8 86 A3 38 88 03 7D 00 00 
55542.517100 1 706 Rx d 8 1A C0 01 1A 00 7D 00 00 
55542.526200 1 702 Rx d 8 22 00 00 00 00 00 00 B0 
55542.526400 1 703 Rx d 8 32 64 C8 08 2F 2F 00 40 
55542.526600 1 704 Rx d 7 95 82 D8 98 82 22 22 
55542.526800 1 705 Rx d 8 86 A3 38 88 03 7D 00 00 
55542.527100 1 706 Rx d 8 1A C0 01 1A 00 7D 00 00 
55542.536100 1 703 Rx d 8 32 66 C8 10 00 00 7D 00 
55542.536400 1 702 Rx d 8 62 00 00 00 00 00 00 B0 
55542.536600 1 704 Rx d 7 95 82 D8 98 83 22 22 
55542.536800 1 705 Rx d 8 86 A3 38 88 03 7D 00 00 
55542.537100 1 706 Rx d 8 1A C0 01 1A 00 7D 00 00 
55542.539300 1 1043x Rx d 7 08 65 64 63 63 64 64 
55542.539600 1 1002x Rx d 8 04 1A 00 60 64 00 00 00 
55542.539900 1 1003x Rx d 8 04 1A 00 00 64 00 00 00 
55542.540100 1 1042x Rx d 7 08 65 64 63 63 64 64 
55542.540400 1 1083x Rx d 7 02 50 00 03 00 7D 00 
55542.540600 1 10C3x Rx d 7 00 10 00 00 00 7D 00 
55542.540900 1 1103x Rx d 7 02 50 00 04 00 7D 00 
55542.541200 1 1142x Rx d 7 04 50 00 04 00 7D 00 
55542.541500 1 1182x Rx d 7 00 10 00 00 00 7D 00 
55542.541700 1 11C2x Rx d 7 02 40 00 03 00 7D 00 
55542.542000 1 1403x Rx d 7 02 A0 00 07 00 7D 00 
55542.542300 1 1442x Rx d 7 02 A0 00 07 00 7D 00 
55542.546100 1 702 Rx d 8 62 00 00 00 00 00 00 B0 
55542.546400 1 703 Rx d 8 32 66 CC 18 00 00 72 79 
55542.546600 1 704 Rx d 7 95 82 D8 98 82 22 22 
55542.546900 1 705 Rx d 8 86 A3 38 88 03 7D 00 00 
55542.547100 1 706 Rx d 8 1A C0 01 1A 00 7D 00 00 
55542.556200 1 702 Rx d 8 62 00 00 00 00 00 00 B0 
55542.556400 1 703 Rx d 8 33 66 CC 20 36 33 89 30 
55542.556600 1 704 Rx d 7 95 82 D8 98 82 22 22 
55542.556800 1 705 Rx d 8 86 A3 38 88 03 7D 00 00 
55542.557100 1 706 Rx d 8 1A C0 01 1A 00 7D 00 00 
55542.566200 1 702 Rx d 8 62 00 00 00 00 00 00 B0 
55542.566400 1 703 Rx d 8 33 66 CC 28 A5 71 5D 05 
55542.566600 1 704 Rx d 7 95 82 D8 98 83 22 22 
55542.566900 1 705 Rx d 8 88 A3 38 88 03 7D 00 00 
55542.567100 1 706 Rx d 8 1A C0 01 1A 00 7D 00 00 
55542.576200 1 702 Rx d 8 62 00 00 00 00 00 00 B0 
55542.576400 1 703 Rx d 8 33 68 D0 30 D0 07 E5 DF 
55542.576600 1 704 Rx d 7 95 82 D8 98 82 22 22 
55542.576800 1 705 Rx d 8 86 A3 38 88 03 7D 00 00 
55542.577100 1 706 Rx d 8 1A C0 01 1A 00 7D 00 00 
55542.586200 1 703 Rx d 8 34 68 D0 38 DA 07 13 38 
55542.586400 1 702 Rx d 8 62 00 00 00 00 00 00 B0 
55542.586600 1 704 Rx d 7 95 82 D8 98 83 22 22 
55542.586800 1 705 Rx d 8 86 A3 38 88 03 7D 00 00 
55542.587100 1 706 Rx d 8 1A C0 01 1A 00 7D 00 00 
55542.596100 1 703 Rx d 8 34 68 D0 00 30 2E 2F 2F 
55542.596400 1 702 Rx d 8 62 00 00 00 00 00 00 B0 
55542.596600 1 704 Rx d 7 95 82 D8 98 83 22 22 
55542.596800 1 705 Rx d 8 86 A3 38 88 03 7D 00 00 
55542.597100 1 706 Rx d 8 1A C0 01 1A 00 7D 00 00 
55542.606200 1 702 Rx d 8 62 00 00 00 00 00 00 B0 
55542.606400 1 703 Rx d 8 34 6A D0 08 2F 2E 00 40 
55542.606600 1 704 Rx d 7 95 82 D8 98 83 22 22 
55542.606800 1 705 Rx d 8 86 A3 38 88 03 7D 00 00 
55542.607100 1 706 Rx d 8 1A C0 01 1A 00 7D 00 00 
55542.616100 1 703 Rx d 8 34 6A D4 10 00 00 7D 00 
55542.616400 1 702 Rx d 8 62 00 00 00 00 00 00 B0 
55542.616600 1 704 Rx d 7 95 82 D8 98 83 22 22 
55542.616800 1 705 Rx d 8 86 A3 38 88 03 7D 00 00 
55542.617100 1 706 Rx d 8 1A C0 01 1A 00 7D 00 00 
55542.626100 1 702 Rx d 8 62 00 00 00 00 00 00 B0 
55542.626400 1 703 Rx d 8 35 6A D4 18 00 00 72 79 
55542.626600 1 704 Rx d 7 95 82 D8 98 83 22 22 
55542.626900 1 705 Rx d 8 86 A3 38 88 03 7D 00 00 
55542.627100 1 706 Rx d 8 1A C0 01 1A 00 7D 00 00 
55542.636200 1 702 Rx d 8 62 00 00 00 00 00 00 B0 
55542.636400 1 703 Rx d 8 35 6A D4 20 36 33 89 30 
55542.636600 1 704 Rx d 7 95 82 D9 98 83 22 22 
55542.636800 1 705 Rx d 8 86 A3 38 88 03 7D 00 00 
55542.637100 1 706 Rx d 8 1A C0 01 1A 00 7D 00 00 
55542.639300 1 1003x Rx d 8 0F 3E 00 20 5F 00 00 00 
55542.639600 1 1002x Rx d 8 0F 3E 00 80 5F 00 00 00 
55542.639800 1 1042x Rx d 7 09 65 64 00 00 00 00 
55542.640100 1 1043x Rx d 7 09 65 64 00 00 00 00 
55542.640400 1 1083x Rx d 7 01 50 00 03 00 7D 00 
55542.640600 1 10C3x Rx d 7 00 10 00 00 00 7D 00 
55542.640900 1 1103x Rx d 7 02 50 00 04 00 7D 00 
55542.641200 1 1142x Rx d 7 04 50 00 04 00 7D 00 
55542.641400 1 1182x Rx d 7 00 10 00 00 00 7D 00 
55542.641700 1 11C2x Rx d 7 02 40 00 03 00 7D 00 
55542.642000 1 1403x Rx d 7 01 A0 00 05 00 7D 00 
55542.642300 1 1442x Rx d 7 01 A0 00 05 00 7D 00 
55542.646200 1 702 Rx d 8 62 00 00 00 00 00 00 B0 
55542.646400 1 703 Rx d 8 35 6C D4 28 A5 71 5D 05 
55542.646600 1 704 Rx d 7 95 82 D8 98 83 22 22 
55542.646900 1 705 Rx d 8 86 A3 38 88 03 7D 00 00 
55542.647100 1 706 Rx d 8 1A C0 01 1A 00 7D 00 00 
55542.656200 1 702 Rx d 8 62 00 00 00 00 00 00 B0 
55542.656400 1 703 Rx d 8 35 6C D8 30 D0 07 E5 DF 
55542.656600 1 704 Rx d 7 95 82 D8 98 83 22 22 
55542.656800 1 705 Rx d 8 86 A3 38 88 03 7D 00 00 
55542.657100 1 706 Rx d 8 1A C0 01 1A 00 7D 00 00 
55542.666200 1 703 Rx d 8 36 6C D8 38 DA 07 13 38 
55542.666400 1 702 Rx d 8 62 00 00 00 00 00 00 B0 
55542.666600 1 704 Rx d 7 95 82 D8 98 82 22 22 
55542.666800 1 705 Rx d 8 86 A3 38 88 03 7D 00 00 
55542.667100 1 706 Rx d 8 1A C0 01 1A 00 7D 00 00 
55542.676100 1 703 Rx d 8 36 6C D8 00 30 2E 2F 2F 
55542.676400 1 702 Rx d 8 62 00 00 00 00 00 00 B0 
55542.676600 1 704 Rx d 7 95 82 D8 98 83 22 22 
55542.676800 1 705 Rx d 8 86 A3 38 88 03 7D 00 00 
55542.677100 1 706 Rx d 8 1A C0 01 1A 00 7D 00 00 
55542.686200 1 702 Rx d 8 62 00 00 00 00 00 00 B0 
55542.686400 1 703 Rx d 8 36 6E D8 08 2F 2E 00 40 
55542.686600 1 704 Rx d 7 95 82 D8 98 83 22 22 
55542.686800 1 705 Rx d 8 86 A3 38 88 03 7D 00 00 
55542.687100 1 706 Rx d 8 1A C0 01 1A 00 7D 00 00 
55542.696200 1 702 Rx d 8 62 00 00 00 00 00 00 B0 
55542.696400 1 703 Rx d 8 36 6E DC 10 00 00 7D 00 
55542.696600 1 704 Rx d 7 95 82 D8 98 82 22 22 
55542.696900 1 705 Rx d 8 88 A3 38 88 03 7D 00 00 
55542.697100 1 706 Rx d 8 18 C0 01 1A 00 7D 00 00 
55542.706100 1 703 Rx d 8 37 6E DC 18 00 00 72 79 
55542.706400 1 702 Rx d 8 62 00 00 00 00 00 00 B0 
55542.706600 1 704 Rx d 7 95 82 D8 98 83 22 22 
55542.706800 1 705 Rx d 8 86 A3 38 88 03 7D 00 00 
55542.707100 1 706 Rx d 8 1A C0 01 1A 00 7D 00 00 
55542.716100 1 703 Rx d 8 37 6E DC 20 36 33 89 30 
55542.716400 1 702 Rx d 8 62 00 00 00 00 00 00 B0 
55542.716600 1 704 Rx d 7 95 82 D8 98 83 22 22 
55542.716800 1 705 Rx d 8 86 A3 38 88 03 7D 00 00 
55542.717100 1 706 Rx d 8 1A C0 01 1A 00 7D 00 00 
55542.726100 1 702 Rx d 8 62 00 00 00 00 00 00 B0 
55542.726400 1 703 Rx d 8 37 70 DC 28 A5 71 5D 05 
55542.726600 1 704 Rx d 7 95 82 D8 98 83 22 22 
55542.726800 1 705 Rx d 8 88 A3 38 88 03 7D 00 00 
55542.727100 1 706 Rx d 8 1A C0 01 1A 00 7D 00 00 
55542.736200 1 702 Rx d 8 62 00 00 00 00 00 00 B0 
55542.736400 1 703 Rx d 8 37 70 E0 30 D0 07 E5 DF 
55542.736600 1 704 Rx d 7 95 82 D8 98 83 22 22 
55542.736900 1 705 Rx d 8 86 A3 38 88 03 7D 00 00 
55542.737100 1 706 Rx d 8 1A C0 01 1A 00 7D 00 00 
55542.739200 1 1003x Rx d 8 0F 3E 00 40 6F 00 00 00 
55542.739500 1 1002x Rx d 8 0F 3E 00 A0 6F 00 00 00 
55542.739800 1 1042x Rx d 7 00 59 A4 A5 83 00 00 
55542.740100 1 1043x Rx d 7 00 59 A4 A5 83 00 00 
55542.740300 1 1083x Rx d 7 01 40 00 02 00 7D 00 
55542.740600 1 10C3x Rx d 7 00 10 00 00 00 7D 00 
55542.740900 1 1103x Rx d 7 01 40 00 03 00 7D 00 
55542.741200 1 1142x Rx d 7 03 50 00 04 00 7D 00 
55542.741400 1 1182x Rx d 7 00 10 00 00 00 7D 00 
55542.741700 1 11C2x Rx d 7 02 40 00 03 00 7D 00 
55542.742000 1 1403x Rx d 7 00 80 00 05 00 7D 00 
55542.742300 1 1442x Rx d 7 00 80 00 05 00 7D 00 
55542.746200 1 702 Rx d 8 62 00 00 00 00 00 00 B0 
55542.746400 1 703 Rx d 8 38 70 E0 38 DA 07 13 38 
55542.746600 1 704 Rx d 7 95 82 D8 98 82 22 22 
55542.746800 1 705 Rx d 8 86 A3 38 88 03 7D 00 00 
55542.747100 1 706 Rx d 8 1A C0 01 1A 00 7D 00 00 
55542.756200 1 702 Rx d 8 62 00 00 00 00 00 00 B0 
55542.756400 1 703 Rx d 8 38 70 E0 00 30 2E 2F 2F 
55542.756600 1 704 Rx d 7 95 82 D8 98 83 22 22 
55542.756900 1 705 Rx d 8 86 A3 38 88 03 7D 00 00 
55542.757100 1 706 Rx d 8 1A C0 01 1A 00 7D 00 00 
55542.766200 1 702 Rx d 8 62 00 00 00 00 00 00 B0 
55542.766400 1 703 Rx d 8 38 72 E0 08 2F 2E 00 40 
55542.766600 1 704 Rx d 7 95 82 D8 98 83 22 22 
55542.766800 1 705 Rx d 8 86 A3 38 88 03 7D 00 00 
55542.767100 1 706 Rx d 8 1A C0 01 1A 00 7D 00 00 
55542.776200 1 702 Rx d 8 62 00 00 00 00 00 00 B0 
55542.776400 1 703 Rx d 8 38 72 E4 10 00 00 7D 00 
55542.776600 1 704 Rx d 7 95 82 D8 98 83 22 22 
55542.776900 1 705 Rx d 8 86 A3 38 88 03 7D 00 00 
55542.777100 1 706 Rx d 8 1A C0 01 1A 00 7D 00 00 
55542.786100 1 703 Rx d 8 39 72 E4 18 00 00 72 79 
55542.786400 1 702 Rx d 8 62 00 00 00 00 00 00 B0 
55542.786600 1 704 Rx d 7 95 82 D8 98 83 22 22 
55542.786800 1 705 Rx d 8 86 A3 38 88 03 7D 00 00 
55542.787100 1 706 Rx d 8 1A C0 01 1A 00 7D 00 00 
55542.796100 1 703 Rx d 8 39 72 E4 20 36 33 89 30 
55542.796400 1 702 Rx d 8 62 00 00 00 00 00 00 B0 
55542.796600 1 704 Rx d 7 95 82 D8 98 82 22 22 
55542.796800 1 705 Rx d 8 86 A3 38 88 03 7D 00 00 
55542.797100 1 706 Rx d 8 1A C0 01 1A 00 7D 00 00 
55542.806100 1 702 Rx d 8 62 00 00 00 00 00 00 B0 
55542.806400 1 703 Rx d 8 39 74 E4 28 A5 71 5D 05 
55542.806600 1 704 Rx d 7 95 82 D8 98 83 22 22 
55542.806800 1 705 Rx d 8 86 A3 38 88 03 7D 00 00 
55542.807100 1 706 Rx d 8 1A C0 01 1A 00 7D 00 00 
55542.816200 1 702 Rx d 8 62 00 00 00 00 00 00 B0 
55542.816400 1 703 Rx d 8 39 74 E8 30 D0 07 E5 DF 
55542.816600 1 704 Rx d 7 95 82 D8 98 83 22 22 
55542.816900 1 705 Rx d 8 86 A3 38 88 03 7D 00 00 
55542.817100 1 706 Rx d 8 1A C0 01 1A 00 7D 00 00 
55542.826200 1 702 Rx d 8 62 00 00 00 00 00 00 B0 
55542.826400 1 703 Rx d 8 3A 74 E8 38 DA 07 13 38 
55542.826600 1 704 Rx d 7 95 82 D8 98 83 22 22 
55542.826800 1 705 Rx d 8 86 A3 38 88 03 7D 00 00 
55542.827100 1 706 Rx d 8 1A C0 01 1A 00 7D 00 00 
55542.836200 1 702 Rx d 8 62 00 00 00 00 00 00 B0 
55542.836400 1 703 Rx d 8 3A 74 E8 00 30 2E 2F 2F 
55542.836600 1 704 Rx d 7 95 82 D8 98 83 22 22 
55542.836900 1 705 Rx d 8 86 A3 38 88 03 7D 00 00 
55542.837100 1 706 Rx d 8 1A C0 01 1A 00 7D 00 00 
55542.839300 1 1003x Rx d 8 0F 3E 00 00 6F 00 00 00 
55542.839500 1 1002x Rx d 8 0F 3E 00 60 6F 00 00 00 
55542.839800 1 1042x Rx d 7 01 2B 2B 2C 2C 2D 2D 
55542.840100 1 1043x Rx d 7 01 2E 2E 2E 2E 2C 2C 
55542.840300 1 1083x Rx d 7 01 40 00 02 00 7D 00 
55542.840600 1 10C3x Rx d 7 00 10 00 00 00 7D 00 
55542.840900 1 1103x Rx d 7 01 40 00 02 00 7D 00 
55542.841200 1 1142x Rx d 7 03 50 00 04 00 7D 00 
55542.841400 1 1182x Rx d 7 00 10 00 00 00 7D 00 
55542.841700 1 11C2x Rx d 7 02 40 00 03 00 7D 00 
55542.842000 1 1403x Rx d 7 00 80 00 05 00 7D 00 
55542.842200 1 1442x Rx d 7 00 80 00 05 00 7D 00 
55542.846200 1 703 Rx d 8 3A 74 E8 08 2F 2F 00 40 
55542.846400 1 702 Rx d 8 62 00 00 00 00 00 00 B0 
55542.846600 1 704 Rx d 7 95 82 D8 98 83 22 22 
55542.846800 1 705 Rx d 8 86 A3 38 88 03 7D 00 00 
55542.847100 1 706 Rx d 8 1A C0 01 1A 00 7D 00 00 
55542.856200 1 702 Rx d 8 62 00 00 00 00 00 00 B0 
55542.856400 1 703 Rx d 8 3A 76 EC 10 00 00 7D 00 
55542.856600 1 704 Rx d 7 95 82 D8 98 83 22 22 
55542.856900 1 705 Rx d 8 86 A3 38 88 03 7D 00 00 
55542.857100 1 706 Rx d 8 1A C0 01 1A 00 7D 00 00 
55542.866100 1 703 Rx d 8 3B 76 EC 18 00 00 72 79 
55542.866400 1 702 Rx d 8 62 00 00 00 00 00 00 B0 
55542.866600 1 704 Rx d 7 95 82 D8 98 83 22 22 
55542.866800 1 705 Rx d 8 88 A3 38 88 03 7D 00 00 
55542.867100 1 706 Rx d 8 1A C0 01 1A 00 7D 00 00 
55542.876100 1 703 Rx d 8 3B 76 EC 20 36 33 89 30 
55542.876400 1 702 Rx d 8 62 00 00 00 00 00 00 B0 
55542.876600 1 704 Rx d 7 95 82 D8 98 82 22 22 
55542.876800 1 705 Rx d 8 86 A3 38 88 03 7D 00 00 
55542.877100 1 706 Rx d 8 1A C0 01 1A 00 7D 00 00 
55542.886100 1 702 Rx d 8 62 00 00 00 00 00 00 B0 
55542.886400 1 703 Rx d 8 3B 76 EC 28 A5 71 5D 05 
55542.886600 1 704 Rx d 7 95 82 D8 98 83 22 22 
55542.886800 1 705 Rx d 8 86 A3 38 88 03 7D 00 00 
55542.887100 1 706 Rx d 8 1A C0 01 1A 00 7D 00 00 
55542.896200 1 702 Rx d 8 62 00 00 00 00 00 00 B0 
55542.896400 1 703 Rx d 8 3B 78 EC 30 D0 07 E5 DF 
55542.896600 1 704 Rx d 7 95 82 D8 98 83 22 22 
55542.896900 1 705 Rx d 8 86 A3 38 88 03 7D 00 00 
55542.897100 1 706 Rx d 8 1A C0 01 1A 00 7D 00 00 
55542.906200 1 702 Rx d 8 62 00 00 00 00 00 00 B0 
55542.906400 1 703 Rx d 8 3B 78 F0 38 DA 07 13 38 
55542.906600 1 704 Rx d 7 95 82 D8 98 83 22 22 
55542.906800 1 705 Rx d 8 86 A3 38 88 03 7D 00 00 
55542.907100 1 706 Rx d 8 1A C0 01 1A 00 7D 00 00 
55542.916200 1 702 Rx d 8 62 00 00 00 00 00 00 B0 
55542.916400 1 703 Rx d 8 3C 78 F0 00 30 2E 2F 2F 
55542.916600 1 704 Rx d 7 95 82 D8 98 83 22 22 
55542.916900 1 705 Rx d 8 86 A3 38 88 03 7D 00 00 
55542.917100 1 706 Rx d 8 1A C0 01 1A 00 7D 00 00 
55542.926200 1 703 Rx d 8 3C 78 F0 08 2F 2F 00 40 
55542.926400 1 702 Rx d 8 62 00 00 00 00 00 00 B0 
55542.926600 1 704 Rx d 7 95 82 D8 98 83 22 22 
55542.926800 1 705 Rx d 8 86 A3 38 88 03 7D 00 00 
55542.927100 1 706 Rx d 8 1A C0 01 1A 00 7D 00 00 
55542.936100 1 702 Rx d 8 62 00 00 00 00 00 00 B0 
55542.936400 1 703 Rx d 8 3C 78 F0 10 00 00 7D 00 
55542.936600 1 704 Rx d 7 95 82 D8 98 83 22 22 
55542.936900 1 705 Rx d 8 86 A3 38 88 03 7D 00 00 
55542.937100 1 706 Rx d 8 1A C0 01 1A 00 7D 00 00 
55542.939300 1 1043x Rx d 7 02 29 29 2A 2A 2D 2D 
55542.939500 1 1002x Rx d 8 0F 3E 00 80 5F 00 00 00 
55542.939800 1 1003x Rx d 8 0F 3E 00 20 5F 00 00 00 
55542.940100 1 1042x Rx d 7 02 2C 2C 2A 2A 2E 2E 
55542.940400 1 1083x Rx d 7 01 40 00 02 00 7D 00 
55542.940600 1 10C3x Rx d 7 00 10 00 00 00 7D 00 
55542.940900 1 1103x Rx d 7 01 40 00 02 00 7D 00 
55542.941200 1 1142x Rx d 7 03 40 00 04 00 7D 00 
55542.941400 1 1182x Rx d 7 00 10 00 00 00 7D 00 
55542.941700 1 11C2x Rx d 7 02 40 00 03 00 7D 00 
55542.942000 1 1403x Rx d 7 00 80 00 05 00 7D 00 
55542.942200 1 1442x Rx d 7 00 80 00 05 00 7D 00 
55542.946200 1 702 Rx d 8 62 00 00 00 00 00 00 B0 
55542.946400 1 703 Rx d 8 3C 7A F0 18 00 00 72 79 
55542.946600 1 704 Rx d 7 95 82 D8 98 83 22 22 
55542.946900 1 705 Rx d 8 86 A3 38 88 03 7D 00 00 
55542.947100 1 706 Rx d 8 1A C0 01 1A 00 7D 00 00 
55542.956200 1 703 Rx d 8 3C 7A F4 20 36 33 89 30 
55542.956400 1 702 Rx d 8 62 00 00 00 00 00 00 B0 
55542.956600 1 704 Rx d 7 95 82 D8 98 83 22 22 
55542.956800 1 705 Rx d 8 86 A3 38 88 03 7D 00 00 
55542.957100 1 706 Rx d 8 1A C0 01 1A 00 7D 00 00 
55542.966100 1 703 Rx d 8 3D 7A F4 28 A5 71 5D 05 
55542.966400 1 702 Rx d 8 62 00 00 00 00 00 00 B0 
55542.966600 1 704 Rx d 7 95 82 D8 98 83 22 22 
55542.966800 1 705 Rx d 8 86 A3 38 88 03 7D 00 00 
55542.967100 1 706 Rx d 8 1A C0 01 1A 00 7D 00 00 
55542.976200 1 702 Rx d 8 62 00 00 00 00 00 00 B0 
55542.976400 1 703 Rx d 8 3D 7A F4 30 D0 07 E5 DF 
55542.976600 1 704 Rx d 7 95 82 D8 98 83 22 22 
55542.976900 1 705 Rx d 8 86 A3 38 88 03 7D 00 00 
55542.977100 1 706 Rx d 8 1A C0 01 1A 00 7D 00 00 
55542.986200 1 702 Rx d 8 62 00 00 00 00 00 00 B0 
55542.986400 1 703 Rx d 8 3D 7A F4 38 DA 07 13 38 
55542.986600 1 704 Rx d 7 95 82 D8 98 83 22 22 
55542.986900 1 705 Rx d 8 88 A3 38 88 03 7D 00 00 
55542.987100 1 706 Rx d 8 1A C0 01 1A 00 7D 00 00 
55542.996200 1 702 Rx d 8 62 00 00 00 00 00 00 B0 
55542.996400 1 703 Rx d 8 3D 7C F4 00 30 2E 2F 2F 
55542.996600 1 704 Rx d 7 95 82 D8 98 83 22 22 
55542.996900 1 705 Rx d 8 86 A3 38 88 03 7D 00 00 
55542.997100 1 706 Rx d 8 1A C0 01 1A 00 7D 00 00 
55543.006200 1 702 Rx d 8 62 00 00 00 00 00 00 B0 
55543.006400 1 703 Rx d 8 3D 7C F8 08 2F 2F 00 40 
55543.006600 1 704 Rx d 7 95 82 D8 98 83 22 22 
55543.006800 1 705 Rx d 8 86 A3 38 88 03 7D 00 00 
55543.007100 1 706 Rx d 8 1A C0 01 1A 00 7D 00 00 
55543.016200 1 702 Rx d 8 62 00 00 00 00 00 00 B0 
55543.016400 1 703 Rx d 8 3E 7C F8 10 00 00 7D 00 
55543.016700 1 704 Rx d 7 95 82 D8 98 83 22 22 
55543.016900 1 705 Rx d 8 86 A3 38 88 03 7D 00 00 
55543.017100 1 706 Rx d 8 1A C0 01 1A 00 7D 00 00 
55543.026200 1 703 Rx d 8 3E 7C F8 18 00 00 72 79 
55543.026400 1 702 Rx d 8 62 00 00 00 00 00 00 B0 
55543.026600 1 704 Rx d 7 95 82 D8 98 82 22 22 
55543.026900 1 705 Rx d 8 86 A3 38 88 03 7D 00 00 
55543.027100 1 706 Rx d 8 1A C0 01 1A 00 7D 00 00 
55543.036200 1 703 Rx d 8 3E 7C F8 20 36 33 89 30 
55543.036400 1 702 Rx d 8 62 00 00 00 00 00 00 B0 
55543.036600 1 704 Rx d 7 95 82 D8 98 83 22 22 
55543.036900 1 705 Rx d 8 86 A3 38 88 03 7D 00 00 
55543.037100 1 706 Rx d 8 1A C0 01 1A 00 7D 00 00 
55543.039300 1 1043x Rx d 7 03 2D 2D 2B 2B 31 00 
55543.039600 1 1002x Rx d 8 0F 3E 00 A0 6F 00 00 00 
55543.039800 1 1003x Rx d 8 0F 3E 00 40 6F 00 00 00 
55543.040100 1 1042x Rx d 7 03 2C 2C 28 28 30 00 
55543.040400 1 1083x Rx d 7 01 40 00 02 00 7D 00 
55543.040600 1 10C3x Rx d 7 00 10 00 00 00 7D 00 
55543.040900 1 1103x Rx d 7 01 30 00 01 00 7D 00 
55543.041200 1 1142x Rx d 7 03 40 00 04 00 7D 00 
55543.041500 1 1182x Rx d 7 00 10 00 00 00 7D 00 
55543.041700 1 11C2x Rx d 7 01 40 00 02 00 7D 00 
55543.042000 1 1403x Rx d 7 00 80 00 05 00 7D 00 
55543.042300 1 1442x Rx d 7 00 80 00 05 00 7D 00 
55543.046200 1 702 Rx d 8 62 00 00 00 00 00 00 B0 
55543.046400 1 703 Rx d 8 3E 7C F8 28 A5 71 5D 05 
55543.046600 1 704 Rx d 7 95 82 D8 98 83 22 22 
55543.046900 1 705 Rx d 8 86 A3 38 88 03 7D 00 00 
55543.047100 1 706 Rx d 8 1A C0 01 1A 00 7D 00 00 
55543.056200 1 702 Rx d 8 62 00 00 00 00 00 00 B0 
55543.056400 1 703 Rx d 8 3E 7C F8 30 D0 07 E5 DF 
55543.056600 1 704 Rx d 7 95 82 D8 98 83 22 22 
55543.056900 1 705 Rx d 8 86 A3 38 88 03 7D 00 00 
55543.057100 1 706 Rx d 8 1A C0 01 1A 00 7D 00 00 
55543.066200 1 702 Rx d 8 62 00 00 00 00 00 00 B0 
55543.066400 1 703 Rx d 8 3E 7E F8 38 DA 07 13 38 
55543.066700 1 704 Rx d 7 95 82 D8 98 83 22 22 
55543.066900 1 705 Rx d 8 86 A3 38 88 03 7D 00 00 
55543.067100 1 706 Rx d 8 1A C0 01 1A 00 7D 00 00 
55543.076200 1 702 Rx d 8 62 00 00 00 00 00 00 B0 
55543.076500 1 703 Rx d 8 3E 7E FC 00 30 2E 2F 2F 
55543.076700 1 704 Rx d 7 95 82 D8 98 83 22 22 
55543.076900 1 705 Rx d 8 86 A3 38 88 03 7D 00 00 
55543.077100 1 706 Rx d 8 1A C0 01 1A 00 7D 00 00 
55543.086200 1 703 Rx d 8 3F 7E FC 08 2F 2F 00 40 
55543.086400 1 702 Rx d 8 62 00 00 00 00 00 00 B0 
55543.086600 1 704 Rx d 7 95 82 D8 98 83 22 22 
55543.086900 1 705 Rx d 8 86 A3 38 88 03 7D 00 00 
55543.087100 1 706 Rx d 8 1A C0 01 1A 00 7D 00 00 
55543.096200 1 702 Rx d 8 62 00 00 00 00 00 00 B0 
55543.096400 1 703 Rx d 8 3F 7E FC 10 00 00 7D 00 
55543.096600 1 704 Rx d 7 95 82 D8 98 83 22 22 
55543.096900 1 705 Rx d 8 86 A3 38 88 03 7D 00 00 
55543.097100 1 706 Rx d 8 1A C0 01 1A 00 7D 00 00 
55543.106200 1 702 Rx d 8 62 00 00 00 00 00 00 B0 
55543.106500 1 703 Rx d 8 3F 7E FC 18 00 00 72 79 
55543.106700 1 704 Rx d 7 95 82 D8 98 83 22 22 
55543.106900 1 705 Rx d 8 86 A3 38 88 03 7D 00 00 
55543.107100 1 706 Rx d 8 1A C0 01 1A 00 7D 00 00 
55543.116200 1 703 Rx d 8 3F 7E FC 20 36 33 89 30 
55543.116400 1 702 Rx d 8 62 00 00 00 00 00 00 B0 
55543.116600 1 704 Rx d 7 95 82 D8 98 82 22 22 
55543.116900 1 705 Rx d 8 86 A3 38 88 03 7D 00 00 
55543.117100 1 706 Rx d 8 1A C0 01 1A 00 7D 00 00 
55543.126200 1 703 Rx d 8 3F 7E FC 28 A5 71 5D 05 
55543.126400 1 702 Rx d 8 62 00 00 00 00 00 00 B0 
55543.126600 1 704 Rx d 7 95 82 D8 98 83 22 22 
55543.126900 1 705 Rx d 8 86 A3 38 88 03 7D 00 00 
55543.127100 1 706 Rx d 8 18 C0 01 1A 00 7D 00 00 
55543.136200 1 702 Rx d 8 62 00 00 00 00 00 00 B0 
55543.136400 1 703 Rx d 8 3F 80 FC 30 D0 07 E5 DF 
55543.136600 1 704 Rx d 7 95 82 D8 98 83 22 22 
55543.136900 1 705 Rx d 8 88 A3 38 88 03 7D 00 00 
55543.137100 1 706 Rx d 8 1A C0 01 1A 00 7D 00 00 
55543.139200 1 1043x Rx d 7 04 E8 03 86 96 BE 32 
55543.139500 1 1002x Rx d 8 0F 3E 00 60 6F 00 00 00 
55543.139800 1 1003x Rx d 8 0F 3E 00 00 6F 00 00 00 
55543.140100 1 1042x Rx d 7 04 E8 03 5C 76 BE 32 
55543.140400 1 1083x Rx d 7 01 40 00 02 00 7D 00 
55543.140600 1 10C3x Rx d 7 00 10 00 00 00 7D 00 
55543.140900 1 1103x Rx d 7 01 30 00 01 00 7D 00 
55543.141200 1 1142x Rx d 7 03 40 00 04 00 7D 00 
55543.141400 1 1182x Rx d 7 00 10 00 00 00 7D 00 
55543.141700 1 11C2x Rx d 7 01 30 00 02 00 7D 00 
55543.142000 1 1403x Rx d 7 00 80 00 05 00 7D 00 
55543.142300 1 1442x Rx d 7 00 80 00 05 00 7D 00 
55543.146200 1 702 Rx d 8 62 00 00 00 00 00 00 B0 
55543.146400 1 703 Rx d 8 3F 80 FC 38 DA 07 13 38 
55543.146700 1 704 Rx d 7 95 82 D8 98 82 22 22 
55543.146900 1 705 Rx d 8 86 A3 38 88 03 7D 00 00 
55543.147100 1 706 Rx d 8 1A C0 01 1A 00 7D 00 00 
55543.156200 1 702 Rx d 8 62 00 00 00 00 00 00 B0 
55543.156500 1 703 Rx d 8 3F 80 00 01 30 2E 2F 2F 
55543.156700 1 704 Rx d 7 95 82 D8 98 83 22 22 
55543.156900 1 705 Rx d 8 86 A3 38 88 03 7D 00 00 
55543.157100 1 706 Rx d 8 1A C0 01 1A 00 7D 00 00 
55543.166200 1 703 Rx d 8 40 80 00 09 2F 2F 00 40 
55543.166400 1 702 Rx d 8 62 00 00 00 00 00 00 B0 
55543.166600 1 704 Rx d 7 95 82 D8 98 83 22 22 
55543.166900 1 705 Rx d 8 86 A3 38 88 03 7D 00 00 
55543.167100 1 706 Rx d 8 1A C0 01 1A 00 7D 00 00 
55543.176200 1 702 Rx d 8 62 00 00 00 00 00 00 B0 
55543.176400 1 703 Rx d 8 40 80 00 11 00 00 7D 00 
55543.176600 1 704 Rx d 7 95 82 D8 98 83 22 22 
55543.176900 1 705 Rx d 8 86 A3 38 88 03 7D 00 00 
55543.177100 1 706 Rx d 8 1A C0 01 1A 00 7D 00 00 
55543.186200 1 702 Rx d 8 62 00 00 00 00 00 00 B0 
55543.186500 1 703 Rx d 8 40 80 00 19 00 00 72 79 
55543.186700 1 704 Rx d 7 95 82 D8 98 83 22 22 
55543.186900 1 705 Rx d 8 86 A3 38 88 03 7D 00 00 
55543.187100 1 706 Rx d 8 1A C0 01 1A 00 7D 00 00 
55543.196200 1 703 Rx d 8 40 80 00 21 36 33 89 30 
55543.196400 1 702 Rx d 8 62 00 00 00 00 00 00 B0 
55543.196600 1 704 Rx d 7 95 82 D8 98 83 22 22 
55543.196900 1 705 Rx d 8 86 A3 38 88 03 7D 00 00 
55543.197100 1 706 Rx d 8 1A C0 01 1A 00 7D 00 00 
55543.206200 1 703 Rx d 8 40 80 00 29 A5 71 5D 05 
55543.206400 1 702 Rx d 8 62 00 00 00 00 00 00 B0 
55543.206600 1 704 Rx d 7 95 82 D8 98 83 22 22 
55543.206900 1 705 Rx d 8 86 A3 38 88 03 7D 00 00 
55543.207100 1 706 Rx d 8 1A C0 01 1A 00 7D 00 00 
55543.216200 1 702 Rx d 8 62 00 00 00 00 00 00 B0 
55543.216400 1 703 Rx d 8 40 82 00 31 D0 07 E5 DF 
55543.216600 1 704 Rx d 7 95 82 D8 98 83 22 22 
55543.216900 1 705 Rx d 8 86 A3 38 88 03 7D 00 00 
55543.217100 1 706 Rx d 8 1A C0 01 1A 00 7D 00 00 
55543.226200 1 702 Rx d 8 62 00 00 00 00 00 00 B0 
55543.226400 1 703 Rx d 8 40 82 04 39 DA 07 13 38 
55543.226700 1 704 Rx d 7 95 82 D8 98 83 22 22 
55543.226900 1 705 Rx d 8 86 A3 38 88 03 7D 00 00 
55543.227100 1 706 Rx d 8 1A C0 01 1A 00 7D 00 00 
55543.236200 1 702 Rx d 8 62 00 00 00 00 00 00 B0 
55543.236500 1 703 Rx d 8 41 82 04 01 30 2E 2F 2F 
55543.236700 1 704 Rx d 7 95 82 D8 98 82 22 22 
55543.236900 1 705 Rx d 8 86 A3 38 88 03 7D 00 00 
55543.237200 1 706 Rx d 8 1A C0 01 1A 00 7D 00 00 
55543.239200 1 1043x Rx d 7 05 E9 03 D5 28 85 34 
55543.239500 1 1002x Rx d 8 0F 3E 00 80 5F 00 00 00 
55543.239800 1 1003x Rx d 8 0F 3E 00 20 5F 00 00 00 
55543.240100 1 1042x Rx d 7 05 E9 03 D5 28 85 34 
55543.240400 1 1083x Rx d 7 01 40 00 02 00 7D 00 
55543.240600 1 10C3x Rx d 7 00 10 00 00 00 7D 00 
55543.240900 1 1103x Rx d 7 01 30 00 01 00 7D 00 
55543.241200 1 1142x Rx d 7 03 40 00 04 00 7D 00 
55543.241500 1 1182x Rx d 7 00 10 00 00 00 7D 00 
55543.241700 1 11C2x Rx d 7 01 30 00 02 00 7D 00 
55543.242000 1 1403x Rx d 7 00 80 00 05 00 7D 00 
55543.242300 1 1442x Rx d 7 00 80 00 05 00 7D 00 
55543.246200 1 703 Rx d 8 41 82 04 09 2F 2E 00 40 
55543.246400 1 702 Rx d 8 62 00 00 00 00 00 00 B0 
55543.246600 1 704 Rx d 7 95 82 D8 98 83 22 22 
55543.246900 1 705 Rx d 8 86 A3 38 88 03 7D 00 00 
55543.247100 1 706 Rx d 8 1A C0 01 1A 00 7D 00 00 
55543.256200 1 702 Rx d 8 62 00 00 00 00 00 00 B0 
55543.256400 1 703 Rx d 8 41 82 04 11 00 00 7D 00 
55543.256600 1 704 Rx d 7 95 82 D8 98 83 22 22 
55543.256900 1 705 Rx d 8 86 A3 38 88 03 7D 00 00 
55543.257100 1 706 Rx d 8 1A C0 01 1A 00 7D 00 00 
55543.266200 1 702 Rx d 8 62 00 00 00 00 00 00 B0 
55543.266500 1 703 Rx d 8 41 82 04 19 00 00 72 79 
55543.266700 1 704 Rx d 7 95 82 D8 98 83 22 22 
55543.266900 1 705 Rx d 8 86 A3 38 88 03 7D 00 00 
55543.267100 1 706 Rx d 8 1A C0 01 1A 00 7D 00 00 
55543.276200 1 702 Rx d 8 62 00 00 00 00 00 00 B0 
55543.276400 1 703 Rx d 8 41 82 04 21 36 33 89 30 
55543.276700 1 704 Rx d 7 95 82 D8 98 83 22 22 
55543.276900 1 705 Rx d 8 86 A3 38 88 03 7D 00 00 
55543.277100 1 706 Rx d 8 1A C0 01 1A 00 7D 00 00 
55543.286200 1 703 Rx d 8 41 82 04 29 A5 71 5D 05 
55543.286400 1 702 Rx d 8 62 00 00 00 00 00 00 B0 
55543.286600 1 704 Rx d 7 95 82 D8 98 83 22 22 
55543.286900 1 705 Rx d 8 86 A3 38 88 03 7D 00 00 
55543.287100 1 706 Rx d 8 1A C0 01 1A 00 7D 00 00 
55543.296200 1 703 Rx d 8 41 84 04 31 D0 07 E5 DF 
55543.296400 1 702 Rx d 8 62 00 00 00 00 00 00 B0 
55543.296600 1 704 Rx d 7 95 82 D8 98 83 22 22 
55543.296900 1 705 Rx d 8 86 A3 38 88 03 7D 00 00 
55543.297100 1 706 Rx d 8 1A C0 01 1A 00 7D 00 00 
55543.306200 1 702 Rx d 8 62 00 00 00 00 00 00 B0 
55543.306400 1 703 Rx d 8 41 84 08 39 DA 07 13 38 
55543.306700 1 704 Rx d 7 95 82 D8 98 83 22 22 
55543.306900 1 705 Rx d 8 86 A3 38 88 03 7D 00 00 
55543.307100 1 706 Rx d 8 1A C0 01 1A 00 7D 00 00 
55543.316200 1 702 Rx d 8 62 00 00 00 00 00 00 B0 
55543.316400 1 703 Rx d 8 42 84 08 01 30 2E 2F 2F 
55543.316600 1 704 Rx d 7 95 82 D8 98 83 22 22 
55543.316900 1 705 Rx d 8 86 A3 38 88 03 7D 00 00 
55543.317100 1 706 Rx d 8 1A C0 01 1A 00 7D 00 00 
55543.326200 1 703 Rx d 8 42 84 08 09 2F 2F 00 40 
55543.326400 1 702 Rx d 8 62 00 00 00 00 00 00 B0 
55543.326600 1 704 Rx d 7 95 82 D8 98 83 22 22 
55543.326900 1 705 Rx d 8 86 A3 38 88 03 7D 00 00 
55543.327100 1 706 Rx d 8 1A C0 01 1A 00 7D 00 00 
55543.336200 1 702 Rx d 8 62 00 00 00 00 00 00 B0 
55543.336400 1 703 Rx d 8 42 84 08 11 00 00 7D 00 
55543.336700 1 704 Rx d 7 95 82 D8 98 82 22 22 
55543.336900 1 705 Rx d 8 86 A3 38 88 03 7D 00 00 
55543.337100 1 706 Rx d 8 1A C0 01 1A 00 7D 00 00 
55543.339300 1 1003x Rx d 8 0F 3E 00 40 6F 00 00 00 
55543.339600 1 1002x Rx d 8 0F 3E 00 A0 6F 00 00 00 
55543.339900 1 1042x Rx d 7 06 31 7E C1 64 25 0B 
55543.340100 1 1043x Rx d 7 06 31 7E FF FF FF FF 
55543.340400 1 1083x Rx d 7 01 40 00 02 00 7D 00 
55543.340700 1 10C3x Rx d 7 00 10 00 00 00 7D 00 
55543.340900 1 1103x Rx d 7 01 40 00 02 00 7D 00 
55543.341200 1 1142x Rx d 7 03 40 00 04 00 7D 00 
55543.341500 1 1182x Rx d 7 00 10 00 00 00 7D 00 
55543.341800 1 11C2x Rx d 7 01 30 00 02 00 7D 00 
55543.342000 1 1403x Rx d 7 00 80 00 05 00 7D 00 
55543.342300 1 1442x Rx d 7 00 80 00 05 00 7D 00 
55543.346200 1 702 Rx d 8 62 00 00 00 00 00 00 B0 
55543.346500 1 703 Rx d 8 42 84 08 19 00 00 72 79 
55543.346700 1 704 Rx d 7 95 82 D8 98 83 22 22 
55543.346900 1 705 Rx d 8 86 A3 38 88 03 7D 00 00 
55543.347100 1 706 Rx d 8 1A C0 01 1A 00 7D 00 00 
55543.356200 1 702 Rx d 8 62 00 00 00 00 00 00 B0 
55543.356400 1 703 Rx d 8 42 84 08 21 36 33 89 30 
55543.356700 1 704 Rx d 7 95 82 D8 98 83 22 22 
55543.356900 1 705 Rx d 8 86 A3 38 88 03 7D 00 00 
55543.357100 1 706 Rx d 8 1A C0 01 1A 00 7D 00 00 
55543.366200 1 703 Rx d 8 42 84 08 29 A5 71 5D 05 
55543.366400 1 702 Rx d 8 62 00 00 00 00 00 00 B0 
55543.366600 1 704 Rx d 7 95 82 D8 98 83 22 22 
55543.366900 1 705 Rx d 8 88 A3 38 88 03 7D 00 00 
55543.367100 1 706 Rx d 8 1A C0 01 1A 00 7D 00 00 
55543.376200 1 703 Rx d 8 42 86 08 31 D0 07 E5 DF 
55543.376400 1 702 Rx d 8 62 00 00 00 00 00 00 B0 
55543.376600 1 704 Rx d 7 95 82 D8 98 83 22 22 
55543.376900 1 705 Rx d 8 86 A3 38 88 03 7D 00 00 
55543.377100 1 706 Rx d 8 1A C0 01 1A 00 7D 00 00 
55543.386200 1 702 Rx d 8 62 00 00 00 00 00 00 B0 
55543.386400 1 703 Rx d 8 42 86 0C 39 DA 07 13 38 
55543.386700 1 704 Rx d 7 95 82 D8 98 83 22 22 
55543.386900 1 705 Rx d 8 86 A3 38 88 03 7D 00 00 
55543.387100 1 706 Rx d 8 1A C0 01 1A 00 7D 00 00 
55543.396200 1 702 Rx d 8 62 00 00 00 00 00 00 B0 
55543.396400 1 703 Rx d 8 42 86 0C 01 30 2E 2F 2F 
55543.396600 1 704 Rx d 7 95 82 D8 98 83 22 22 
55543.396900 1 705 Rx d 8 86 A3 38 88 03 7D 00 00 
55543.397100 1 706 Rx d 8 1A C0 01 1A 00 7D 00 00 
55543.406200 1 702 Rx d 8 62 00 00 00 00 00 00 B0 
55543.406500 1 703 Rx d 8 43 86 0C 09 2F 2F 00 40 
55543.406700 1 704 Rx d 7 95 82 D8 98 83 22 22 
55543.406900 1 705 Rx d 8 86 A3 38 88 03 7D 00 00 
55543.407100 1 706 Rx d 8 1A C0 01 1A 00 7D 00 00 
55543.416200 1 702 Rx d 8 62 00 00 00 00 00 00 B0 
55543.416400 1 703 Rx d 8 43 86 0C 11 00 00 7D 00 
55543.416700 1 704 Rx d 7 95 82 D8 98 83 22 22 
55543.416900 1 705 Rx d 8 86 A3 38 88 03 7D 00 00 
55543.417100 1 706 Rx d 8 1A C0 01 1A 00 7D 00 00 
55543.426200 1 702 Rx d 8 62 00 00 00 00 00 00 B0 
55543.426500 1 703 Rx d 8 43 86 0C 19 00 00 72 79 
55543.426700 1 704 Rx d 7 95 82 D8 98 83 22 22 
55543.426900 1 705 Rx d 8 86 A3 38 88 03 7D 00 00 
55543.427100 1 706 Rx d 8 1A C0 01 1A 00 7D 00 00 
55543.436200 1 702 Rx d 8 62 00 00 00 00 00 00 B0 
55543.436400 1 703 Rx d 8 43 86 0C 21 36 33 89 30 
55543.436700 1 704 Rx d 7 95 82 D8 98 83 22 22 
55543.436900 1 705 Rx d 8 86 A3 38 88 03 7D 00 00 
55543.437100 1 706 Rx d 8 1A C0 01 1A 00 7D 00 00 
55543.439300 1 1003x Rx d 8 0F 3E 00 00 6F 00 00 00 
55543.439600 1 1002x Rx d 8 0F 3E 00 60 6F 00 00 00 
55543.439900 1 1042x Rx d 7 07 00 00 00 00 00 00 
55543.440100 1 1043x Rx d 7 07 00 00 00 00 00 00 
55543.440400 1 1083x Rx d 7 01 40 00 02 00 7D 00 
55543.440700 1 10C3x Rx d 7 00 10 00 00 00 7D 00 
55543.440900 1 1103x Rx d 7 01 40 00 02 00 7D 00 
55543.441200 1 1142x Rx d 7 03 40 00 04 00 7D 00 
55543.441500 1 1182x Rx d 7 00 10 00 00 00 7D 00 
55543.441800 1 11C2x Rx d 7 01 30 00 02 00 7D 00 
55543.442000 1 1403x Rx d 7 00 80 00 05 00 7D 00 
55543.442300 1 1442x Rx d 7 00 80 00 05 00 7D 00 
55543.446200 1 703 Rx d 8 43 86 0C 29 A5 71 5D 05 
55543.446400 1 702 Rx d 8 62 00 00 00 00 00 00 B0 
55543.446600 1 704 Rx d 7 95 82 D8 98 83 22 22 
55543.446900 1 705 Rx d 8 86 A3 38 88 03 7D 00 00 
55543.447100 1 706 Rx d 8 1A C0 01 1A 00 7D 00 00 
55543.456200 1 703 Rx d 8 43 88 0C 31 D0 07 E5 DF 
55543.456400 1 702 Rx d 8 62 00 00 00 00 00 00 B0 
55543.456600 1 704 Rx d 7 95 82 D8 98 83 22 22 
55543.456900 1 705 Rx d 8 86 A3 38 88 03 7D 00 00 
55543.457100 1 706 Rx d 8 1A C0 01 1A 00 7D 00 00 
55543.466200 1 702 Rx d 8 62 00 00 00 00 00 00 B0 
55543.466400 1 703 Rx d 8 43 88 0C 39 DA 07 13 38 
55543.466700 1 704 Rx d 7 95 82 D8 98 83 22 22 
55543.466900 1 705 Rx d 8 86 A3 38 88 03 7D 00 00 
55543.467100 1 706 Rx d 8 1A C0 01 1A 00 7D 00 00 
55543.476200 1 702 Rx d 8 62 00 00 00 00 00 00 B0 
55543.476400 1 703 Rx d 8 43 88 10 01 30 2E 2F 2F 
55543.476600 1 704 Rx d 7 95 82 D8 98 83 22 22 
55543.476900 1 705 Rx d 8 86 A3 38 88 03 7D 00 00 
55543.477100 1 706 Rx d 8 1A C0 01 1A 00 7D 00 00 
55543.486200 1 702 Rx d 8 62 00 00 00 00 00 00 B0 
55543.486500 1 703 Rx d 8 44 88 10 09 2F 2E 00 40 
55543.486700 1 704 Rx d 7 95 82 D8 98 83 22 22 
55543.486900 1 705 Rx d 8 86 A3 38 88 03 7D 00 00 
55543.487100 1 706 Rx d 8 1A C0 01 1A 00 7D 00 00 
55543.496200 1 703 Rx d 8 44 88 10 11 00 00 7D 00 
55543.496400 1 702 Rx d 8 62 00 00 00 00 00 00 B0 
55543.496700 1 704 Rx d 7 95 82 D8 98 83 22 22 
55543.496900 1 705 Rx d 8 86 A3 38 88 03 7D 00 00 
55543.497100 1 706 Rx d 8 1A C0 01 1A 00 7D 00 00 
55543.506200 1 702 Rx d 8 62 00 00 00 00 00 00 B0 
55543.506400 1 703 Rx d 8 44 88 10 19 00 00 72 79 
55543.506600 1 704 Rx d 7 95 82 D8 98 83 22 22 
55543.506900 1 705 Rx d 8 86 A3 38 88 03 7D 00 00 
55543.507100 1 706 Rx d 8 1A C0 01 1A 00 7D 00 00 
55543.516200 1 702 Rx d 8 62 00 00 00 00 00 00 B0 
55543.516400 1 703 Rx d 8 44 88 10 21 36 33 89 30 
55543.516700 1 704 Rx d 7 95 82 D8 98 83 22 22 
55543.516900 1 705 Rx d 8 86 A3 38 88 03 7D 00 00 
55543.517100 1 706 Rx d 8 1A C0 01 1A 00 7D 00 00 
55543.526200 1 702 Rx d 8 62 00 00 00 00 00 00 B0 
55543.526500 1 703 Rx d 8 44 88 10 29 A5 71 5D 05 
55543.526700 1 704 Rx d 7 95 82 D8 98 83 22 22 
55543.526900 1 705 Rx d 8 86 A3 38 88 03 7D 00 00 
55543.527200 1 706 Rx d 8 1A C0 01 1A 00 7D 00 00 
55543.536200 1 703 Rx d 8 44 88 10 31 D0 07 E5 DF 
55543.536400 1 702 Rx d 8 62 00 00 00 00 00 00 B0 
55543.536600 1 704 Rx d 7 95 82 D8 98 82 22 22 
55543.536900 1 705 Rx d 8 86 A3 38 88 03 7D 00 00 
55543.537100 1 706 Rx d 8 1A C0 01 1A 00 7D 00 00 
55543.539300 1 1043x Rx d 7 08 65 64 63 63 64 64 
55543.539600 1 1002x Rx d 8 0F 3E 00 80 5F 00 00 00 
55543.539900 1 1003x Rx d 8 0F 3E 00 20 5F 00 00 00 
55543.540100 1 1042x Rx d 7 08 65 64 63 63 63 64 
55543.540400 1 1083x Rx d 7 00 40 00 02 00 7D 00 
55543.540700 1 10C3x Rx d 7 00 10 00 00 00 7D 00 
55543.540900 1 1103x Rx d 7 01 40 00 03 00 7D 00 
55543.541200 1 1142x Rx d 7 03 40 00 04 00 7D 00 
55543.541500 1 1182x Rx d 7 00 10 00 00 00 7D 00 
55543.541800 1 11C2x Rx d 7 01 40 00 02 00 7D 00 
55543.542000 1 1403x Rx d 7 00 80 00 05 00 7D 00 
55543.542300 1 1442x Rx d 7 00 80 00 05 00 7D 00 
55543.546200 1 703 Rx d 8 44 8A 10 39 DA 07 13 38 
55543.546400 1 702 Rx d 8 62 00 00 00 00 00 00 B0 
55543.546700 1 704 Rx d 7 95 82 D8 98 83 22 22 
55543.546900 1 705 Rx d 8 86 A3 38 88 03 7D 00 00 
55543.547100 1 706 Rx d 8 1A C0 01 1A 00 7D 00 00 
55543.556200 1 702 Rx d 8 62 00 00 00 00 00 00 B0 
55543.556400 1 703 Rx d 8 44 8A 10 01 30 2E 2F 2F 
55543.556600 1 704 Rx d 7 95 82 D8 98 83 22 22 
55543.556900 1 705 Rx d 8 86 A3 38 88 03 7D 00 00 
55543.557100 1 706 Rx d 8 1A C0 01 1A 00 7D 00 00 
55543.566200 1 702 Rx d 8 62 00 00 00 00 00 00 B0 
55543.566500 1 703 Rx d 8 44 8A 14 09 2F 2F 00 40 
55543.566700 1 704 Rx d 7 95 82 D8 98 83 22 22 
55543.566900 1 705 Rx d 8 86 A3 38 88 03 7D 00 00 
55543.567100 1 706 Rx d 8 1A C0 01 1A 00 7D 00 00 
55543.576200 1 703 Rx d 8 45 8A 14 11 00 00 7D 00 
55543.576400 1 702 Rx d 8 62 00 00 00 00 00 00 B0 
55543.576700 1 704 Rx d 7 95 82 D8 98 83 22 22 
55543.576900 1 705 Rx d 8 86 A3 38 88 03 7D 00 00 
55543.577100 1 706 Rx d 8 1A C0 01 1A 00 7D 00 00 
55543.586200 1 702 Rx d 8 62 00 00 00 00 00 00 B0 
55543.586400 1 703 Rx d 8 45 8A 14 19 00 00 72 79 
55543.586600 1 704 Rx d 7 95 82 D8 98 83 22 22 
55543.586900 1 705 Rx d 8 86 A3 38 88 03 7D 00 00 
55543.587100 1 706 Rx d 8 1A C0 01 1A 00 7D 00 00 
55543.596200 1 702 Rx d 8 62 00 00 00 00 00 00 B0 
55543.596400 1 703 Rx d 8 45 8A 14 21 36 33 89 30 
55543.596700 1 704 Rx d 7 95 82 D8 98 83 22 22 
55543.596900 1 705 Rx d 8 86 A3 38 88 03 7D 00 00 
55543.597100 1 706 Rx d 8 1A C0 01 1A 00 7D 00 00 
55543.606200 1 702 Rx d 8 62 00 00 00 00 00 00 B0 
55543.606400 1 703 Rx d 8 45 8A 14 29 A5 71 5D 05 
55543.606600 1 704 Rx d 7 95 82 D8 98 83 22 22 
55543.606900 1 705 Rx d 8 86 A3 38 88 03 7D 00 00 
55543.607200 1 706 Rx d 8 1A C0 01 1A 00 7D 00 00 
55543.616200 1 703 Rx d 8 45 8A 14 31 D0 07 E5 DF 
55543.616400 1 702 Rx d 8 62 00 00 00 00 00 00 B0 
55543.616600 1 704 Rx d 7 95 82 D8 98 83 22 22 
55543.616900 1 705 Rx d 8 86 A3 38 88 03 7D 00 00 
55543.617100 1 706 Rx d 8 1A C0 01 1A 00 7D 00 00 
55543.626200 1 703 Rx d 8 45 8A 14 39 DA 07 13 38 
55543.626400 1 702 Rx d 8 62 00 00 00 00 00 00 B0 
55543.626700 1 704 Rx d 7 95 82 D8 98 83 22 22 
55543.626900 1 705 Rx d 8 86 A3 38 88 03 7D 00 00 
55543.627100 1 706 Rx d 8 1A C0 01 1A 00 7D 00 00 
55543.632500 1 687x Rx d 8 01 00 00 00 00 00 00 01 
55543.636200 1 702 Rx d 8 62 00 00 00 00 00 00 B0 
55543.636400 1 703 Rx d 8 45 8C 14 01 30 2E 2F 2F 
55543.636600 1 704 Rx d 7 95 82 D8 98 83 22 22 
55543.636900 1 705 Rx d 8 86 A3 38 88 03 7D 00 00 
55543.637100 1 706 Rx d 8 1A C0 01 1A 00 7D 00 00 
55543.639300 1 1003x Rx d 8 0F 3E 00 40 6F 00 00 00 
55543.639600 1 1002x Rx d 8 0F 3E 00 A0 6F 00 00 00 
55543.639800 1 1042x Rx d 7 09 64 64 00 00 00 00 
55543.640100 1 1043x Rx d 7 09 64 65 00 00 00 00 
55543.640400 1 1083x Rx d 7 00 40 00 02 00 7D 00 
55543.640700 1 10C3x Rx d 7 00 10 00 00 00 7D 00 
55543.640900 1 1103x Rx d 7 01 40 00 03 00 7D 00 
55543.641200 1 1142x Rx d 7 03 40 00 04 00 7D 00 
55543.641500 1 1182x Rx d 7 00 10 00 00 00 7D 00 
55543.641800 1 11C2x Rx d 7 01 40 00 02 00 7D 00 
55543.642000 1 1403x Rx d 7 00 80 00 05 00 7D 00 
55543.642300 1 1442x Rx d 7 00 80 00 05 00 7D 00 
55543.646200 1 702 Rx d 8 62 00 00 00 00 00 00 B0 
55543.646500 1 703 Rx d 8 45 8C 14 09 2F 2E 00 40 
55543.646700 1 704 Rx d 7 95 82 D8 98 83 22 22 
55543.646900 1 705 Rx d 8 86 A3 38 88 03 7D 00 00 
55543.647100 1 706 Rx d 8 1A C0 01 1A 00 7D 00 00 
55543.656200 1 703 Rx d 8 45 8C 18 11 00 00 7D 00 
55543.656400 1 702 Rx d 8 62 00 00 00 00 00 00 B0 
55543.656700 1 704 Rx d 7 95 82 D8 98 83 22 22 
55543.656900 1 705 Rx d 8 86 A3 38 88 03 7D 00 00 
55543.657100 1 706 Rx d 8 1A C0 01 1A 00 7D 00 00 
55543.665500 1 687x Rx d 8 02 00 00 00 00 00 00 00 
55543.666200 1 702 Rx d 8 62 00 00 00 00 00 00 B0 
55543.666400 1 703 Rx d 8 46 8C 18 19 00 00 72 79 
55543.666600 1 704 Rx d 7 95 82 D8 98 83 22 22 
55543.666900 1 705 Rx d 8 86 A3 38 88 03 7D 00 00 
55543.667100 1 706 Rx d 8 1A C0 01 1A 00 7D 00 00 
55543.676200 1 702 Rx d 8 62 00 00 00 00 00 00 B0 
55543.676500 1 703 Rx d 8 46 8C 18 21 36 33 89 30 
55543.676700 1 704 Rx d 7 95 82 D8 98 83 22 22 
55543.676900 1 705 Rx d 8 86 A3 38 88 03 7D 00 00 
55543.677100 1 706 Rx d 8 1A C0 01 1A 00 7D 00 00 
55543.686200 1 702 Rx d 8 62 00 00 00 00 00 00 B0 
55543.686500 1 703 Rx d 8 46 8C 18 29 A5 71 5D 05 
55543.686700 1 704 Rx d 7 95 82 D8 98 83 22 22 
55543.686900 1 705 Rx d 8 86 A3 38 88 03 7D 00 00 
55543.687200 1 706 Rx d 8 1A C0 01 1A 00 7D 00 00 
55543.696200 1 703 Rx d 8 46 8C 18 31 D0 07 E5 DF 
55543.696400 1 702 Rx d 8 62 00 00 00 00 00 00 B0 
55543.696600 1 704 Rx d 7 95 82 D8 98 83 22 22 
55543.696900 1 705 Rx d 8 86 A3 38 88 03 7D 00 00 
55543.697100 1 706 Rx d 8 1A C0 01 1A 00 7D 00 00 
55543.698500 1 687x Rx d 8 03 70 93 7A 93 96 2D 2E 
55543.706200 1 703 Rx d 8 46 8C 18 39 DA 07 13 38 
55543.706400 1 702 Rx d 8 62 00 00 00 00 00 00 B0 
55543.706700 1 704 Rx d 7 95 82 D8 98 83 22 22 
55543.706900 1 705 Rx d 8 86 A3 38 88 03 7D 00 00 
55543.707100 1 706 Rx d 8 1A C0 01 1A 00 7D 00 00 
55543.716200 1 702 Rx d 8 62 00 00 00 00 00 00 B0 
55543.716400 1 703 Rx d 8 46 8C 18 01 30 2E 2F 2F 
55543.716600 1 704 Rx d 7 95 82 D8 98 82 22 22 
55543.716900 1 705 Rx d 8 86 A3 38 88 03 7D 00 00 
55543.717200 1 706 Rx d 8 1A C0 01 1A 00 7D 00 00 
55543.726200 1 702 Rx d 8 62 00 00 00 00 00 00 B0 
55543.726500 1 703 Rx d 8 46 8C 18 09 2F 2F 00 40 
55543.726700 1 704 Rx d 7 95 82 D8 98 83 22 22 
55543.726900 1 705 Rx d 8 86 A3 38 88 03 7D 00 00 
55543.727100 1 706 Rx d 8 1A C0 01 1A 00 7D 00 00 
55543.731500 1 687x Rx d 8 04 00 10 23 69 00 00 00 
55543.736200 1 703 Rx d 8 46 8E 18 11 00 00 7D 00 
55543.736400 1 702 Rx d 8 62 00 00 00 00 00 00 B0 
55543.736700 1 704 Rx d 7 95 82 D8 98 83 22 22 
55543.736900 1 705 Rx d 8 86 A3 38 88 03 7D 00 00 
55543.737100 1 706 Rx d 8 1A C0 01 1A 00 7D 00 00 
55543.739300 1 1043x Rx d 7 00 59 A4 A5 83 00 00 
55543.739600 1 1002x Rx d 8 0F 3E 00 60 6F 00 00 00 
55543.739900 1 1003x Rx d 8 0F 3E 00 00 6F 00 00 00 
55543.740100 1 1042x Rx d 7 00 59 A4 A5 83 00 00 
55543.740400 1 1083x Rx d 7 00 40 00 02 00 7D 00 
55543.740700 1 10C3x Rx d 7 00 10 00 00 00 7D 00 
55543.740900 1 1103x Rx d 7 01 40 00 03 00 7D 00 
55543.741200 1 1142x Rx d 7 03 40 00 04 00 7D 00 
55543.741500 1 1182x Rx d 7 00 10 00 00 00 7D 00 
55543.741700 1 11C2x Rx d 7 01 40 00 02 00 7D 00 
55543.742000 1 1403x Rx d 7 00 80 00 05 00 7D 00 
55543.742300 1 1442x Rx d 7 00 80 00 05 00 7D 00 
55543.746200 1 702 Rx d 8 62 00 00 00 00 00 00 B0 
55543.746400 1 703 Rx d 8 46 8E 18 19 00 00 72 79 
55543.746600 1 704 Rx d 7 95 82 D8 98 83 22 22 
55543.746900 1 705 Rx d 8 86 A3 38 88 03 7D 00 00 
55543.747100 1 706 Rx d 8 1A C0 01 1A 00 7D 00 00 
55543.756200 1 702 Rx d 8 62 00 00 00 00 00 00 B0 
55543.756500 1 703 Rx d 8 46 8E 1C 21 36 33 89 30 
55543.756700 1 704 Rx d 7 95 82 D8 98 83 22 22 
55543.756900 1 705 Rx d 8 86 A3 38 88 03 7D 00 00 
55543.757100 1 706 Rx d 8 1A C0 01 1A 00 7D 00 00 
55543.764500 1 687x Rx d 8 05 00 00 00 0A 00 00 00 
55543.766200 1 702 Rx d 8 62 00 00 00 00 00 00 B0 
55543.766400 1 703 Rx d 8 47 8E 1C 29 A5 71 5D 05 
55543.766600 1 704 Rx d 7 95 82 D8 98 83 22 22 
55543.766900 1 705 Rx d 8 86 A3 38 88 03 7D 00 00 
55543.767200 1 706 Rx d 8 1A C0 01 1A 00 7D 00 00 
55543.776200 1 703 Rx d 8 47 8E 1C 31 D0 07 E5 DF 
55543.776400 1 702 Rx d 8 62 00 00 00 00 00 00 B0 
55543.776600 1 704 Rx d 7 95 82 D8 98 82 22 22 
55543.776900 1 705 Rx d 8 86 A3 38 88 03 7D 00 00 
55543.777100 1 706 Rx d 8 1A C0 01 1A 00 7D 00 00 
55543.786200 1 703 Rx d 8 47 8E 1C 39 DA 07 13 38 
55543.786400 1 702 Rx d 8 62 00 00 00 00 00 00 B0 
55543.786700 1 704 Rx d 7 95 82 D8 98 83 22 22 
55543.786900 1 705 Rx d 8 86 A3 38 88 03 7D 00 00 
55543.787100 1 706 Rx d 8 1A C0 01 1A 00 7D 00 00 
55543.796200 1 702 Rx d 8 62 00 00 00 00 00 00 B0 
55543.796400 1 703 Rx d 8 47 8E 1C 01 30 2E 2F 2F 
55543.796600 1 704 Rx d 7 95 82 D8 98 83 22 22 
55543.796900 1 705 Rx d 8 86 A3 38 88 03 7D 00 00 
55543.797100 1 706 Rx d 8 1A C0 01 1A 00 7D 00 00 
55543.806200 1 702 Rx d 8 62 00 00 00 00 00 00 B0 
55543.806500 1 703 Rx d 8 47 8E 1C 09 2F 2E 00 40 
55543.806700 1 704 Rx d 7 95 82 D8 98 83 22 22 
55543.806900 1 705 Rx d 8 86 A3 38 88 03 7D 00 00 
55543.807100 1 706 Rx d 8 1A C0 01 1A 00 7D 00 00 
55543.816200 1 702 Rx d 8 62 00 00 00 00 00 00 B0 
55543.816400 1 703 Rx d 8 47 8E 1C 11 00 00 7D 00 
55543.816700 1 704 Rx d 7 95 82 D8 98 82 22 22 
55543.816900 1 705 Rx d 8 86 A3 38 88 03 7D 00 00 
55543.817100 1 706 Rx d 8 1A C0 01 1A 00 7D 00 00 
55543.826200 1 702 Rx d 8 62 00 00 00 00 00 00 B0 
55543.826500 1 703 Rx d 8 47 8E 1C 19 00 00 72 79 
55543.826700 1 704 Rx d 7 95 82 D8 98 83 22 22 
55543.826900 1 705 Rx d 8 86 A3 38 88 03 7D 00 00 
55543.827100 1 706 Rx d 8 1A C0 01 1A 00 7D 00 00 
55543.836200 1 702 Rx d 8 62 00 00 00 00 00 00 B0 
55543.836500 1 703 Rx d 8 47 8E 1C 21 36 33 89 30 
55543.836700 1 704 Rx d 7 95 82 D8 98 83 22 22 
55543.836900 1 705 Rx d 8 86 A3 38 88 03 7D 00 00 
55543.837100 1 706 Rx d 8 1A C0 01 1A 00 7D 00 00 
55543.839300 1 1043x Rx d 7 01 2E 2E 2E 2E 2C 2C 
55543.839600 1 1002x Rx d 8 0F 3E 00 80 5F 00 00 00 
55543.839800 1 1003x Rx d 8 0F 3E 00 20 5F 00 00 00 
55543.840100 1 1042x Rx d 7 01 2B 2B 2D 2D 2E 2E 
55543.840400 1 1083x Rx d 7 00 40 00 02 00 7D 00 
55543.840600 1 10C3x Rx d 7 00 10 00 00 00 7D 00 
55543.840900 1 1103x Rx d 7 01 40 00 03 00 7D 00 
55543.841200 1 1142x Rx d 7 03 40 00 04 00 7D 00 
55543.841400 1 1182x Rx d 7 00 10 00 00 00 7D 00 
55543.841700 1 11C2x Rx d 7 01 40 00 02 00 7D 00 
55543.842000 1 1403x Rx d 7 00 80 00 05 00 7D 00 
55543.842300 1 1442x Rx d 7 00 80 00 05 00 7D 00 
55543.846200 1 703 Rx d 8 47 90 1C 29 A5 71 5D 05 
55543.846400 1 702 Rx d 8 62 00 00 00 00 00 00 B0 
55543.846600 1 704 Rx d 7 95 82 D8 98 83 22 22 
55543.846900 1 705 Rx d 8 86 A3 38 88 03 7D 00 00 
55543.847100 1 706 Rx d 8 1A C0 01 1A 00 7D 00 00 
55543.856200 1 703 Rx d 8 47 90 1C 31 D0 07 E5 DF 
55543.856400 1 702 Rx d 8 62 00 00 00 00 00 00 B0 
55543.856600 1 704 Rx d 7 95 82 D8 98 83 22 22 
55543.856900 1 705 Rx d 8 86 A3 38 88 03 7D 00 00 
55543.857100 1 706 Rx d 8 1A C0 01 1A 00 7D 00 00 
55543.866200 1 703 Rx d 8 47 90 20 39 DA 07 13 38 
55543.866400 1 702 Rx d 8 62 00 00 00 00 00 00 B0 
55543.866700 1 704 Rx d 7 95 82 D8 98 83 22 22 
55543.866900 1 705 Rx d 8 86 A3 38 88 03 7D 00 00 
55543.867100 1 706 Rx d 8 1A C0 01 1A 00 7D 00 00 
55543.869700 1 103Fx Rx d 4 01 00 04 24 
55543.871800 1 113Fx Rx d 3 3F 05 FF 
55543.876200 1 702 Rx d 8 62 00 00 00 00 00 00 B0 
55543.876400 1 703 Rx d 8 48 90 20 01 30 2E 2F 2F 
55543.876600 1 704 Rx d 7 95 82 D8 98 83 22 22 
55543.876900 1 705 Rx d 8 86 A3 38 88 03 7D 00 00 
55543.877200 1 706 Rx d 8 1A C0 01 1A 00 7D 00 00 
55543.877400 1 103Fx Rx d 4 02 00 04 36 
55543.878400 1 113Fx Rx d 3 3F 05 FF 
55543.886200 1 702 Rx d 8 62 00 00 00 00 00 00 B0 
55543.886500 1 703 Rx d 8 48 90 20 09 2F 2E 00 40 
55543.886700 1 704 Rx d 7 95 82 D8 98 82 22 22 
55543.886900 1 705 Rx d 8 86 A3 38 88 03 7D 00 00 
55543.887100 1 706 Rx d 8 1A C0 01 1A 00 7D 00 00 
55543.896200 1 703 Rx d 8 48 90 20 11 00 00 7D 00 
55543.896400 1 117Fx Rx d 2 11 3C 
55543.896600 1 117Fx Rx d 2 21 E1 
55543.896700 1 117Fx Rx d 2 31 4F 
55543.896900 1 117Fx Rx d 2 41 74 
55543.897100 1 117Fx Rx d 2 51 DA 
55543.897300 1 117Fx Rx d 2 61 07 
55543.897500 1 1642x Rx d 6 05 00 C0 08 6E 05 
55543.897800 1 1682x Rx d 5 05 A4 79 BC 70 
55543.898000 1 702 Rx d 8 62 00 00 00 00 00 00 B0 
55543.898200 1 704 Rx d 7 95 82 D8 98 83 22 22 
55543.898400 1 1642x Rx d 6 06 00 28 6A 7C 06 
55543.898700 1 1682x Rx d 5 06 52 80 30 75 
55543.898900 1 705 Rx d 8 86 A3 38 88 03 7D 00 00 
55543.899200 1 706 Rx d 8 1A C0 01 1A 00 7D 00 00 
55543.906200 1 702 Rx d 8 62 00 00 00 00 00 00 B0 
55543.906500 1 703 Rx d 8 48 90 20 19 00 00 72 79 
55543.906700 1 704 Rx d 7 95 82 D8 98 83 22 22 
55543.906900 1 705 Rx d 8 86 A3 38 88 03 7D 00 00 
55543.907200 1 706 Rx d 8 1A C0 01 1A 00 7D 00 00 
55543.916200 1 702 Rx d 8 62 00 00 00 00 00 00 B0 
55543.916500 1 703 Rx d 8 48 90 20 21 36 33 89 30 
55543.916700 1 704 Rx d 7 95 82 D8 98 83 22 22 
55543.916900 1 705 Rx d 8 86 A3 38 88 03 7D 00 00 
55543.917100 1 706 Rx d 8 1A C0 01 1A 00 7D 00 00 
55543.926200 1 702 Rx d 8 62 00 00 00 00 00 00 B0 
55543.926500 1 703 Rx d 8 48 90 20 29 A5 71 5D 05 
55543.926700 1 704 Rx d 7 95 82 D8 98 82 22 22 
55543.926900 1 705 Rx d 8 86 A3 38 88 03 7D 00 00 
55543.927200 1 706 Rx d 8 1A C0 01 1A 00 7D 00 00 
55543.936200 1 702 Rx d 8 62 00 00 00 00 00 00 B0 
55543.936500 1 703 Rx d 8 48 90 20 31 D0 07 E5 DF 
55543.936700 1 704 Rx d 7 95 82 D8 98 83 22 22 
55543.936900 1 705 Rx d 8 86 A3 38 88 03 7D 00 00 
55543.937100 1 706 Rx d 8 1A C0 01 1A 00 7D 00 00 
55543.939300 1 1003x Rx d 8 04 12 00 40 64 00 00 00 
55543.939600 1 1002x Rx d 8 04 12 00 A0 64 00 00 00 
55543.939900 1 1042x Rx d 7 02 2C 2C 2A 2A 2E 2E 
55543.940100 1 1043x Rx d 7 02 29 29 2A 2A 2D 2D 
55543.940400 1 1083x Rx d 7 00 40 00 02 00 7D 00 
55543.940600 1 10C3x Rx d 7 00 10 00 00 00 7D 00 
55543.940900 1 1103x Rx d 7 02 40 00 03 00 7D 00 
55543.941200 1 1142x Rx d 7 03 40 00 04 00 7D 00 
55543.941500 1 1182x Rx d 7 00 10 00 00 00 7D 00 
55543.941800 1 11C2x Rx d 7 01 40 00 02 00 7D 00 
55543.942000 1 1403x Rx d 7 00 90 00 05 00 7D 00 
55543.942300 1 1442x Rx d 7 00 80 00 05 00 7D 00 
55543.946200 1 703 Rx d 8 48 90 20 39 DA 07 13 38 
55543.946400 1 702 Rx d 8 62 00 00 00 00 00 00 B0 
55543.946700 1 704 Rx d 7 95 82 D8 98 83 22 22 
55543.946900 1 705 Rx d 8 86 A3 38 88 03 7D 00 00 
55543.947100 1 706 Rx d 8 1A C0 01 1A 00 7D 00 00 
55543.956200 1 703 Rx d 8 48 92 20 01 30 2E 2F 2F 
55543.956400 1 702 Rx d 8 62 00 00 00 00 00 00 B0 
55543.956600 1 704 Rx d 7 95 82 D8 98 83 22 22 
55543.956900 1 705 Rx d 8 86 A3 38 88 03 7D 00 00 
55543.957200 1 706 Rx d 8 1A C0 01 1A 00 7D 00 00 
55543.966200 1 702 Rx d 8 62 00 00 00 00 00 00 B0 
55543.966500 1 703 Rx d 8 48 92 20 09 2F 2F 00 40 
55543.966700 1 704 Rx d 7 95 82 D8 98 83 22 22 
55543.966900 1 705 Rx d 8 86 A3 38 88 03 7D 00 00 
55543.967100 1 706 Rx d 8 1A C0 01 1A 00 7D 00 00 
55543.976200 1 702 Rx d 8 62 00 00 00 00 00 00 B0 
55543.976500 1 703 Rx d 8 48 92 24 11 00 00 7D 00 
55543.976700 1 704 Rx d 7 95 82 D8 98 83 22 22 
55543.976900 1 705 Rx d 8 86 A3 38 88 03 7D 00 00 
55543.977200 1 706 Rx d 8 1A C0 01 1A 00 7D 00 00 
55543.986200 1 703 Rx d 8 48 92 24 19 00 00 72 79 
55543.986400 1 702 Rx d 8 62 00 00 00 00 00 00 B0 
55543.986600 1 704 Rx d 7 95 82 D8 98 83 22 22 
55543.986900 1 705 Rx d 8 86 A3 38 88 03 7D 00 00 
55543.987200 1 706 Rx d 8 1A C0 01 1A 00 7D 00 00 
55543.996200 1 702 Rx d 8 62 00 00 00 00 00 00 B0 
55543.996500 1 703 Rx d 8 49 92 24 21 36 33 89 30 
55543.996700 1 704 Rx d 7 95 82 D8 98 83 22 22 
55543.996900 1 705 Rx d 8 86 A3 38 88 03 7D 00 00 
55543.997100 1 706 Rx d 8 1A C0 01 1A 00 7D 00 00 
55543.999700 1 117Fx Rx d 2 11 3C 
55544.000000 1 117Fx Rx d 2 21 E1 
55544.000200 1 117Fx Rx d 2 31 4F 
55544.000300 1 117Fx Rx d 2 41 74 
55544.000500 1 117Fx Rx d 2 51 DA 
55544.000800 1 1643x Rx d 6 02 00 C0 08 6E 05 
55544.000900 1 117Fx Rx d 2 61 07 
55544.001200 1 1683x Rx d 5 02 A4 79 BC 70 
55544.001400 1 1642x Rx d 6 06 00 28 6A 7C 06 
55544.001700 1 1682x Rx d 5 06 52 80 30 75 
55544.006200 1 702 Rx d 8 62 00 00 00 00 00 00 B0 
55544.006500 1 703 Rx d 8 49 92 24 29 A5 71 5D 05 
55544.006700 1 704 Rx d 7 95 82 D8 98 83 22 22 
55544.006900 1 705 Rx d 8 86 A3 38 88 03 7D 00 00 
55544.007200 1 706 Rx d 8 1A C0 01 1A 00 7D 00 00 
55544.016300 1 702 Rx d 8 62 00 00 00 00 00 00 B0 
55544.016500 1 703 Rx d 8 49 92 24 31 D0 07 E5 DF 
55544.016700 1 704 Rx d 7 95 82 D8 98 83 22 22 
55544.016900 1 705 Rx d 8 86 A3 38 88 03 7D 00 00 
55544.017100 1 706 Rx d 8 1A C0 01 1A 00 7D 00 00 
55544.023000 1 103Fx Rx d 4 03 00 04 38 
55544.026200 1 703 Rx d 8 49 92 24 39 DA 07 13 38 
55544.026400 1 702 Rx d 8 62 00 00 00 00 00 00 B0 
55544.026700 1 704 Rx d 7 95 82 D8 98 83 22 22 
55544.026900 1 705 Rx d 8 86 A3 38 88 03 7D 00 00 
55544.027100 1 706 Rx d 8 1A C0 01 1A 00 7D 00 00 
55544.027700 1 103Fx Rx d 4 04 00 04 12 
55544.036200 1 703 Rx d 8 49 92 24 01 30 2E 2F 2F 
55544.036500 1 702 Rx d 8 62 00 00 00 00 00 00 B0 
55544.036700 1 704 Rx d 7 95 82 D8 98 83 22 22 
55544.036900 1 705 Rx d 8 86 A3 38 88 03 7D 00 00 
55544.037200 1 706 Rx d 8 1A C0 01 1A 00 7D 00 00 
55544.039300 1 1003x Rx d 8 04 12 00 00 64 00 00 00 
55544.039600 1 1002x Rx d 8 04 12 00 60 64 00 00 00 
55544.039900 1 1042x Rx d 7 03 2C 2C 28 28 30 00 
55544.040200 1 1043x Rx d 7 03 2D 2D 2B 2B 31 00 
55544.040400 1 1083x Rx d 7 00 40 00 02 00 7D 00 
55544.040700 1 10C3x Rx d 7 00 10 00 00 00 7D 00 
55544.041000 1 1103x Rx d 7 01 40 00 03 00 7D 00 
55544.041200 1 1142x Rx d 7 03 40 00 04 00 7D 00 
55544.041500 1 1182x Rx d 7 00 10 00 00 00 7D 00 
55544.041800 1 11C2x Rx d 7 01 40 00 03 00 7D 00 
55544.042000 1 1403x Rx d 7 01 90 00 06 00 7D 00 
55544.042300 1 1442x Rx d 7 01 90 00 06 00 7D 00 
55544.046300 1 702 Rx d 8 62 00 00 00 00 00 00 B0 
55544.046500 1 703 Rx d 8 49 92 24 09 2F 2F 00 40 
55544.046700 1 704 Rx d 7 95 82 D8 98 83 22 22 
55544.046900 1 705 Rx d 8 86 A3 38 88 03 7D 00 00 
55544.047200 1 706 Rx d 8 1A C0 01 1A 00 7D 00 00 
55544.056200 1 702 Rx d 8 62 00 00 00 00 00 00 B0 
55544.056500 1 703 Rx d 8 49 92 24 11 00 00 7D 00 
55544.056700 1 704 Rx d 7 95 82 D8 98 83 22 22 
55544.056900 1 705 Rx d 8 86 A3 38 88 03 7D 00 00 
55544.057200 1 706 Rx d 8 1A C0 01 1A 00 7D 00 00 
55544.066200 1 703 Rx d 8 49 92 24 19 00 00 72 79 
55544.066400 1 702 Rx d 8 62 00 00 00 00 00 00 B0 
55544.066700 1 704 Rx d 7 95 82 D8 98 83 22 22 
55544.066900 1 705 Rx d 8 86 A3 38 88 03 7D 00 00 
55544.067200 1 706 Rx d 8 1A C0 01 1A 00 7D 00 00 
55544.076200 1 702 Rx d 8 62 00 00 00 00 00 00 B0 
55544.076500 1 703 Rx d 8 49 92 24 21 36 33 89 30 
55544.076700 1 704 Rx d 7 95 82 D8 98 83 22 22 
55544.076900 1 705 Rx d 8 86 A3 38 88 03 7D 00 00 
55544.077200 1 706 Rx d 8 1A C0 01 1A 00 7D 00 00 
55544.086200 1 702 Rx d 8 62 00 00 00 00 00 00 B0 
55544.086500 1 703 Rx d 8 49 94 24 29 A5 71 5D 05 
55544.086700 1 704 Rx d 7 95 82 D8 98 83 22 22 
55544.086900 1 705 Rx d 8 86 A3 38 88 03 7D 00 00 
55544.087100 1 706 Rx d 8 1A C0 01 1A 00 7D 00 00 
55544.092300 1 117Fx Rx d 2 11 3C 
55544.092500 1 117Fx Rx d 2 21 E1 
55544.092600 1 117Fx Rx d 2 31 4F 
55544.092900 1 117Fx Rx d 2 41 74 
55544.093000 1 117Fx Rx d 2 51 DA 
55544.093200 1 117Fx Rx d 2 61 07 
55544.093500 1 1642x Rx d 6 05 00 C0 08 6E 05 
55544.093700 1 1682x Rx d 5 05 A4 79 BC 70 
55544.094400 1 1642x Rx d 6 06 00 28 6A 7C 06 
55544.094700 1 1682x Rx d 5 06 52 80 30 75 
55544.096300 1 702 Rx d 8 62 00 00 00 00 00 00 B0 
55544.096500 1 703 Rx d 8 49 94 24 31 D0 07 E5 DF 
55544.096700 1 704 Rx d 7 95 82 D8 98 83 22 22 
55544.097000 1 705 Rx d 8 86 A3 38 88 03 7D 00 00 
55544.097200 1 706 Rx d 8 1A C0 01 1A 00 7D 00 00 
55544.106300 1 702 Rx d 8 62 00 00 00 00 00 00 B0 
55544.106500 1 703 Rx d 8 49 94 28 39 DA 07 13 38 
55544.106700 1 704 Rx d 7 95 82 D8 98 83 22 22 
55544.106900 1 705 Rx d 8 86 A3 38 88 03 7D 00 00 
55544.107200 1 706 Rx d 8 1A C0 01 1A 00 7D 00 00 
55544.116200 1 702 Rx d 8 62 00 00 00 00 00 00 B0 
55544.116500 1 703 Rx d 8 4A 94 28 01 30 2E 2F 2F 
55544.116700 1 704 Rx d 7 95 82 D8 98 83 22 22 
55544.116900 1 705 Rx d 8 86 A3 38 88 03 7D 00 00 
55544.117200 1 706 Rx d 8 1A C0 01 1A 00 7D 00 00 
55544.126200 1 703 Rx d 8 4A 94 28 09 2F 2F 00 40 
55544.126500 1 702 Rx d 8 62 00 00 00 00 00 00 B0 
55544.126700 1 704 Rx d 7 95 82 D8 98 83 22 22 
55544.126900 1 705 Rx d 8 86 A3 38 88 03 7D 00 00 
55544.127200 1 706 Rx d 8 1A C0 01 1A 00 7D 00 00 
55544.136200 1 702 Rx d 8 62 00 00 00 00 00 00 B0 
55544.136500 1 703 Rx d 8 4A 94 28 11 00 00 7D 00 
55544.136700 1 704 Rx d 7 95 82 D8 98 83 22 22 
55544.136900 1 705 Rx d 8 86 A3 38 88 03 7D 00 00 
55544.137200 1 706 Rx d 8 1A C0 01 1A 00 7D 00 00 
55544.138800 1 117Fx Rx d 2 11 3C 
55544.139100 1 117Fx Rx d 2 21 E1 
55544.139400 1 1003x Rx d 8 04 12 00 20 54 00 00 00 
55544.139700 1 1002x Rx d 8 04 12 00 80 54 00 00 00 
55544.139900 1 1042x Rx d 7 04 E8 03 5C 76 BE 32 
55544.140200 1 1043x Rx d 7 04 E8 03 86 96 BE 32 
55544.140400 1 1083x Rx d 7 01 40 00 02 00 7D 00 
55544.140700 1 10C3x Rx d 7 00 10 00 00 00 7D 00 
55544.141000 1 1103x Rx d 7 01 40 00 03 00 7D 00 
55544.141200 1 1142x Rx d 7 03 50 00 04 00 7D 00 
55544.141500 1 117Fx Rx d 2 31 4F 
55544.141600 1 117Fx Rx d 2 41 74 
55544.141800 1 117Fx Rx d 2 51 DA 
55544.142000 1 117Fx Rx d 2 61 07 
55544.142300 1 1182x Rx d 7 00 10 00 00 00 7D 00 
55544.142500 1 11C2x Rx d 7 01 40 00 03 00 7D 00 
55544.142800 1 1403x Rx d 7 01 90 00 06 00 7D 00 
55544.143100 1 1442x Rx d 7 01 90 00 06 00 7D 00 
55544.143300 1 1642x Rx d 6 06 00 28 6A 7C 06 
55544.143500 1 1643x Rx d 6 02 00 C0 08 6E 05 
55544.143800 1 1682x Rx d 5 06 52 80 30 75 
55544.144000 1 1683x Rx d 5 02 A4 79 BC 70 
55544.146300 1 702 Rx d 8 62 00 00 00 00 00 00 B0 
55544.146500 1 703 Rx d 8 4A 94 28 19 00 00 72 79 
55544.146700 1 704 Rx d 7 95 82 D8 98 83 22 22 
55544.147000 1 705 Rx d 8 86 A3 38 88 03 7D 00 00 
55544.147200 1 706 Rx d 8 1A C0 01 1A 00 7D 00 00 
55544.156200 1 703 Rx d 8 4A 94 28 21 36 33 89 30 
55544.156500 1 702 Rx d 8 62 00 00 00 00 00 00 B0 
55544.156700 1 704 Rx d 7 95 82 D8 98 83 22 22 
55544.156900 1 705 Rx d 8 86 A3 38 88 03 7D 00 00 
55544.157200 1 706 Rx d 8 1A C0 01 1A 00 7D 00 00 
55544.166200 1 703 Rx d 8 4A 94 28 29 A5 71 5D 05 
55544.166500 1 702 Rx d 8 62 00 00 00 00 00 00 B0 
55544.166700 1 704 Rx d 7 95 82 D8 98 83 22 22 
55544.166900 1 705 Rx d 8 86 A3 38 88 03 7D 00 00 
55544.167100 1 706 Rx d 8 1A C0 01 1A 00 7D 00 00 
55544.169400 1 103Fx Rx d 4 05 00 04 1C 
55544.176200 1 702 Rx d 8 62 00 00 00 00 00 00 B0 
55544.176500 1 703 Rx d 8 4A 94 28 31 D0 07 E5 DF 
55544.176700 1 704 Rx d 7 95 82 D8 98 82 22 22 
55544.176900 1 705 Rx d 8 86 A3 38 88 03 7D 00 00 
55544.177200 1 706 Rx d 8 1A C0 01 1A 00 7D 00 00 
55544.178000 1 103Fx Rx d 4 06 00 04 0E 
55544.186300 1 702 Rx d 8 62 00 00 00 00 00 00 B0 
55544.186500 1 703 Rx d 8 4A 94 28 39 DA 07 13 38 
55544.186700 1 704 Rx d 7 95 82 D8 98 83 22 22 
55544.186900 1 705 Rx d 8 86 A3 38 88 03 7D 00 00 
55544.187200 1 706 Rx d 8 1A C0 01 1A 00 7D 00 00 
55544.196300 1 702 Rx d 8 62 00 00 00 00 00 00 B0 
55544.196500 1 703 Rx d 8 4A 94 28 01 30 2E 2F 2F 
55544.196700 1 704 Rx d 7 95 82 D8 98 83 22 22 
55544.196900 1 705 Rx d 8 86 A3 38 88 03 7D 00 00 
55544.197200 1 706 Rx d 8 1A C0 01 1A 00 7D 00 00 
55544.206200 1 702 Rx d 8 62 00 00 00 00 00 00 B0 
55544.206500 1 703 Rx d 8 4A 94 28 09 2F 2E 00 40 
55544.206700 1 704 Rx d 7 95 82 D8 98 83 22 22 
55544.206900 1 705 Rx d 8 86 A3 38 88 03 7D 00 00 
55544.207200 1 706 Rx d 8 1A C0 01 1A 00 7D 00 00 
55544.216200 1 702 Rx d 8 62 00 00 00 00 00 00 B0 
55544.216500 1 703 Rx d 8 4A 96 28 11 00 00 7D 00 
55544.216700 1 704 Rx d 7 95 82 D8 98 83 22 22 
55544.216900 1 705 Rx d 8 86 A3 38 88 03 7D 00 00 
55544.217200 1 706 Rx d 8 1A C0 01 1A 00 7D 00 00 
55544.226200 1 703 Rx d 8 4A 96 28 19 00 00 72 79 
55544.226400 1 702 Rx d 8 62 00 00 00 00 00 00 B0 
55544.226700 1 704 Rx d 7 95 82 D8 98 83 22 22 
55544.226900 1 705 Rx d 8 86 A3 38 88 03 7D 00 00 
55544.227200 1 706 Rx d 8 1A C0 01 1A 00 7D 00 00 
55544.236200 1 703 Rx d 8 4A 96 28 21 36 33 89 30 
55544.236500 1 702 Rx d 8 62 00 00 00 00 00 00 B0 
55544.236700 1 704 Rx d 7 95 82 D8 98 83 22 22 
55544.236900 1 705 Rx d 8 86 A3 38 88 03 7D 00 00 
55544.237200 1 706 Rx d 8 1A C0 01 1A 00 7D 00 00 
55544.239300 1 1043x Rx d 7 05 E9 03 D5 28 85 34 
55544.239600 1 1002x Rx d 8 04 12 00 A0 64 00 00 00 
55544.239900 1 1003x Rx d 8 04 12 00 40 64 00 00 00 
55544.240100 1 1042x Rx d 7 05 E9 03 D5 28 85 34 
55544.240400 1 1083x Rx d 7 01 40 00 02 00 7D 00 
55544.240700 1 10C3x Rx d 7 00 10 00 00 00 7D 00 
55544.241000 1 1103x Rx d 7 01 40 00 03 00 7D 00 
55544.241200 1 1142x Rx d 7 03 50 00 04 00 7D 00 
55544.241500 1 1182x Rx d 7 00 10 00 00 00 7D 00 
55544.241800 1 11C2x Rx d 7 01 40 00 03 00 7D 00 
55544.242100 1 1403x Rx d 7 02 90 00 06 00 7D 00 
55544.242300 1 1442x Rx d 7 02 90 00 06 00 7D 00 
55544.246200 1 702 Rx d 8 62 00 00 00 00 00 00 B0 
55544.246500 1 703 Rx d 8 4A 96 2C 29 A5 71 5D 05 
55544.246700 1 704 Rx d 7 95 82 D8 98 83 22 22 
55544.246900 1 705 Rx d 8 86 A3 38 88 03 7D 00 00 
55544.247100 1 706 Rx d 8 1A C0 01 1A 00 7D 00 00 
55544.256200 1 702 Rx d 8 62 00 00 00 00 00 00 B0 
55544.256500 1 703 Rx d 8 4B 96 2C 31 D0 07 E5 DF 
55544.256700 1 704 Rx d 7 95 82 D8 98 83 22 22 
55544.256900 1 705 Rx d 8 86 A3 38 88 03 7D 00 00 
55544.257200 1 706 Rx d 8 1A C0 01 1A 00 7D 00 00 
55544.264200 1 117Fx Rx d 2 11 3C 
55544.264300 1 117Fx Rx d 2 21 E1 
55544.264500 1 117Fx Rx d 2 31 4F 
55544.264700 1 117Fx Rx d 2 41 74 
55544.264900 1 117Fx Rx d 2 51 DA 
55544.265100 1 117Fx Rx d 2 61 07 
55544.265400 1 1642x Rx d 6 06 00 28 6A 7C 06 
55544.265700 1 1682x Rx d 5 06 52 80 30 75 
55544.266300 1 702 Rx d 8 62 00 00 00 00 00 00 B0 
55544.266500 1 703 Rx d 8 4B 96 2C 39 DA 07 13 38 
55544.266700 1 704 Rx d 7 95 82 D8 98 83 22 22 
55544.266900 1 705 Rx d 8 86 A3 38 88 03 7D 00 00 
55544.267200 1 706 Rx d 8 1A C0 01 1A 00 7D 00 00 
55544.276300 1 702 Rx d 8 62 00 00 00 00 00 00 B0 
55544.276500 1 703 Rx d 8 4B 96 2C 01 30 2E 2F 2F 
55544.276700 1 704 Rx d 7 95 82 D8 98 83 22 22 
55544.276900 1 705 Rx d 8 86 A3 38 88 03 7D 00 00 
55544.277200 1 706 Rx d 8 1A C0 01 1A 00 7D 00 00 
55544.286200 1 703 Rx d 8 4B 96 2C 09 2F 2F 00 40 
55544.286500 1 702 Rx d 8 62 00 00 00 00 00 00 B0 
55544.286700 1 704 Rx d 7 95 82 D8 98 83 22 22 
55544.286900 1 705 Rx d 8 86 A3 38 88 03 7D 00 00 
55544.287200 1 706 Rx d 8 1A C0 01 1A 00 7D 00 00 
55544.296200 1 702 Rx d 8 62 00 00 00 00 00 00 B0 
55544.296500 1 703 Rx d 8 4B 96 2C 11 00 00 7D 00 
55544.296700 1 704 Rx d 7 95 82 D8 98 83 22 22 
55544.296900 1 705 Rx d 8 86 A3 38 88 03 7D 00 00 
55544.297200 1 706 Rx d 8 1A C0 01 1A 00 7D 00 00 
55544.306200 1 703 Rx d 8 4B 96 2C 19 00 00 72 79 
55544.306400 1 702 Rx d 8 62 00 00 00 00 00 00 B0 
55544.306700 1 704 Rx d 7 95 82 D8 98 83 22 22 
55544.306900 1 705 Rx d 8 86 A3 38 88 03 7D 00 00 
55544.307200 1 706 Rx d 8 1A C0 01 1A 00 7D 00 00 
55544.310200 1 117Fx Rx d 2 11 3C 
55544.310400 1 117Fx Rx d 2 21 E1 
55544.310600 1 117Fx Rx d 2 31 4F 
55544.310900 1 117Fx Rx d 2 41 74 
55544.311100 1 117Fx Rx d 2 51 DA 
55544.311300 1 117Fx Rx d 2 61 07 
55544.311500 1 1642x Rx d 6 05 00 C0 08 6E 05 
55544.311800 1 1682x Rx d 5 05 A4 79 BC 70 
55544.312500 1 1642x Rx d 6 06 00 28 6A 7C 06 
55544.312700 1 1682x Rx d 5 06 52 80 30 75 
55544.316200 1 703 Rx d 8 4B 96 2C 21 36 33 89 30 
55544.316500 1 702 Rx d 8 62 00 00 00 00 00 00 B0 
55544.316700 1 704 Rx d 7 95 82 D8 98 82 22 22 
55544.316900 1 705 Rx d 8 86 A3 38 88 03 7D 00 00 
55544.317200 1 706 Rx d 8 1A C0 01 1A 00 7D 00 00 
55544.319200 1 103Fx Rx d 4 07 00 04 00 
55544.326200 1 703 Rx d 8 4B 96 2C 29 A5 71 5D 05 
55544.326500 1 702 Rx d 8 62 00 00 00 00 00 00 B0 
55544.326700 1 704 Rx d 7 95 82 D8 98 83 22 22 
55544.326900 1 705 Rx d 8 86 A3 38 88 03 7D 00 00 
55544.327100 1 706 Rx d 8 1A C0 01 1A 00 7D 00 00 
55544.327800 1 103Fx Rx d 4 08 00 04 5A 
55544.336200 1 702 Rx d 8 62 00 00 00 00 00 00 B0 
55544.336500 1 703 Rx d 8 4B 96 2C 31 D0 07 E5 DF 
55544.336700 1 704 Rx d 7 95 82 D8 98 83 22 22 
55544.336900 1 705 Rx d 8 86 A3 38 88 03 7D 00 00 
55544.337200 1 706 Rx d 8 1A C0 01 1A 00 7D 00 00 
55544.339300 1 1003x Rx d 8 04 12 00 00 64 00 00 00 
55544.339600 1 1002x Rx d 8 04 12 00 60 64 00 00 00 
55544.339900 1 1042x Rx d 7 06 31 7E C1 64 25 0B 
55544.340200 1 1043x Rx d 7 06 31 7E FF FF FF FF 
55544.340500 1 1083x Rx d 7 01 40 00 03 00 7D 00 
55544.340700 1 10C3x Rx d 7 00 10 00 00 00 7D 00 
55544.341000 1 1103x Rx d 7 01 40 00 03 00 7D 00 
55544.341300 1 1142x Rx d 7 03 50 00 04 00 7D 00 
55544.341500 1 1182x Rx d 7 00 10 00 00 00 7D 00 
55544.341800 1 11C2x Rx d 7 01 40 00 03 00 7D 00 
55544.342100 1 1403x Rx d 7 02 A0 00 07 00 7D 00 
55544.342300 1 1442x Rx d 7 02 A0 00 07 00 7D 00 
55544.346300 1 702 Rx d 8 62 00 00 00 00 00 00 B0 
55544.346500 1 703 Rx d 8 4B 96 2C 39 DA 07 13 38 
55544.346700 1 704 Rx d 7 95 82 D8 98 83 22 22 
55544.346900 1 705 Rx d 8 86 A3 38 88 03 7D 00 00 
55544.347200 1 706 Rx d 8 1A C0 01 1A 00 7D 00 00 
55544.356300 1 702 Rx d 8 62 00 00 00 00 00 00 B0 
55544.356500 1 703 Rx d 8 4B 96 2C 01 30 2E 2F 2F 
55544.356700 1 704 Rx d 7 95 82 D9 98 83 22 22 
55544.356900 1 705 Rx d 8 86 A3 38 88 03 7D 00 00 
55544.357200 1 706 Rx d 8 1A C0 01 1A 00 7D 00 00 
55544.366200 1 703 Rx d 8 4B 98 2C 09 2F 2F 00 40 
55544.366500 1 702 Rx d 8 62 00 00 00 00 00 00 B0 
55544.366700 1 704 Rx d 7 95 82 D8 98 83 22 22 
55544.366900 1 705 Rx d 8 86 A3 38 88 03 7D 00 00 
55544.367200 1 706 Rx d 8 1A C0 01 1A 00 7D 00 00 
55544.373600 1 117Fx Rx d 2 11 3C 
55544.373900 1 117Fx Rx d 2 21 E1 
55544.374100 1 117Fx Rx d 2 31 4F 
55544.374300 1 117Fx Rx d 2 41 74 
55544.374500 1 117Fx Rx d 2 51 DA 
55544.374700 1 117Fx Rx d 2 61 07 
55544.374900 1 1643x Rx d 6 02 00 C0 08 6E 05 
55544.375100 1 1683x Rx d 5 02 A4 79 BC 70 
55544.375400 1 1642x Rx d 6 06 00 28 6A 7C 06 
55544.375700 1 1682x Rx d 5 06 52 80 30 75 
55544.376300 1 702 Rx d 8 62 00 00 00 00 00 00 B0 
55544.376500 1 703 Rx d 8 4B 98 2C 11 00 00 7D 00 
55544.376700 1 704 Rx d 7 95 82 D8 98 83 22 22 
55544.376900 1 705 Rx d 8 86 A3 38 88 03 7D 00 00 
55544.377200 1 706 Rx d 8 1A C0 01 1A 00 7D 00 00 
55544.386300 1 702 Rx d 8 62 00 00 00 00 00 00 B0 
55544.386500 1 703 Rx d 8 4B 98 2C 19 00 00 72 79 
55544.386700 1 704 Rx d 7 95 82 D8 98 83 22 22 
55544.387000 1 705 Rx d 8 86 A3 38 88 03 7D 00 00 
55544.387200 1 706 Rx d 8 1A C0 01 1A 00 7D 00 00 
55544.396200 1 703 Rx d 8 4B 98 2C 21 36 33 89 30 
55544.396500 1 702 Rx d 8 62 00 00 00 00 00 00 B0 
55544.396700 1 704 Rx d 7 95 82 D8 98 83 22 22 
55544.396900 1 705 Rx d 8 86 A3 38 88 03 7D 00 00 
55544.397200 1 706 Rx d 8 1A C0 01 1A 00 7D 00 00 
55544.406200 1 703 Rx d 8 4B 98 30 29 A5 71 5D 05 
55544.406500 1 702 Rx d 8 62 00 00 00 00 00 00 B0 
55544.406700 1 704 Rx d 7 95 82 D8 98 83 22 22 
55544.406900 1 705 Rx d 8 86 A3 38 88 03 7D 00 00 
55544.407200 1 706 Rx d 8 1A C0 01 1A 00 7D 00 00 
55544.416200 1 702 Rx d 8 62 00 00 00 00 00 00 B0 
55544.416500 1 703 Rx d 8 4C 98 30 31 D0 07 E5 DF 
55544.416700 1 704 Rx d 7 95 82 D8 98 83 22 22 
