date Fri Feb 13 3:15:59 pm 2026
base hex  no internal events logged
// version 7.1.0
55046.919800 1 781 Rx d 3 08 00 00 
55046.919800 1 FF07 Rx d 3 08 00 00 
55046.920100 1 789 Rx d 3 08 00 00 
55046.920100 1 701 Rx d 3 08 00 00 
55046.933200 1 FFFF103x Rx d 3 08 00 00 
55046.933200 1 FFFF101x Rx d 3 08 00 00 
55046.933300 1 FFFF102x Rx d 3 08 00 00 
55046.933300 1 FFFF101x Rx d 3 08 00 00 
55046.933900 1 FFFF143x Rx d 3 08 00 00 
55046.933900 1 FFFF101x Rx d 3 08 00 00 
55046.934100 1 FFFF142x Rx d 3 08 00 00 
55046.934100 1 FFFF101x Rx d 3 08 00 00 
55046.959500 1 781 Rx d 3 08 00 00 
55046.959500 1 701 Rx d 3 08 00 00 
55046.960100 1 789 Rx d 3 08 00 00 
55046.960100 1 701 Rx d 3 08 00 00 
55046.973100 1 FFFF103x Rx d 3 08 00 00 
55046.973100 1 FFFF101x Rx d 3 08 00 00 
55046.973400 1 FFFF102x Rx d 3 08 00 00 
55046.973400 1 FFFF101x Rx d 3 08 00 00 
55046.973900 1 FFFF143x Rx d 3 08 00 00 
55046.973900 1 FFFF101x Rx d 3 08 00 00 
55046.974100 1 FFFF142x Rx d 3 08 00 00 
55046.974100 1 FFFF101x Rx d 3 08 00 00 
55046.999500 1 781 Rx d 3 08 00 00 
55046.999500 1 701 Rx d 3 08 00 00 
55047.000100 1 789 Rx d 3 08 00 00 
55047.000100 1 701 Rx d 3 08 00 00 
55047.013100 1 FFFF103x Rx d 3 08 00 00 
55047.013100 1 FFFF101x Rx d 3 08 00 00 
55047.013300 1 FFFF102x Rx d 3 08 00 00 
55047.013300 1 FFFF101x Rx d 3 08 00 00 
55047.013900 1 FFFF143x Rx d 3 08 00 00 
55047.013900 1 FFFF101x Rx d 3 08 00 00 
55047.014100 1 FFFF142x Rx d 3 08 00 00 
55047.014100 1 FFFF101x Rx d 3 08 00 00 
55047.039500 1 781 Rx d 3 08 00 00 
55047.039500 1 701 Rx d 3 08 00 00 
55047.040100 1 789 Rx d 3 08 00 00 
55047.040100 1 701 Rx d 3 08 00 00 
55047.053100 1 FFFF103x Rx d 3 08 00 00 
55047.053100 1 FFFF101x Rx d 3 08 00 00 
55047.053300 1 FFFF102x Rx d 3 08 00 00 
55047.053300 1 FFFF101x Rx d 3 08 00 00 
55047.053900 1 FFFF143x Rx d 3 08 00 00 
55047.053900 1 FFFF101x Rx d 3 08 00 00 
55047.054100 1 FFFF142x Rx d 3 08 00 00 
55047.054100 1 FFFF101x Rx d 3 08 00 00 
55047.079500 1 781 Rx d 3 08 00 00 
55047.079500 1 701 Rx d 3 08 00 00 
55047.080100 1 789 Rx d 3 08 00 00 
55047.080100 1 701 Rx d 3 08 00 00 
55047.093100 1 FFFF103x Rx d 3 08 00 00 
55047.093100 1 FFFF101x Rx d 3 08 00 00 
55047.093300 1 FFFF102x Rx d 3 08 00 00 
55047.093300 1 FFFF101x Rx d 3 08 00 00 
55047.093900 1 FFFF143x Rx d 3 08 00 00 
55047.093900 1 FFFF101x Rx d 3 08 00 00 
55047.094000 1 FFFF142x Rx d 3 08 00 00 
55047.094000 1 FFFF101x Rx d 3 08 00 00 
55047.119500 1 781 Rx d 3 08 00 00 
55047.119500 1 701 Rx d 3 08 00 00 
55047.120100 1 789 Rx d 3 08 00 00 
55047.120100 1 704 Rx d 3 08 00 00 
55047.120500 1 781 Rx d 3 0B 00 00 
55047.120500 1 704 Rx d 3 0B 00 00 
55047.126200 1 781 Rx d 3 0B 00 00 
55047.126200 1 701 Rx d 3 0B 00 00 
55047.126400 1 789 Rx d 3 0B 00 00 
55047.126400 1 701 Rx d 3 0B 00 00 
55047.126600 1 5E00A001x Rx d 0 0B 00 00 
55047.133100 1 FFFF103x Rx d 3 08 00 00 
55047.133100 1 FFFF101x Rx d 3 08 00 00 
55047.133300 1 FFFF102x Rx d 3 08 00 00 
55047.133300 1 FFFF101x Rx d 3 08 00 00 
55047.133900 1 FFFF143x Rx d 3 08 00 00 
55047.133900 1 FFFF101x Rx d 3 08 00 00 
55047.134100 1 FFFF142x Rx d 3 08 00 00 
55047.134100 1 FFFF101x Rx d 3 08 00 00 
55047.134200 1 FFFF103x Rx d 3 0B 00 00 
55047.134200 1 FFFF101x Rx d 3 0B 00 00 
55047.134400 1 FFFF102x Rx d 3 0B 00 00 
55047.134400 1 FFFF101x Rx d 3 0B 00 00 
55047.159200 1 702 Rx d 8 22 00 00 00 00 00 00 30 
55047.159200 1 701 Rx d 8 22 00 00 00 00 00 00 30 
55047.159500 1 703 Rx d 8 0F 20 3C 00 2D 2C 2D 2D 
55047.159500 1 704 Rx d 8 0F 20 3C 00 2D 2C 2D 2D 
55047.160400 1 704 Rx d 7 95 82 D9 98 82 22 22 
55047.160400 1 704 Rx d 7 95 82 D9 98 82 22 22 
55047.160500 1 705 Rx d 8 88 A3 38 88 03 7D 00 00 
55047.160500 1 701 Rx d 8 88 A3 38 88 03 7D 00 00 
55047.160500 1 706 Rx d 8 20 20 02 20 00 7D 00 00 
55047.160500 1 701 Rx d 8 20 20 02 20 00 7D 00 00 
55047.169300 1 702 Rx d 8 22 00 00 00 00 00 00 30 
55047.169300 1 701 Rx d 8 22 00 00 00 00 00 00 30 
55047.169500 1 703 Rx d 8 0F 20 40 08 2D 2D 00 20 
55047.169500 1 701 Rx d 8 0F 20 40 08 2D 2D 00 20 
55047.169700 1 704 Rx d 7 95 82 D9 98 82 22 22 
55047.169700 1 701 Rx d 7 95 82 D9 98 82 22 22 
55047.169900 1 705 Rx d 8 86 A3 38 88 03 7D 00 00 
55047.169900 1 701 Rx d 8 86 A3 38 88 03 7D 00 00 
55047.170200 1 706 Rx d 8 20 20 02 20 00 7D 00 00 
55047.170200 1 701 Rx d 8 20 20 02 20 00 7D 00 00 
55047.179200 1 702 Rx d 8 22 00 00 00 00 00 00 B0 
55047.179200 1 701 Rx d 8 22 00 00 00 00 00 00 B0 
55047.179500 1 703 Rx d 8 10 20 40 10 00 00 7D 00 
55047.179500 1 701 Rx d 8 10 20 40 10 00 00 7D 00 
55047.179700 1 704 Rx d 7 95 82 D9 98 82 22 22 
55047.179700 1 701 Rx d 7 95 82 D9 98 82 22 22 
55047.179900 1 705 Rx d 8 88 A3 38 88 03 7D 00 00 
55047.179900 1 701 Rx d 8 88 A3 38 88 03 7D 00 00 
55047.180200 1 706 Rx d 8 1E 00 02 20 00 7D 00 00 
55047.180200 1 701 Rx d 8 1E 00 02 20 00 7D 00 00 
55047.189300 1 702 Rx d 8 22 00 00 00 00 00 00 B0 
55047.189300 1 701 Rx d 8 22 00 00 00 00 00 00 B0 
55047.189500 1 703 Rx d 8 10 22 44 18 00 00 72 79 
55047.189500 1 701 Rx d 8 10 22 44 18 00 00 72 79 
55047.189700 1 704 Rx d 7 95 82 D8 98 82 22 22 
55047.189700 1 701 Rx d 7 95 82 D8 98 82 22 22 
55047.190000 1 705 Rx d 8 88 A3 38 88 03 7D 00 00 
55047.190000 1 701 Rx d 8 88 A3 38 88 03 7D 00 00 
55047.190200 1 706 Rx d 8 1E 00 02 1E 00 7D 00 00 
55047.190200 1 701 Rx d 8 1E 00 02 1E 00 7D 00 00 
55047.199300 1 702 Rx d 8 22 00 00 00 00 00 00 B0 
55047.199300 1 701 Rx d 8 22 00 00 00 00 00 00 B0 
55047.199500 1 703 Rx d 8 11 22 44 20 36 33 89 30 
55047.199500 1 701 Rx d 8 11 22 44 20 36 33 89 30 
55047.199700 1 704 Rx d 7 95 82 D9 98 82 22 22 
55047.199700 1 701 Rx d 7 95 82 D9 98 82 22 22 
55047.199900 1 705 Rx d 8 88 A3 38 88 03 7D 00 00 
55047.199900 1 701 Rx d 8 88 A3 38 88 03 7D 00 00 
55047.200200 1 706 Rx d 8 1E 00 02 1E 00 7D 00 00 
55047.200200 1 701 Rx d 8 1E 00 02 1E 00 7D 00 00 
55047.209200 1 702 Rx d 8 22 00 00 00 00 00 00 B0 
55047.209200 1 701 Rx d 8 22 00 00 00 00 00 00 B0 
55047.209500 1 703 Rx d 8 11 22 44 28 A5 71 5D 05 
55047.209500 1 701 Rx d 8 11 22 44 28 A5 71 5D 05 
55047.209700 1 704 Rx d 7 95 82 D9 98 82 22 22 
55047.209700 1 701 Rx d 7 95 82 D9 98 82 22 22 
55047.209900 1 705 Rx d 8 88 A3 38 88 03 7D 00 00 
55047.209900 1 701 Rx d 8 88 A3 38 88 03 7D 00 00 
55047.210200 1 706 Rx d 8 1E 00 02 1E 00 7D 00 00 
55047.210200 1 701 Rx d 8 1E 00 02 1E 00 7D 00 00 
55047.219300 1 702 Rx d 8 22 00 00 00 00 00 00 B0 
55047.219300 1 701 Rx d 8 22 00 00 00 00 00 00 B0 
55047.219500 1 703 Rx d 8 11 24 48 30 D0 07 E5 DF 
55047.219500 1 701 Rx d 8 11 24 48 30 D0 07 E5 DF 
55047.219700 1 704 Rx d 7 95 82 D9 98 82 22 22 
55047.219700 1 701 Rx d 7 95 82 D9 98 82 22 22 
55047.220000 1 705 Rx d 8 86 A3 38 88 03 7D 00 00 
55047.220000 1 701 Rx d 8 86 A3 38 88 03 7D 00 00 
55047.220200 1 706 Rx d 8 1E 00 02 1E 00 7D 00 00 
55047.220200 1 701 Rx d 8 1E 00 02 1E 00 7D 00 00 
55047.229300 1 702 Rx d 8 22 00 00 00 00 00 00 B0 
55047.229300 1 701 Rx d 8 22 00 00 00 00 00 00 B0 
55047.229500 1 703 Rx d 8 12 24 48 38 DA 07 13 38 
55047.229500 1 701 Rx d 8 12 24 48 38 DA 07 13 38 
55047.229700 1 704 Rx d 7 95 82 D9 98 83 22 22 
55047.229700 1 701 Rx d 7 95 82 D9 98 83 22 22 
55047.229900 1 705 Rx d 8 86 A3 38 88 03 7D 00 00 
55047.229900 1 701 Rx d 8 86 A3 38 88 03 7D 00 00 
55047.230200 1 706 Rx d 8 1E 00 02 1E 00 7D 00 00 
55047.230200 1 701 Rx d 8 1E 00 02 1E 00 7D 00 00 
55047.239200 1 702 Rx d 8 22 00 00 00 00 00 00 B0 
55047.239200 1 701 Rx d 8 22 00 00 00 00 00 00 B0 
55047.239500 1 703 Rx d 8 12 26 48 00 2D 2C 2D 2D 
55047.239500 1 701 Rx d 8 12 26 48 00 2D 2C 2D 2D 
55047.239700 1 704 Rx d 7 95 82 D9 98 82 22 22 
55047.239700 1 701 Rx d 7 95 82 D9 98 82 22 22 
55047.239900 1 705 Rx d 8 88 A3 38 88 03 7D 00 00 
55047.239900 1 701 Rx d 8 88 A3 38 88 03 7D 00 00 
55047.240200 1 706 Rx d 8 1C 00 02 1E 00 7D 00 00 
55047.240200 1 701 Rx d 8 1C 00 02 1E 00 7D 00 00 
55047.242100 1 1003x Rx d 8 02 12 04 00 64 00 00 00 
55047.242100 1 1001x Rx d 8 02 12 04 00 64 00 00 00 
55047.242400 1 1002x Rx d 8 02 12 04 60 64 00 00 00 
55047.242400 1 1001x Rx d 8 02 12 04 60 64 00 00 00 
55047.249200 1 703 Rx d 8 12 26 4C 08 2D 2D 00 40 
55047.249200 1 701 Rx d 8 12 26 4C 08 2D 2D 00 40 
55047.249500 1 702 Rx d 8 22 00 00 00 00 00 00 B0 
55047.249500 1 701 Rx d 8 22 00 00 00 00 00 00 B0 
55047.249700 1 704 Rx d 7 95 82 D9 98 82 22 22 
55047.249700 1 701 Rx d 7 95 82 D9 98 82 22 22 
55047.249900 1 705 Rx d 8 88 A3 38 88 03 7D 00 00 
55047.249900 1 701 Rx d 8 88 A3 38 88 03 7D 00 00 
55047.250200 1 706 Rx d 8 1C E0 01 1E 00 7D 00 00 
55047.250200 1 701 Rx d 8 1C E0 01 1E 00 7D 00 00 
55047.259200 1 702 Rx d 8 22 00 00 00 00 00 00 B0 
55047.259200 1 701 Rx d 8 22 00 00 00 00 00 00 B0 
55047.259500 1 703 Rx d 8 13 26 4C 10 00 00 7D 00 
55047.259500 1 701 Rx d 8 13 26 4C 10 00 00 7D 00 
55047.259700 1 704 Rx d 7 95 82 D9 98 82 22 22 
55047.259700 1 701 Rx d 7 95 82 D9 98 82 22 22 
55047.259900 1 705 Rx d 8 86 A3 38 88 03 7D 00 00 
55047.259900 1 701 Rx d 8 86 A3 38 88 03 7D 00 00 
55047.260200 1 706 Rx d 8 1C E0 01 1E 00 7D 00 00 
55047.260200 1 701 Rx d 8 1C E0 01 1E 00 7D 00 00 
55047.269200 1 702 Rx d 8 22 00 00 00 00 00 00 B0 
55047.269200 1 701 Rx d 8 22 00 00 00 00 00 00 B0 
55047.269500 1 703 Rx d 8 13 28 4C 18 00 00 72 79 
55047.269500 1 701 Rx d 8 13 28 4C 18 00 00 72 79 
55047.269700 1 704 Rx d 7 95 82 D9 98 82 22 22 
55047.269700 1 701 Rx d 7 95 82 D9 98 82 22 22 
55047.269900 1 705 Rx d 8 88 A3 38 88 03 7D 00 00 
55047.269900 1 701 Rx d 8 88 A3 38 88 03 7D 00 00 
55047.270200 1 706 Rx d 8 1C E0 01 1C 00 7D 00 00 
55047.270200 1 701 Rx d 8 1C E0 01 1C 00 7D 00 00 
55047.279200 1 702 Rx d 8 22 00 00 00 00 00 00 B0 
55047.279200 1 701 Rx d 8 22 00 00 00 00 00 00 B0 
55047.279500 1 703 Rx d 8 13 28 50 20 36 33 89 30 
55047.279500 1 701 Rx d 8 13 28 50 20 36 33 89 30 
55047.279700 1 704 Rx d 7 95 82 D8 98 82 22 22 
55047.279700 1 701 Rx d 7 95 82 D8 98 82 22 22 
55047.279900 1 705 Rx d 8 86 A3 38 88 03 7D 00 00 
55047.279900 1 701 Rx d 8 86 A3 38 88 03 7D 00 00 
55047.280200 1 706 Rx d 8 1C E0 01 1C 00 7D 00 00 
55047.280200 1 701 Rx d 8 1C E0 01 1C 00 7D 00 00 
55047.289200 1 702 Rx d 8 22 00 00 00 00 00 00 B0 
55047.289200 1 701 Rx d 8 22 00 00 00 00 00 00 B0 
55047.289500 1 703 Rx d 8 14 28 50 28 A5 71 5D 05 
55047.289500 1 701 Rx d 8 14 28 50 28 A5 71 5D 05 
55047.289700 1 704 Rx d 7 95 82 D9 98 82 22 22 
55047.289700 1 701 Rx d 7 95 82 D9 98 82 22 22 
55047.289900 1 705 Rx d 8 88 A3 38 88 03 7D 00 00 
55047.289900 1 701 Rx d 8 88 A3 38 88 03 7D 00 00 
55047.290100 1 706 Rx d 8 1C E0 01 1C 00 7D 00 00 
55047.290100 1 701 Rx d 8 1C E0 01 1C 00 7D 00 00 
55047.299200 1 702 Rx d 8 22 00 00 00 00 00 00 B0 
55047.299200 1 701 Rx d 8 22 00 00 00 00 00 00 B0 
55047.299500 1 703 Rx d 8 14 2A 50 30 D0 07 E5 DF 
55047.299500 1 701 Rx d 8 14 2A 50 30 D0 07 E5 DF 
55047.299700 1 704 Rx d 7 95 82 D9 98 83 22 22 
55047.299700 1 701 Rx d 7 95 82 D9 98 83 22 22 
55047.299900 1 705 Rx d 8 88 A3 38 88 03 7D 00 00 
55047.299900 1 701 Rx d 8 88 A3 38 88 03 7D 00 00 
55047.300200 1 706 Rx d 8 1C E0 01 1C 00 7D 00 00 
55047.300200 1 701 Rx d 8 1C E0 01 1C 00 7D 00 00 
55047.309300 1 702 Rx d 8 22 00 00 00 00 00 00 B0 
55047.309300 1 701 Rx d 8 22 00 00 00 00 00 00 B0 
55047.309500 1 703 Rx d 8 14 2A 54 38 DA 07 13 38 
55047.309500 1 701 Rx d 8 14 2A 54 38 DA 07 13 38 
55047.309700 1 704 Rx d 7 95 82 D9 98 82 22 22 
55047.309700 1 701 Rx d 7 95 82 D9 98 82 22 22 
55047.309900 1 705 Rx d 8 86 A3 38 88 03 7D 00 00 
55047.309900 1 701 Rx d 8 86 A3 38 88 03 7D 00 00 
55047.310200 1 706 Rx d 8 1C E0 01 1C 00 7D 00 00 
55047.310200 1 701 Rx d 8 1C E0 01 1C 00 7D 00 00 
55047.319200 1 702 Rx d 8 22 00 00 00 00 00 00 B0 
55047.319200 1 701 Rx d 8 22 00 00 00 00 00 00 B0 
55047.319500 1 703 Rx d 8 15 2A 54 00 2D 2C 2D 2D 
55047.319500 1 701 Rx d 8 15 2A 54 00 2D 2C 2D 2D 
55047.319700 1 704 Rx d 7 95 82 D9 98 82 22 22 
55047.319700 1 701 Rx d 7 95 82 D9 98 82 22 22 
55047.319900 1 705 Rx d 8 86 A3 38 88 03 7D 00 00 
55047.319900 1 701 Rx d 8 86 A3 38 88 03 7D 00 00 
55047.320200 1 706 Rx d 8 1C E0 01 1C 00 7D 00 00 
55047.320200 1 701 Rx d 8 1C E0 01 1C 00 7D 00 00 
55047.329300 1 702 Rx d 8 22 00 00 00 00 00 00 B0 
55047.329300 1 701 Rx d 8 22 00 00 00 00 00 00 B0 
55047.329500 1 703 Rx d 8 15 2C 58 08 2D 2D 00 40 
55047.329500 1 701 Rx d 8 15 2C 58 08 2D 2D 00 40 
55047.329700 1 704 Rx d 7 95 82 D9 98 82 22 22 
55047.329700 1 701 Rx d 7 95 82 D9 98 82 22 22 
55047.329900 1 705 Rx d 8 88 A3 38 88 03 7D 00 00 
55047.329900 1 701 Rx d 8 88 A3 38 88 03 7D 00 00 
55047.330200 1 706 Rx d 8 1C E0 01 1C 00 7D 00 00 
55047.330200 1 701 Rx d 8 1C E0 01 1C 00 7D 00 00 
55047.339300 1 702 Rx d 8 22 00 00 00 00 00 00 B0 
55047.339300 1 701 Rx d 8 22 00 00 00 00 00 00 B0 
55047.339500 1 703 Rx d 8 16 2C 58 10 00 00 7D 00 
55047.339500 1 701 Rx d 8 16 2C 58 10 00 00 7D 00 
55047.339700 1 704 Rx d 7 95 82 D9 98 82 22 22 
55047.339700 1 701 Rx d 7 95 82 D9 98 82 22 22 
55047.339900 1 705 Rx d 8 88 A3 38 88 03 7D 00 00 
55047.339900 1 701 Rx d 8 88 A3 38 88 03 7D 00 00 
55047.340200 1 706 Rx d 8 1C E0 01 1C 00 7D 00 00 
55047.340200 1 701 Rx d 8 1C E0 01 1C 00 7D 00 00 
55047.342200 1 1003x Rx d 8 04 12 00 20 54 00 00 00 
55047.342200 1 1001x Rx d 8 04 12 00 20 54 00 00 00 
55047.342500 1 1002x Rx d 8 04 12 00 80 54 00 00 00 
55047.342700 1 1042x Rx d 7 00 59 A4 A5 83 00 00 
55047.343000 1 1043x Rx d 7 00 58 A4 A5 83 00 00 
55047.343300 1 1083x Rx d 7 00 10 00 00 00 7D 00 
55047.343500 1 10C3x Rx d 7 00 10 00 00 00 7D 00 
55047.343800 1 1103x Rx d 7 00 20 00 01 00 7D 00 
55047.344100 1 1142x Rx d 7 00 20 00 02 00 7D 00 
55047.344300 1 1182x Rx d 7 00 10 00 00 00 7D 00 
55047.344600 1 11C2x Rx d 7 00 20 00 00 00 7D 00 
55047.344900 1 1403x Rx d 7 00 50 00 02 00 7D 00 
55047.345100 1 1442x Rx d 7 00 50 00 02 00 7D 00 
55047.349300 1 702 Rx d 8 22 00 00 00 00 00 00 B0 
55047.349500 1 703 Rx d 8 16 2C 58 18 00 00 72 79 
55047.349700 1 704 Rx d 7 95 82 D9 98 83 22 22 
55047.350000 1 705 Rx d 8 86 A3 38 88 03 7D 00 00 
55047.350200 1 706 Rx d 8 1C E0 01 1C 00 7D 00 00 
55047.359300 1 702 Rx d 8 22 00 00 00 00 00 00 B0 
55047.359500 1 703 Rx d 8 16 2E 5C 20 36 33 89 30 
55047.359700 1 704 Rx d 7 95 82 D9 98 82 22 22 
55047.359900 1 705 Rx d 8 88 A3 38 88 03 7D 00 00 
55047.360200 1 706 Rx d 8 1A C0 01 1C 00 7D 00 00 
55047.369200 1 702 Rx d 8 22 00 00 00 00 00 00 B0 
55047.369500 1 703 Rx d 8 17 2E 5C 28 A5 71 5D 05 
55047.369700 1 704 Rx d 7 95 82 D8 98 82 22 22 
55047.369900 1 705 Rx d 8 88 A3 38 88 03 7D 00 00 
55047.370200 1 706 Rx d 8 1A C0 01 1C 00 7D 00 00 
55047.379300 1 702 Rx d 8 22 00 00 00 00 00 00 B0 
55047.379500 1 703 Rx d 8 17 2E 5C 30 D0 07 E5 DF 
55047.379700 1 704 Rx d 7 95 82 D9 98 83 22 22 
55047.380000 1 705 Rx d 8 86 A3 38 88 03 7D 00 00 
55047.380200 1 706 Rx d 8 1A C0 01 1A 00 7D 00 00 
55047.389300 1 702 Rx d 8 22 00 00 00 00 00 00 B0 
55047.389500 1 703 Rx d 8 17 30 60 38 DA 07 13 38 
55047.389700 1 704 Rx d 7 95 82 D9 98 82 22 22 
55047.389900 1 705 Rx d 8 86 A3 38 88 03 7D 00 00 
55047.390200 1 706 Rx d 8 1A C0 01 1A 00 7D 00 00 
55047.399200 1 702 Rx d 8 22 00 00 00 00 00 00 B0 
55047.399500 1 703 Rx d 8 18 30 60 00 2D 2C 2D 2D 
55047.399700 1 704 Rx d 7 95 82 D9 98 82 22 22 
55047.400000 1 705 Rx d 8 86 A3 38 88 03 7D 00 00 
55047.400200 1 706 Rx d 8 1A C0 01 1A 00 7D 00 00 
55047.409200 1 703 Rx d 8 18 30 60 08 2D 2D 00 40 
55047.409500 1 702 Rx d 8 22 00 00 00 00 00 00 B0 
55047.409700 1 704 Rx d 7 95 82 D9 98 82 22 22 
55047.409900 1 705 Rx d 8 88 A3 38 88 03 7D 00 00 
55047.410200 1 706 Rx d 8 1A C0 01 1A 00 7D 00 00 
55047.419300 1 702 Rx d 8 22 00 00 00 00 00 00 B0 
55047.419500 1 703 Rx d 8 18 32 64 10 00 00 7D 00 
55047.419700 1 704 Rx d 7 95 82 D9 98 83 22 22 
55047.419900 1 705 Rx d 8 88 A3 38 88 03 7D 00 00 
55047.420200 1 706 Rx d 8 1A C0 01 1A 00 7D 00 00 
55047.429200 1 702 Rx d 8 22 00 00 00 00 00 00 B0 
55047.429500 1 703 Rx d 8 19 32 64 18 00 00 72 79 
55047.429700 1 704 Rx d 7 95 82 D9 98 82 22 22 
55047.429900 1 705 Rx d 8 86 A3 38 88 03 7D 00 00 
55047.430200 1 706 Rx d 8 1A C0 01 1A 00 7D 00 00 
55047.439200 1 702 Rx d 8 22 00 00 00 00 00 00 B0 
55047.439500 1 703 Rx d 8 19 32 64 20 36 33 89 30 
55047.439700 1 704 Rx d 7 95 82 D9 98 82 22 22 
55047.439900 1 705 Rx d 8 88 A3 38 88 03 7D 00 00 
55047.440200 1 706 Rx d 8 1A C0 01 1A 00 7D 00 00 
55047.442200 1 1003x Rx d 8 04 12 00 40 64 00 00 00 
55047.442400 1 1002x Rx d 8 04 12 00 A0 64 00 00 00 
55047.442700 1 1042x Rx d 7 01 29 29 2A 2A 2A 2A 
55047.443000 1 1043x Rx d 7 01 2C 2C 2C 2C 28 28 
55047.443200 1 1083x Rx d 7 00 20 00 01 00 7D 00 
55047.443500 1 10C3x Rx d 7 00 10 00 00 00 7D 00 
55047.443800 1 1103x Rx d 7 00 20 00 01 00 7D 00 
55047.444000 1 1142x Rx d 7 01 30 00 02 00 7D 00 
55047.444300 1 1182x Rx d 7 00 10 00 00 00 7D 00 
55047.444600 1 11C2x Rx d 7 00 20 00 01 00 7D 00 
55047.444900 1 1403x Rx d 7 00 60 00 03 00 7D 00 
55047.445100 1 1442x Rx d 7 00 70 00 03 00 7D 00 
55047.449200 1 702 Rx d 8 22 00 00 00 00 00 00 B0 
55047.449500 1 703 Rx d 8 19 34 68 28 A5 71 5D 05 
55047.449700 1 704 Rx d 7 95 82 D8 98 83 22 22 
55047.449900 1 705 Rx d 8 88 A3 38 88 03 7D 00 00 
55047.450100 1 706 Rx d 8 1A C0 01 1A 00 7D 00 00 
55047.459200 1 702 Rx d 8 22 00 00 00 00 00 00 B0 
55047.459500 1 703 Rx d 8 1A 34 68 30 D0 07 E5 DF 
55047.459700 1 704 Rx d 7 95 82 D9 98 82 22 22 
55047.459900 1 705 Rx d 8 88 A3 38 88 03 7D 00 00 
55047.460200 1 706 Rx d 8 1A C0 01 1A 00 7D 00 00 
55047.469300 1 702 Rx d 8 22 00 00 00 00 00 00 B0 
55047.469500 1 703 Rx d 8 1A 34 68 38 DA 07 13 38 
55047.469700 1 704 Rx d 7 95 82 D8 98 82 22 22 
55047.469900 1 705 Rx d 8 86 A3 38 88 03 7D 00 00 
55047.470200 1 706 Rx d 8 1A C0 01 1A 00 7D 00 00 
55047.479200 1 702 Rx d 8 22 00 00 00 00 00 00 B0 
55047.479500 1 703 Rx d 8 1A 36 6C 00 2D 2C 2D 2D 
55047.479700 1 704 Rx d 7 95 82 D8 98 83 22 22 
55047.479900 1 705 Rx d 8 88 A3 38 88 03 7D 00 00 
55047.480200 1 706 Rx d 8 1A C0 01 1A 00 7D 00 00 
55047.489300 1 702 Rx d 8 22 00 00 00 00 00 00 B0 
55047.489500 1 703 Rx d 8 1B 36 6C 08 2D 2D 00 40 
55047.489700 1 704 Rx d 7 95 82 D9 98 82 22 22 
55047.490000 1 705 Rx d 8 88 A3 38 88 03 7D 00 00 
55047.490200 1 706 Rx d 8 18 A0 01 1A 00 7D 00 00 
55047.499300 1 702 Rx d 8 22 00 00 00 00 00 00 B0 
55047.499500 1 703 Rx d 8 1B 36 6C 10 00 00 7D 00 
55047.499700 1 704 Rx d 7 95 82 D8 98 83 22 22 
55047.499900 1 705 Rx d 8 88 A3 38 88 03 7D 00 00 
55047.500200 1 706 Rx d 8 18 A0 01 1A 00 7D 00 00 
55047.509200 1 703 Rx d 8 1B 38 70 18 00 00 72 79 
55047.509500 1 702 Rx d 8 22 00 00 00 00 00 00 B0 
55047.509700 1 704 Rx d 7 95 82 D9 98 83 22 22 
55047.509900 1 705 Rx d 8 86 A3 38 88 03 7D 00 00 
55047.510200 1 706 Rx d 8 18 A0 01 1A 00 7D 00 00 
55047.519200 1 703 Rx d 8 1C 38 70 20 36 33 89 30 
55047.519500 1 702 Rx d 8 22 00 00 00 00 00 00 B0 
55047.519700 1 704 Rx d 7 95 82 D9 98 83 22 22 
55047.519900 1 705 Rx d 8 88 A3 38 88 03 7D 00 00 
55047.520200 1 706 Rx d 8 18 A0 01 1A 00 7D 00 00 
55047.529200 1 703 Rx d 8 1C 38 70 28 A5 71 5D 05 
55047.529500 1 702 Rx d 8 22 00 00 00 00 00 00 B0 
55047.529700 1 704 Rx d 7 95 82 D8 98 82 22 22 
55047.529900 1 705 Rx d 8 88 A3 38 88 03 7D 00 00 
55047.530100 1 706 Rx d 8 18 A0 01 18 00 7D 00 00 
55047.539200 1 703 Rx d 8 1C 3A 74 30 D0 07 E5 DF 
55047.539500 1 702 Rx d 8 22 00 00 00 00 00 00 B0 
55047.539700 1 704 Rx d 7 95 82 D9 98 83 22 22 
55047.539900 1 705 Rx d 8 88 A3 38 88 03 7D 00 00 
55047.540200 1 706 Rx d 8 18 A0 01 18 00 7D 00 00 
55047.542100 1 1003x Rx d 8 04 12 00 00 64 00 00 00 
55047.542400 1 1002x Rx d 8 04 12 00 60 64 00 00 00 
55047.542700 1 1042x Rx d 7 02 28 28 26 26 2B 2B 
55047.542900 1 1043x Rx d 7 02 25 25 26 26 2A 2A 
55047.543200 1 1083x Rx d 7 00 30 00 01 00 7D 00 
55047.543500 1 10C3x Rx d 7 00 10 00 00 00 7D 00 
55047.543800 1 1103x Rx d 7 00 30 00 02 00 7D 00 
55047.544100 1 1142x Rx d 7 02 30 00 03 00 7D 00 
55047.544300 1 1182x Rx d 7 00 10 00 00 00 7D 00 
55047.544600 1 11C2x Rx d 7 00 30 00 01 00 7D 00 
55047.544900 1 1403x Rx d 7 00 70 00 04 00 7D 00 
55047.545100 1 1442x Rx d 7 00 70 00 04 00 7D 00 
55047.549200 1 703 Rx d 8 1D 3A 74 38 DA 07 13 38 
55047.549500 1 702 Rx d 8 22 00 00 00 00 00 00 B0 
55047.549700 1 704 Rx d 7 95 82 D8 98 82 22 22 
55047.549900 1 705 Rx d 8 88 A3 38 88 03 7D 00 00 
55047.550200 1 706 Rx d 8 18 A0 01 18 00 7D 00 00 
55047.559200 1 702 Rx d 8 22 00 00 00 00 00 00 B0 
55047.559500 1 703 Rx d 8 1D 3A 74 00 2D 2C 2D 2D 
55047.559700 1 704 Rx d 7 95 82 D9 98 82 22 22 
55047.559900 1 705 Rx d 8 86 A3 38 88 03 7D 00 00 
55047.560200 1 706 Rx d 8 18 A0 01 18 00 7D 00 00 
55047.569200 1 702 Rx d 8 22 00 00 00 00 00 00 B0 
55047.569500 1 703 Rx d 8 1D 3C 74 08 2D 2D 00 40 
55047.569700 1 704 Rx d 7 95 82 D9 98 83 22 22 
55047.569900 1 705 Rx d 8 88 A3 38 88 03 7D 00 00 
55047.570200 1 706 Rx d 8 18 A0 01 18 00 7D 00 00 
55047.579300 1 702 Rx d 8 22 00 00 00 00 00 00 B0 
55047.579500 1 703 Rx d 8 1E 3C 78 10 00 00 7D 00 
55047.579700 1 704 Rx d 7 95 82 D9 98 82 22 22 
55047.579900 1 705 Rx d 8 88 A3 38 88 03 7D 00 00 
55047.580200 1 706 Rx d 8 18 A0 01 18 00 7D 00 00 
55047.589300 1 702 Rx d 8 22 00 00 00 00 00 00 B0 
55047.589500 1 703 Rx d 8 1E 3C 78 18 00 00 72 79 
55047.589700 1 704 Rx d 7 95 82 D8 98 83 22 22 
55047.590000 1 705 Rx d 8 88 A3 38 88 03 7D 00 00 
55047.590200 1 706 Rx d 8 18 A0 01 18 00 7D 00 00 
55047.599300 1 702 Rx d 8 22 00 00 00 00 00 00 B0 
55047.599500 1 703 Rx d 8 1E 3E 78 20 36 33 89 30 
55047.599700 1 704 Rx d 7 95 82 D9 98 82 22 22 
55047.599900 1 705 Rx d 8 86 A3 38 88 03 7D 00 00 
55047.600200 1 706 Rx d 8 18 A0 01 18 00 7D 00 00 
55047.609200 1 702 Rx d 8 22 00 00 00 00 00 00 B0 
55047.609500 1 703 Rx d 8 1E 3E 7C 28 A5 71 5D 05 
55047.609700 1 704 Rx d 7 95 82 D9 98 82 22 22 
55047.609900 1 705 Rx d 8 88 A3 38 88 03 7D 00 00 
55047.610200 1 706 Rx d 8 18 A0 01 18 00 7D 00 00 
55047.619300 1 702 Rx d 8 22 00 00 00 00 00 00 B0 
55047.619500 1 703 Rx d 8 1F 3E 7C 30 D0 07 E5 DF 
55047.619700 1 704 Rx d 7 95 82 D8 98 83 22 22 
55047.620000 1 705 Rx d 8 88 A3 38 88 03 7D 00 00 
55047.620200 1 706 Rx d 8 18 A0 01 18 00 7D 00 00 
55047.629300 1 702 Rx d 8 22 00 00 00 00 00 00 B0 
55047.629500 1 703 Rx d 8 1F 40 7C 38 DA 07 13 38 
55047.629700 1 704 Rx d 7 95 82 D9 98 82 22 22 
55047.629900 1 705 Rx d 8 86 A3 38 88 03 7D 00 00 
55047.630200 1 706 Rx d 8 18 A0 01 18 00 7D 00 00 
55047.639300 1 702 Rx d 8 22 00 00 00 00 00 00 B0 
55047.639500 1 703 Rx d 8 1F 40 80 00 2D 2C 2D 2D 
55047.639700 1 704 Rx d 7 95 82 D9 98 82 22 22 
55047.640000 1 705 Rx d 8 88 A3 38 88 03 7D 00 00 
55047.640200 1 706 Rx d 8 18 A0 01 18 00 7D 00 00 
55047.642100 1 1043x Rx d 7 03 2A 2A 28 28 2F 00 
55047.642400 1 1002x Rx d 8 04 12 00 80 54 00 00 00 
55047.642700 1 1003x Rx d 8 04 12 00 20 54 00 00 00 
55047.643000 1 1042x Rx d 7 03 28 28 26 26 2F 00 
55047.643200 1 1083x Rx d 7 00 30 00 02 00 7D 00 
55047.643500 1 10C3x Rx d 7 00 10 00 00 00 7D 00 
55047.643800 1 1103x Rx d 7 00 30 00 02 00 7D 00 
55047.644100 1 1142x Rx d 7 02 30 00 03 00 7D 00 
55047.644300 1 1182x Rx d 7 00 10 00 00 00 7D 00 
55047.644600 1 11C2x Rx d 7 00 30 00 02 00 7D 00 
55047.644900 1 1403x Rx d 7 00 70 00 04 00 7D 00 
55047.645100 1 1442x Rx d 7 00 80 00 04 00 7D 00 
55047.649200 1 703 Rx d 8 20 40 80 08 2D 2D 00 40 
55047.649500 1 702 Rx d 8 22 00 00 00 00 00 00 B0 
55047.649700 1 704 Rx d 7 95 82 D9 98 83 22 22 
55047.650000 1 705 Rx d 8 86 A3 38 88 03 7D 00 00 
55047.650200 1 706 Rx d 8 16 80 01 18 00 7D 00 00 
55047.659300 1 703 Rx d 8 20 42 80 10 00 00 7D 00 
55047.659500 1 702 Rx d 8 22 00 00 00 00 00 00 B0 
55047.659700 1 704 Rx d 7 95 82 D8 98 83 22 22 
55047.659900 1 705 Rx d 8 88 A3 38 88 03 7D 00 00 
55047.660200 1 706 Rx d 8 16 80 01 18 00 7D 00 00 
55047.669200 1 702 Rx d 8 22 00 00 00 00 00 00 B0 
55047.669500 1 703 Rx d 8 20 42 84 18 00 00 72 79 
55047.669700 1 704 Rx d 7 95 82 D9 98 82 22 22 
55047.669900 1 705 Rx d 8 86 A3 38 88 03 7D 00 00 
55047.670200 1 706 Rx d 8 16 80 01 18 00 7D 00 00 
55047.679300 1 702 Rx d 8 22 00 00 00 00 00 00 B0 
55047.679500 1 703 Rx d 8 21 42 84 20 36 33 89 30 
55047.679700 1 704 Rx d 7 95 82 D8 98 82 22 22 
55047.679900 1 705 Rx d 8 86 A3 38 88 03 7D 00 00 
55047.680200 1 706 Rx d 8 16 80 01 18 00 7D 00 00 
55047.689200 1 702 Rx d 8 22 00 00 00 00 00 00 B0 
55047.689500 1 703 Rx d 8 21 42 84 28 A5 71 5D 05 
55047.689700 1 704 Rx d 7 95 82 D9 98 83 22 22 
55047.689900 1 705 Rx d 8 88 A3 38 88 03 7D 00 00 
55047.690200 1 706 Rx d 8 16 80 01 16 00 7D 00 00 
55047.699200 1 702 Rx d 8 22 00 00 00 00 00 00 B0 
55047.699500 1 703 Rx d 8 21 44 88 30 D0 07 E5 DF 
55047.699700 1 704 Rx d 7 95 82 D9 98 82 22 22 
55047.699900 1 705 Rx d 8 86 A3 38 88 03 7D 00 00 
55047.700200 1 706 Rx d 8 16 80 01 16 00 7D 00 00 
55047.709300 1 702 Rx d 8 22 00 00 00 00 00 00 B0 
55047.709500 1 703 Rx d 8 22 44 88 38 DA 07 13 38 
55047.709700 1 704 Rx d 7 95 82 D9 98 82 22 22 
55047.709900 1 705 Rx d 8 86 A3 38 88 03 7D 00 00 
55047.710200 1 706 Rx d 8 16 80 01 16 00 7D 00 00 
55047.719200 1 702 Rx d 8 22 00 00 00 00 00 00 B0 
55047.719500 1 703 Rx d 8 22 44 88 00 2D 2C 2D 2D 
55047.719700 1 704 Rx d 7 95 82 D8 98 83 22 22 
55047.719900 1 705 Rx d 8 88 A3 38 88 03 7D 00 00 
55047.720200 1 706 Rx d 8 16 A0 01 1A 00 7D 00 00 
55047.729300 1 702 Rx d 8 22 00 00 00 00 00 00 B0 
55047.729500 1 703 Rx d 8 22 46 8C 08 2D 2D 00 40 
55047.729700 1 704 Rx d 7 95 82 D9 98 82 22 22 
55047.730000 1 705 Rx d 8 88 A3 38 88 03 7D 00 00 
55047.730200 1 706 Rx d 8 18 A0 01 1A 00 7D 00 00 
55047.739300 1 702 Rx d 8 22 00 00 00 00 00 00 B0 
55047.739500 1 703 Rx d 8 23 46 8C 10 00 00 7D 00 
55047.739700 1 704 Rx d 7 95 82 D8 98 83 22 22 
55047.740000 1 705 Rx d 8 86 A3 38 88 03 7D 00 00 
55047.740200 1 706 Rx d 8 18 A0 01 1A 00 7D 00 00 
55047.742100 1 1043x Rx d 7 04 E8 03 86 96 BE 32 
55047.742400 1 1002x Rx d 8 04 12 00 A0 64 00 00 00 
55047.742700 1 1003x Rx d 8 04 12 00 40 64 00 00 00 
55047.743000 1 1042x Rx d 7 04 E8 03 5C 76 BE 32 
55047.743300 1 1083x Rx d 7 00 30 00 02 00 7D 00 
55047.743500 1 10C3x Rx d 7 00 10 00 00 00 7D 00 
55047.743800 1 1103x Rx d 7 00 30 00 02 00 7D 00 
55047.744100 1 1142x Rx d 7 02 40 00 03 00 7D 00 
55047.744300 1 1182x Rx d 7 00 10 00 00 00 7D 00 
55047.744600 1 11C2x Rx d 7 01 30 00 02 00 7D 00 
55047.744900 1 1403x Rx d 7 00 80 00 05 00 7D 00 
55047.745100 1 1442x Rx d 7 00 80 00 05 00 7D 00 
55047.749200 1 703 Rx d 8 23 46 8C 18 00 00 72 79 
55047.749500 1 702 Rx d 8 22 00 00 00 00 00 00 B0 
55047.749700 1 704 Rx d 7 95 82 D9 98 83 22 22 
55047.749900 1 705 Rx d 8 88 A3 38 88 03 7D 00 00 
55047.750200 1 706 Rx d 8 18 C0 01 1A 00 7D 00 00 
55047.759200 1 703 Rx d 8 23 48 8C 20 36 33 89 30 
55047.759500 1 702 Rx d 8 22 00 00 00 00 00 00 B0 
55047.759700 1 704 Rx d 7 95 82 D9 98 82 22 22 
55047.759900 1 705 Rx d 8 86 A3 38 88 03 7D 00 00 
55047.760200 1 706 Rx d 8 18 A0 01 1A 00 7D 00 00 
55047.769200 1 703 Rx d 8 23 48 90 28 A5 71 5D 05 
55047.769500 1 702 Rx d 8 22 00 00 00 00 00 00 B0 
55047.769700 1 704 Rx d 7 95 82 D9 98 82 22 22 
55047.769900 1 705 Rx d 8 86 A3 38 88 03 7D 00 00 
55047.770200 1 706 Rx d 8 1A A0 01 1A 00 7D 00 00 
55047.779200 1 703 Rx d 8 24 48 90 30 D0 07 E5 DF 
55047.779500 1 702 Rx d 8 22 00 00 00 00 00 00 B0 
55047.779700 1 704 Rx d 7 95 82 D8 98 83 22 22 
55047.779900 1 705 Rx d 8 88 A3 38 88 03 7D 00 00 
55047.780200 1 706 Rx d 8 18 C0 01 1A 00 7D 00 00 
55047.789200 1 703 Rx d 8 24 4A 90 38 DA 07 13 38 
55047.789500 1 702 Rx d 8 22 00 00 00 00 00 00 B0 
55047.789700 1 704 Rx d 7 95 82 D8 98 82 22 22 
55047.789900 1 705 Rx d 8 86 A3 38 88 03 7D 00 00 
55047.790200 1 706 Rx d 8 18 C0 01 1A 00 7D 00 00 
55047.799200 1 703 Rx d 8 24 4A 94 00 2D 2C 2D 2D 
55047.799500 1 702 Rx d 8 22 00 00 00 00 00 00 B0 
55047.799700 1 704 Rx d 7 95 82 D8 98 82 22 22 
55047.799900 1 705 Rx d 8 88 A3 38 88 03 7D 00 00 
55047.800200 1 706 Rx d 8 1A C0 01 1A 00 7D 00 00 
55047.809300 1 702 Rx d 8 22 00 00 00 00 00 00 B0 
55047.809500 1 703 Rx d 8 25 4A 94 08 2C 2D 00 40 
55047.809700 1 704 Rx d 7 95 82 D9 98 83 22 22 
55047.810000 1 705 Rx d 8 88 A3 38 88 03 7D 00 00 
55047.810200 1 706 Rx d 8 18 C0 01 1A 00 7D 00 00 
55047.819300 1 702 Rx d 8 22 00 00 00 00 00 00 B0 
55047.819500 1 703 Rx d 8 25 4A 94 10 00 00 7D 00 
55047.819700 1 704 Rx d 7 95 82 D9 98 82 22 22 
55047.819900 1 705 Rx d 8 88 A3 38 88 03 7D 00 00 
55047.820200 1 706 Rx d 8 18 C0 01 1A 00 7D 00 00 
55047.829300 1 702 Rx d 8 22 00 00 00 00 00 00 B0 
55047.829500 1 703 Rx d 8 25 4C 98 18 00 00 72 79 
55047.829700 1 704 Rx d 7 95 82 D9 98 83 22 22 
55047.830000 1 705 Rx d 8 86 A3 38 88 03 7D 00 00 
55047.830200 1 706 Rx d 8 18 A0 01 1A 00 7D 00 00 
55047.839300 1 702 Rx d 8 22 00 00 00 00 00 00 B0 
55047.839500 1 703 Rx d 8 26 4C 98 20 36 33 89 30 
55047.839700 1 704 Rx d 7 95 82 D9 98 82 22 22 
55047.839900 1 705 Rx d 8 88 A3 38 88 03 7D 00 00 
55047.840200 1 706 Rx d 8 1A C0 01 1A 00 7D 00 00 
55047.842100 1 1003x Rx d 8 04 12 00 00 64 00 00 00 
55047.842400 1 1002x Rx d 8 04 12 00 60 64 00 00 00 
55047.842700 1 1042x Rx d 7 05 E9 03 D5 28 85 34 
55047.842900 1 1043x Rx d 7 05 E9 03 D5 28 85 34 
55047.843200 1 1083x Rx d 7 00 40 00 02 00 7D 00 
55047.843500 1 10C3x Rx d 7 00 10 00 00 00 7D 00 
55047.843700 1 1103x Rx d 7 01 30 00 02 00 7D 00 
55047.844000 1 1142x Rx d 7 03 40 00 04 00 7D 00 
55047.844300 1 1182x Rx d 7 00 10 00 00 00 7D 00 
55047.844600 1 11C2x Rx d 7 01 30 00 02 00 7D 00 
55047.844900 1 1403x Rx d 7 00 90 00 05 00 7D 00 
55047.845100 1 1442x Rx d 7 00 90 00 05 00 7D 00 
55047.849200 1 702 Rx d 8 22 00 00 00 00 00 00 B0 
55047.849500 1 703 Rx d 8 26 4C 98 28 A5 71 5D 05 
55047.849700 1 704 Rx d 7 95 82 D9 98 83 22 22 
55047.849900 1 705 Rx d 8 88 A3 38 88 03 7D 00 00 
55047.850200 1 706 Rx d 8 18 C0 01 1A 00 7D 00 00 
55047.859300 1 702 Rx d 8 22 00 00 00 00 00 00 B0 
55047.859500 1 703 Rx d 8 26 4E 9C 30 D0 07 E5 DF 
55047.859700 1 704 Rx d 7 95 82 D9 98 83 22 22 
55047.860000 1 705 Rx d 8 86 A3 38 88 03 7D 00 00 
55047.860200 1 706 Rx d 8 1A C0 01 1A 00 7D 00 00 
55047.869300 1 702 Rx d 8 22 00 00 00 00 00 00 B0 
55047.869500 1 703 Rx d 8 26 4E 9C 38 DA 07 13 38 
55047.869700 1 704 Rx d 7 95 82 D9 98 82 22 22 
55047.869900 1 705 Rx d 8 86 A3 38 88 03 7D 00 00 
55047.870200 1 706 Rx d 8 1A C0 01 1A 00 7D 00 00 
55047.879300 1 702 Rx d 8 22 00 00 00 00 00 00 B0 
55047.879500 1 703 Rx d 8 27 4E 9C 00 2D 2C 2D 2D 
55047.879700 1 704 Rx d 7 95 82 D8 98 82 22 22 
55047.880000 1 705 Rx d 8 88 A3 38 88 03 7D 00 00 
55047.880200 1 706 Rx d 8 18 C0 01 1A 00 7D 00 00 
55047.889200 1 703 Rx d 8 27 50 9C 08 2D 2D 00 40 
55047.889500 1 702 Rx d 8 22 00 00 00 00 00 00 B0 
55047.889700 1 704 Rx d 7 95 82 D9 98 82 22 22 
55047.889900 1 705 Rx d 8 88 A3 38 88 03 7D 00 00 
55047.890200 1 706 Rx d 8 1A C0 01 1A 00 7D 00 00 
55047.899300 1 703 Rx d 8 27 50 A0 10 00 00 7D 00 
55047.899500 1 702 Rx d 8 22 00 00 00 00 00 00 B0 
55047.899700 1 704 Rx d 7 95 82 D9 98 83 22 22 
55047.899900 1 705 Rx d 8 86 A3 38 88 03 7D 00 00 
55047.900200 1 706 Rx d 8 1A C0 01 1A 00 7D 00 00 
55047.909200 1 702 Rx d 8 22 00 00 00 00 00 00 B0 
55047.909500 1 703 Rx d 8 28 50 A0 18 00 00 72 79 
55047.909700 1 704 Rx d 7 95 82 D9 98 82 22 22 
55047.909900 1 705 Rx d 8 88 A3 38 88 03 7D 00 00 
55047.910200 1 706 Rx d 8 1A C0 01 1A 00 7D 00 00 
55047.919300 1 702 Rx d 8 22 00 00 00 00 00 00 B0 
55047.919500 1 703 Rx d 8 28 52 A0 20 36 33 89 30 
55047.919700 1 704 Rx d 7 95 82 D9 98 82 22 22 
55047.919900 1 705 Rx d 8 86 A3 38 88 03 7D 00 00 
55047.920200 1 706 Rx d 8 1A C0 01 1A 00 7D 00 00 
55047.929200 1 702 Rx d 8 22 00 00 00 00 00 00 B0 
55047.929500 1 703 Rx d 8 28 52 A4 28 A5 71 5D 05 
55047.929700 1 704 Rx d 7 95 82 D9 98 83 22 22 
55047.929900 1 705 Rx d 8 88 A3 38 88 03 7D 00 00 
55047.930200 1 706 Rx d 8 1A C0 01 1A 00 7D 00 00 
55047.939200 1 702 Rx d 8 22 00 00 00 00 00 00 B0 
55047.939500 1 703 Rx d 8 29 52 A4 30 D0 07 E5 DF 
55047.939700 1 704 Rx d 7 95 82 D8 98 82 22 22 
55047.939900 1 705 Rx d 8 86 A3 38 88 03 7D 00 00 
55047.940200 1 706 Rx d 8 1A C0 01 1A 00 7D 00 00 
55047.942100 1 1003x Rx d 8 04 12 00 20 54 00 00 00 
55047.942400 1 1002x Rx d 8 04 12 00 80 54 00 00 00 
55047.942700 1 1042x Rx d 7 06 31 7E C1 64 25 0B 
55047.942900 1 1043x Rx d 7 06 31 7E FF FF FF FF 
55047.943200 1 1083x Rx d 7 01 40 00 02 00 7D 00 
55047.943500 1 10C3x Rx d 7 00 10 00 00 00 7D 00 
55047.943800 1 1103x Rx d 7 01 30 00 02 00 7D 00 
55047.944100 1 1142x Rx d 7 03 40 00 04 00 7D 00 
55047.944300 1 1182x Rx d 7 00 10 00 00 00 7D 00 
55047.944600 1 11C2x Rx d 7 02 40 00 03 00 7D 00 
55047.944900 1 1403x Rx d 7 01 90 00 06 00 7D 00 
55047.945100 1 1442x Rx d 7 01 90 00 06 00 7D 00 
55047.949300 1 702 Rx d 8 22 00 00 00 00 00 00 B0 
55047.949500 1 703 Rx d 8 29 52 A4 38 DA 07 13 38 
55047.949700 1 704 Rx d 7 95 82 D8 98 82 22 22 
55047.949900 1 705 Rx d 8 86 A3 38 88 03 7D 00 00 
55047.950200 1 706 Rx d 8 1A C0 01 1A 00 7D 00 00 
55047.959200 1 702 Rx d 8 22 00 00 00 00 00 00 B0 
55047.959500 1 703 Rx d 8 29 54 A4 00 2D 2C 2D 2D 
55047.959700 1 704 Rx d 7 95 82 D9 98 83 22 22 
55047.959900 1 705 Rx d 8 88 A3 38 88 03 7D 00 00 
55047.960200 1 706 Rx d 8 1A C0 01 1A 00 7D 00 00 
55047.969300 1 702 Rx d 8 22 00 00 00 00 00 00 B0 
55047.969500 1 703 Rx d 8 29 54 A8 08 2D 2D 00 40 
55047.969700 1 704 Rx d 7 95 82 D9 98 82 22 22 
55047.970000 1 705 Rx d 8 86 A3 38 88 03 7D 00 00 
55047.970200 1 706 Rx d 8 1A A0 01 1A 00 7D 00 00 
55047.979300 1 702 Rx d 8 22 00 00 00 00 00 00 B0 
55047.979500 1 703 Rx d 8 2A 54 A8 10 00 00 7D 00 
55047.979700 1 704 Rx d 7 95 82 D9 98 83 22 22 
55047.980000 1 705 Rx d 8 88 A3 38 88 03 7D 00 00 
55047.980200 1 706 Rx d 8 18 C0 01 1A 00 7D 00 00 
55047.989300 1 702 Rx d 8 22 00 00 00 00 00 00 B0 
55047.989500 1 703 Rx d 8 2A 56 A8 18 00 00 72 79 
55047.989700 1 704 Rx d 7 95 82 D9 98 82 22 22 
55047.990000 1 705 Rx d 8 88 A3 38 88 03 7D 00 00 
55047.990200 1 706 Rx d 8 18 C0 01 1A 00 7D 00 00 
55047.999300 1 702 Rx d 8 22 00 00 00 00 00 00 B0 
55047.999500 1 703 Rx d 8 2A 56 AC 20 36 33 89 30 
55047.999700 1 704 Rx d 7 95 82 D9 98 83 22 22 
55047.999900 1 705 Rx d 8 86 A3 38 88 03 7D 00 00 
55048.000200 1 706 Rx d 8 1A C0 01 1A 00 7D 00 00 
55048.009300 1 702 Rx d 8 22 00 00 00 00 00 00 B0 
55048.009500 1 703 Rx d 8 2B 56 AC 28 A5 71 5D 05 
55048.009700 1 704 Rx d 7 95 82 D8 98 83 22 22 
55048.009900 1 705 Rx d 8 86 A3 38 88 03 7D 00 00 
55048.010200 1 706 Rx d 8 1A C0 01 1A 00 7D 00 00 
55048.019300 1 702 Rx d 8 22 00 00 00 00 00 00 B0 
55048.019500 1 703 Rx d 8 2B 58 AC 30 D0 07 E5 DF 
55048.019700 1 704 Rx d 7 95 82 D9 98 82 22 22 
55048.020000 1 705 Rx d 8 86 A3 38 88 03 7D 00 00 
55048.020200 1 706 Rx d 8 1A C0 01 1A 00 7D 00 00 
55048.029200 1 702 Rx d 8 22 00 00 00 00 00 00 B0 
55048.029500 1 703 Rx d 8 2B 58 B0 38 DA 07 13 38 
55048.029700 1 704 Rx d 7 95 82 D9 98 82 22 22 
55048.029900 1 705 Rx d 8 86 A3 38 88 03 7D 00 00 
55048.030200 1 706 Rx d 8 1A C0 01 1A 00 7D 00 00 
55048.039300 1 702 Rx d 8 22 00 00 00 00 00 00 B0 
55048.039500 1 703 Rx d 8 2C 58 B0 00 2D 2C 2D 2D 
55048.039700 1 704 Rx d 7 95 82 D8 98 83 22 22 
55048.040000 1 705 Rx d 8 86 A3 38 88 03 7D 00 00 
55048.040200 1 706 Rx d 8 1A C0 01 1A 00 7D 00 00 
55048.042100 1 1003x Rx d 8 04 12 00 40 64 00 00 00 
55048.042400 1 1002x Rx d 8 04 12 00 A0 64 00 00 00 
55048.042700 1 1042x Rx d 7 07 00 00 00 00 00 00 
55048.042900 1 1043x Rx d 7 07 00 00 00 00 00 00 
55048.043200 1 1083x Rx d 7 01 40 00 02 00 7D 00 
55048.043500 1 10C3x Rx d 7 00 10 00 00 00 7D 00 
55048.043800 1 1103x Rx d 7 01 30 00 02 00 7D 00 
55048.044000 1 1142x Rx d 7 03 40 00 04 00 7D 00 
55048.044300 1 1182x Rx d 7 00 10 00 00 00 7D 00 
55048.044600 1 11C2x Rx d 7 02 40 00 03 00 7D 00 
55048.044900 1 1403x Rx d 7 01 90 00 06 00 7D 00 
55048.045100 1 1442x Rx d 7 01 90 00 06 00 7D 00 
55048.049200 1 703 Rx d 8 2C 5A B0 08 2D 2D 00 40 
55048.049500 1 702 Rx d 8 22 00 00 00 00 00 00 B0 
55048.049700 1 704 Rx d 7 95 82 D8 98 83 22 22 
55048.049900 1 705 Rx d 8 88 A3 38 88 03 7D 00 00 
55048.050200 1 706 Rx d 8 1A C0 01 1A 00 7D 00 00 
55048.059200 1 702 Rx d 8 22 00 00 00 00 00 00 B0 
55048.059500 1 703 Rx d 8 2C 5A B4 10 00 00 7D 00 
55048.059700 1 704 Rx d 7 95 82 D9 98 82 22 22 
55048.059900 1 705 Rx d 8 88 A3 38 88 03 7D 00 00 
55048.060200 1 706 Rx d 8 1A C0 01 1A 00 7D 00 00 
55048.069200 1 702 Rx d 8 22 00 00 00 00 00 00 B0 
55048.069500 1 703 Rx d 8 2D 5A B4 18 00 00 72 79 
55048.069700 1 704 Rx d 7 95 82 D8 98 82 22 22 
55048.069900 1 705 Rx d 8 86 A3 38 88 03 7D 00 00 
55048.070200 1 706 Rx d 8 1A C0 01 1A 00 7D 00 00 
55048.079200 1 702 Rx d 8 22 00 00 00 00 00 00 B0 
55048.079500 1 703 Rx d 8 2D 5A B4 20 36 33 89 30 
55048.079700 1 704 Rx d 7 95 82 D9 98 82 22 22 
55048.079900 1 705 Rx d 8 88 A3 38 88 03 7D 00 00 
55048.080100 1 706 Rx d 8 1A C0 01 1A 00 7D 00 00 
55048.089200 1 702 Rx d 8 22 00 00 00 00 00 00 B0 
55048.089500 1 703 Rx d 8 2D 5C B8 28 A5 71 5D 05 
55048.089700 1 704 Rx d 7 95 82 D8 98 82 22 22 
55048.089900 1 705 Rx d 8 88 A3 38 88 03 7D 00 00 
55048.090200 1 706 Rx d 8 1A C0 01 1A 00 7D 00 00 
55048.099300 1 702 Rx d 8 22 00 00 00 00 00 00 B0 
55048.099500 1 703 Rx d 8 2E 5C B8 30 D0 07 E5 DF 
55048.099700 1 704 Rx d 7 95 82 D9 98 82 22 22 
55048.099900 1 705 Rx d 8 88 A3 38 88 03 7D 00 00 
55048.100200 1 706 Rx d 8 1A C0 01 1A 00 7D 00 00 
55048.109200 1 702 Rx d 8 22 00 00 00 00 00 00 B0 
55048.109500 1 703 Rx d 8 2E 5C B8 38 DA 07 13 38 
55048.109700 1 704 Rx d 7 95 82 D9 98 83 22 22 
55048.109900 1 705 Rx d 8 88 A3 38 88 03 7D 00 00 
55048.110200 1 706 Rx d 8 1A C0 01 1A 00 7D 00 00 
55048.119200 1 702 Rx d 8 22 00 00 00 00 00 00 B0 
55048.119500 1 703 Rx d 8 2E 5E BC 00 2D 2C 2D 2D 
55048.119700 1 704 Rx d 7 95 82 D9 98 82 22 22 
55048.119900 1 705 Rx d 8 86 A3 38 88 03 7D 00 00 
55048.120200 1 706 Rx d 8 1A C0 01 1A 00 7D 00 00 
55048.129300 1 702 Rx d 8 22 00 00 00 00 00 00 B0 
55048.129500 1 703 Rx d 8 2F 5E BC 08 2D 2D 00 40 
55048.129700 1 704 Rx d 7 95 82 D8 98 83 22 22 
55048.129900 1 705 Rx d 8 86 A3 38 88 03 7D 00 00 
55048.130200 1 706 Rx d 8 1A C0 01 1A 00 7D 00 00 
55048.139200 1 703 Rx d 8 2F 5E BC 10 00 00 7D 00 
55048.139500 1 702 Rx d 8 62 00 00 00 00 00 00 B0 
55048.139700 1 704 Rx d 7 95 82 D9 98 83 22 22 
55048.139900 1 705 Rx d 8 86 A3 38 88 03 7D 00 00 
55048.140200 1 706 Rx d 8 1A C0 01 1A 00 7D 00 00 
55048.142100 1 1003x Rx d 8 04 12 00 00 64 00 00 00 
55048.142400 1 1002x Rx d 8 04 1A 00 60 64 00 00 00 
55048.142700 1 1042x Rx d 7 08 65 64 64 64 63 64 
55048.142900 1 1043x Rx d 7 08 65 64 63 63 64 64 
55048.143200 1 1083x Rx d 7 01 40 00 03 00 7D 00 
55048.143500 1 10C3x Rx d 7 00 10 00 00 00 7D 00 
55048.143700 1 1103x Rx d 7 01 30 00 02 00 7D 00 
55048.144000 1 1142x Rx d 7 03 50 00 04 00 7D 00 
55048.144300 1 1182x Rx d 7 00 10 00 00 00 7D 00 
55048.144600 1 11C2x Rx d 7 02 40 00 03 00 7D 00 
55048.144800 1 1403x Rx d 7 02 A0 00 06 00 7D 00 
55048.145100 1 1442x Rx d 7 02 A0 00 06 00 7D 00 
55048.149200 1 702 Rx d 8 62 00 00 00 00 00 00 B0 
55048.149500 1 703 Rx d 8 2F 60 BC 18 00 00 72 79 
55048.149700 1 704 Rx d 7 95 82 D9 98 82 22 22 
55048.149900 1 705 Rx d 8 88 A3 38 88 03 7D 00 00 
55048.150200 1 706 Rx d 8 1A C0 01 1A 00 7D 00 00 
55048.159300 1 702 Rx d 8 62 00 00 00 00 00 00 B0 
55048.159500 1 703 Rx d 8 2F 60 C0 20 36 33 89 30 
55048.159700 1 704 Rx d 7 95 82 D8 98 82 22 22 
55048.159900 1 705 Rx d 8 88 A3 38 88 03 7D 00 00 
55048.160100 1 706 Rx d 8 1A C0 01 1A 00 7D 00 00 
55048.169300 1 702 Rx d 8 62 00 00 00 00 00 00 B0 
55048.169500 1 703 Rx d 8 30 60 C0 28 A5 71 5D 05 
55048.169700 1 704 Rx d 7 95 82 D9 98 82 22 22 
55048.170000 1 705 Rx d 8 86 A3 38 88 03 7D 00 00 
55048.170200 1 706 Rx d 8 1A C0 01 1A 00 7D 00 00 
55048.179300 1 702 Rx d 8 62 00 00 00 00 00 00 B0 
55048.179500 1 703 Rx d 8 30 60 C0 30 D0 07 E5 DF 
55048.179700 1 704 Rx d 7 95 82 D8 98 83 22 22 
55048.179900 1 705 Rx d 8 88 A3 38 88 03 7D 00 00 
55048.180200 1 706 Rx d 8 1A C0 01 1A 00 7D 00 00 
55048.189200 1 703 Rx d 8 30 62 C4 38 DA 07 13 38 
55048.189500 1 702 Rx d 8 62 00 00 00 00 00 00 B0 
55048.189700 1 704 Rx d 7 95 82 D8 98 82 22 22 
55048.189900 1 705 Rx d 8 88 A3 38 88 03 7D 00 00 
55048.190100 1 706 Rx d 8 1A C0 01 1A 00 7D 00 00 
55048.199200 1 703 Rx d 8 31 62 C4 00 2D 2C 2D 2D 
55048.199500 1 702 Rx d 8 62 00 00 00 00 00 00 B0 
55048.199700 1 704 Rx d 7 95 82 D8 98 83 22 22 
55048.199900 1 705 Rx d 8 88 A3 38 88 03 7D 00 00 
55048.200200 1 706 Rx d 8 1A C0 01 1A 00 7D 00 00 
55048.209300 1 702 Rx d 8 62 00 00 00 00 00 00 B0 
55048.209500 1 703 Rx d 8 31 62 C4 08 2D 2D 00 40 
55048.209700 1 704 Rx d 7 95 82 D8 98 83 22 22 
55048.209900 1 705 Rx d 8 88 A3 38 88 03 7D 00 00 
55048.210200 1 706 Rx d 8 1A C0 01 1A 00 7D 00 00 
55048.219200 1 703 Rx d 8 31 64 C4 10 00 00 7D 00 
55048.219500 1 702 Rx d 8 62 00 00 00 00 00 00 B0 
55048.219700 1 704 Rx d 7 95 82 D8 98 82 22 22 
55048.219900 1 705 Rx d 8 86 A3 38 88 03 7D 00 00 
55048.220200 1 706 Rx d 8 1A C0 01 1A 00 7D 00 00 
55048.229200 1 702 Rx d 8 62 00 00 00 00 00 00 B0 
55048.229500 1 703 Rx d 8 31 64 C8 18 00 00 72 79 
55048.229700 1 704 Rx d 7 95 82 D9 98 83 22 22 
55048.229900 1 705 Rx d 8 86 A3 38 88 03 7D 00 00 
55048.230200 1 706 Rx d 8 1A C0 01 1A 00 7D 00 00 
55048.239300 1 702 Rx d 8 62 00 00 00 00 00 00 B0 
55048.239500 1 703 Rx d 8 32 64 C8 20 36 33 89 30 
55048.239700 1 704 Rx d 7 95 82 D8 98 82 22 22 
55048.239900 1 705 Rx d 8 88 A3 38 88 03 7D 00 00 
55048.240100 1 706 Rx d 8 1A C0 01 1A 00 7D 00 00 
55048.242100 1 1043x Rx d 7 09 65 64 00 00 00 00 
55048.242400 1 1002x Rx d 8 0F 3E 00 80 5F 00 00 00 
55048.242700 1 1003x Rx d 8 0F 3E 00 20 5F 00 00 00 
55048.242900 1 1042x Rx d 7 09 64 64 00 00 00 00 
55048.243200 1 1083x Rx d 7 01 40 00 03 00 7D 00 
55048.243500 1 10C3x Rx d 7 00 10 00 00 00 7D 00 
55048.243700 1 1103x Rx d 7 01 30 00 02 00 7D 00 
55048.244000 1 1142x Rx d 7 03 50 00 04 00 7D 00 
55048.244300 1 1182x Rx d 7 00 10 00 00 00 7D 00 
55048.244600 1 11C2x Rx d 7 02 40 00 03 00 7D 00 
55048.244800 1 1403x Rx d 7 01 90 00 05 00 7D 00 
55048.245100 1 1442x Rx d 7 01 A0 00 05 00 7D 00 
55048.249300 1 702 Rx d 8 62 00 00 00 00 00 00 B0 
55048.249500 1 703 Rx d 8 32 64 C8 28 A5 71 5D 05 
55048.249700 1 704 Rx d 7 95 82 D9 98 83 22 22 
55048.250000 1 705 Rx d 8 86 A3 38 88 03 7D 00 00 
55048.250200 1 706 Rx d 8 1A C0 01 1A 00 7D 00 00 
55048.259300 1 702 Rx d 8 62 00 00 00 00 00 00 B0 
55048.259500 1 703 Rx d 8 32 66 CC 30 D0 07 E5 DF 
55048.259700 1 704 Rx d 7 95 82 D9 98 82 22 22 
55048.259900 1 705 Rx d 8 86 A3 38 88 03 7D 00 00 
55048.260200 1 706 Rx d 8 1A C0 01 1A 00 7D 00 00 
55048.269200 1 703 Rx d 8 33 66 CC 38 DA 07 13 38 
55048.269500 1 702 Rx d 8 62 00 00 00 00 00 00 B0 
55048.269700 1 704 Rx d 7 95 82 D8 98 82 22 22 
55048.269900 1 705 Rx d 8 88 A3 38 88 03 7D 00 00 
55048.270100 1 706 Rx d 8 1A C0 01 1A 00 7D 00 00 
55048.279200 1 703 Rx d 8 33 66 CC 00 2D 2C 2D 2D 
55048.279500 1 702 Rx d 8 62 00 00 00 00 00 00 B0 
55048.279700 1 704 Rx d 7 95 82 D8 98 82 22 22 
55048.279900 1 705 Rx d 8 86 A3 38 88 03 7D 00 00 
55048.280200 1 706 Rx d 8 1A C0 01 1A 00 7D 00 00 
55048.289300 1 702 Rx d 8 62 00 00 00 00 00 00 B0 
55048.289500 1 703 Rx d 8 33 68 CC 08 2D 2D 00 40 
55048.289700 1 704 Rx d 7 95 82 D8 98 83 22 22 
55048.289900 1 705 Rx d 8 88 A3 38 88 03 7D 00 00 
55048.290200 1 706 Rx d 8 1A C0 01 1A 00 7D 00 00 
55048.299300 1 702 Rx d 8 62 00 00 00 00 00 00 B0 
55048.299500 1 703 Rx d 8 33 68 D0 10 00 00 7D 00 
55048.299700 1 704 Rx d 7 95 82 D8 98 82 22 22 
55048.300000 1 705 Rx d 8 86 A3 38 88 03 7D 00 00 
55048.300200 1 706 Rx d 8 1A C0 01 1A 00 7D 00 00 
55048.309200 1 703 Rx d 8 34 68 D0 18 00 00 72 79 
55048.309500 1 702 Rx d 8 62 00 00 00 00 00 00 B0 
55048.309700 1 704 Rx d 7 95 82 D9 98 83 22 22 
55048.309900 1 705 Rx d 8 86 A3 38 88 03 7D 00 00 
55048.310200 1 706 Rx d 8 1A C0 01 1A 00 7D 00 00 
55048.319200 1 703 Rx d 8 34 68 D0 20 36 33 89 30 
55048.319500 1 702 Rx d 8 62 00 00 00 00 00 00 B0 
55048.319700 1 704 Rx d 7 95 82 D8 98 83 22 22 
55048.319900 1 705 Rx d 8 86 A3 38 88 03 7D 00 00 
55048.320100 1 706 Rx d 8 1A C0 01 1A 00 7D 00 00 
55048.329200 1 702 Rx d 8 62 00 00 00 00 00 00 B0 
55048.329500 1 703 Rx d 8 34 6A D0 28 A5 71 5D 05 
55048.329700 1 704 Rx d 7 95 82 D8 98 83 22 22 
55048.329900 1 705 Rx d 8 88 A3 38 88 03 7D 00 00 
55048.330200 1 706 Rx d 8 1A C0 01 1A 00 7D 00 00 
55048.339300 1 702 Rx d 8 62 00 00 00 00 00 00 B0 
55048.339500 1 703 Rx d 8 34 6A D4 30 D0 07 E5 DF 
55048.339700 1 704 Rx d 7 95 82 D9 98 82 22 22 
55048.339900 1 705 Rx d 8 88 A3 38 88 03 7D 00 00 
55048.340200 1 706 Rx d 8 1A C0 01 1A 00 7D 00 00 
55048.342100 1 1003x Rx d 8 0F 3E 00 40 6F 00 00 00 
55048.342400 1 1002x Rx d 8 0F 3E 00 A0 6F 00 00 00 
55048.342700 1 1042x Rx d 7 00 59 A4 A5 83 00 00 
55048.342900 1 1043x Rx d 7 00 59 A4 A5 83 00 00 
55048.343200 1 1083x Rx d 7 01 40 00 03 00 7D 00 
55048.343500 1 10C3x Rx d 7 00 10 00 00 00 7D 00 
55048.343700 1 1103x Rx d 7 01 40 00 02 00 7D 00 
55048.344000 1 1142x Rx d 7 03 50 00 04 00 7D 00 
55048.344300 1 1182x Rx d 7 00 10 00 00 00 7D 00 
55048.344600 1 11C2x Rx d 7 02 40 00 03 00 7D 00 
55048.344900 1 1403x Rx d 7 00 80 00 05 00 7D 00 
55048.345100 1 1442x Rx d 7 00 80 00 05 00 7D 00 
55048.349200 1 702 Rx d 8 62 00 00 00 00 00 00 B0 
55048.349500 1 703 Rx d 8 35 6A D4 38 DA 07 13 38 
55048.349700 1 704 Rx d 7 95 82 D9 98 82 22 22 
55048.349900 1 705 Rx d 8 86 A3 38 88 03 7D 00 00 
55048.350200 1 706 Rx d 8 1A C0 01 1A 00 7D 00 00 
55048.359300 1 702 Rx d 8 62 00 00 00 00 00 00 B0 
55048.359500 1 703 Rx d 8 35 6A D4 00 2D 2C 2D 2D 
55048.359700 1 704 Rx d 7 95 82 D8 98 82 22 22 
55048.360000 1 705 Rx d 8 88 A3 38 88 03 7D 00 00 
55048.360200 1 706 Rx d 8 1A C0 01 1A 00 7D 00 00 
55048.369300 1 702 Rx d 8 62 00 00 00 00 00 00 B0 
55048.369500 1 703 Rx d 8 35 6C D4 08 2D 2D 00 40 
55048.369700 1 704 Rx d 7 95 82 D8 98 83 22 22 
55048.369900 1 705 Rx d 8 88 A3 38 88 03 7D 00 00 
55048.370200 1 706 Rx d 8 1A C0 01 1A 00 7D 00 00 
55048.379300 1 702 Rx d 8 62 00 00 00 00 00 00 B0 
55048.379500 1 703 Rx d 8 35 6C D8 10 00 00 7D 00 
55048.379700 1 704 Rx d 7 95 82 D9 98 82 22 22 
55048.380000 1 705 Rx d 8 86 A3 38 88 03 7D 00 00 
55048.380200 1 706 Rx d 8 1A C0 01 1A 00 7D 00 00 
55048.389200 1 703 Rx d 8 36 6C D8 18 00 00 72 79 
55048.389500 1 702 Rx d 8 62 00 00 00 00 00 00 B0 
55048.389700 1 704 Rx d 7 95 82 D8 98 82 22 22 
55048.389900 1 705 Rx d 8 88 A3 38 88 03 7D 00 00 
55048.390200 1 706 Rx d 8 1A C0 01 1A 00 7D 00 00 
55048.399200 1 703 Rx d 8 36 6C D8 20 36 33 89 30 
55048.399500 1 702 Rx d 8 62 00 00 00 00 00 00 B0 
55048.399700 1 704 Rx d 7 95 82 D9 98 82 22 22 
55048.399900 1 705 Rx d 8 88 A3 38 88 03 7D 00 00 
55048.400100 1 706 Rx d 8 1A C0 01 1A 00 7D 00 00 
55048.409200 1 702 Rx d 8 62 00 00 00 00 00 00 B0 
55048.409500 1 703 Rx d 8 36 6E D8 28 A5 71 5D 05 
55048.409700 1 704 Rx d 7 95 82 D8 98 83 22 22 
55048.409900 1 705 Rx d 8 88 A3 38 88 03 7D 00 00 
55048.410200 1 706 Rx d 8 1A C0 01 1A 00 7D 00 00 
55048.419300 1 702 Rx d 8 62 00 00 00 00 00 00 B0 
55048.419500 1 703 Rx d 8 36 6E DC 30 D0 07 E5 DF 
55048.419700 1 704 Rx d 7 95 82 D9 98 83 22 22 
55048.419900 1 705 Rx d 8 88 A3 38 88 03 7D 00 00 
55048.420200 1 706 Rx d 8 1A C0 01 1A 00 7D 00 00 
55048.429200 1 702 Rx d 8 62 00 00 00 00 00 00 B0 
55048.429500 1 703 Rx d 8 37 6E DC 38 DA 07 13 38 
55048.429700 1 704 Rx d 7 95 82 D9 98 83 22 22 
55048.429900 1 705 Rx d 8 86 A3 38 88 03 7D 00 00 
55048.430200 1 706 Rx d 8 1A C0 01 1A 00 7D 00 00 
55048.439300 1 702 Rx d 8 62 00 00 00 00 00 00 B0 
55048.439500 1 703 Rx d 8 37 6E DC 00 2D 2C 2D 2D 
55048.439700 1 704 Rx d 7 95 82 D8 98 82 22 22 
55048.440000 1 705 Rx d 8 86 A3 38 88 03 7D 00 00 
55048.440200 1 706 Rx d 8 1A C0 01 1A 00 7D 00 00 
55048.442100 1 1003x Rx d 8 0F 3E 00 00 6F 00 00 00 
55048.442400 1 1002x Rx d 8 0F 3E 00 60 6F 00 00 00 
55048.442600 1 1042x Rx d 7 01 29 29 2A 2A 2A 2A 
55048.442900 1 1043x Rx d 7 01 2C 2C 2B 2B 28 28 
55048.443200 1 1083x Rx d 7 01 40 00 03 00 7D 00 
55048.443500 1 10C3x Rx d 7 00 10 00 00 00 7D 00 
55048.443800 1 1103x Rx d 7 01 40 00 02 00 7D 00 
55048.444000 1 1142x Rx d 7 03 40 00 04 00 7D 00 
55048.444300 1 1182x Rx d 7 00 10 00 00 00 7D 00 
55048.444600 1 11C2x Rx d 7 01 40 00 02 00 7D 00 
55048.444800 1 1403x Rx d 7 00 80 00 05 00 7D 00 
55048.445100 1 1442x Rx d 7 00 80 00 05 00 7D 00 
55048.449200 1 703 Rx d 8 37 70 DC 08 2D 2D 00 40 
55048.449500 1 702 Rx d 8 62 00 00 00 00 00 00 B0 
55048.449700 1 704 Rx d 7 95 82 D8 98 83 22 22 
55048.449900 1 705 Rx d 8 88 A3 38 88 03 7D 00 00 
55048.450200 1 706 Rx d 8 1A C0 01 1A 00 7D 00 00 
55048.459300 1 702 Rx d 8 62 00 00 00 00 00 00 B0 
55048.459500 1 703 Rx d 8 37 70 E0 10 00 00 7D 00 
55048.459700 1 704 Rx d 7 95 82 D8 98 83 22 22 
55048.460000 1 705 Rx d 8 88 A3 38 88 03 7D 00 00 
55048.460200 1 706 Rx d 8 1A C0 01 1A 00 7D 00 00 
55048.469200 1 703 Rx d 8 38 70 E0 18 00 00 72 79 
55048.469500 1 702 Rx d 8 62 00 00 00 00 00 00 B0 
55048.469700 1 704 Rx d 7 95 82 D8 98 83 22 22 
55048.469900 1 705 Rx d 8 88 A3 38 88 03 7D 00 00 
55048.470200 1 706 Rx d 8 1A C0 01 1A 00 7D 00 00 
55048.479200 1 703 Rx d 8 38 70 E0 20 36 33 89 30 
55048.479500 1 702 Rx d 8 62 00 00 00 00 00 00 B0 
55048.479700 1 704 Rx d 7 95 82 D8 98 83 22 22 
55048.479900 1 705 Rx d 8 86 A3 38 88 03 7D 00 00 
55048.480100 1 706 Rx d 8 1A C0 01 1A 00 7D 00 00 
55048.489200 1 702 Rx d 8 62 00 00 00 00 00 00 B0 
55048.489500 1 703 Rx d 8 38 70 E0 28 A5 71 5D 05 
55048.489700 1 704 Rx d 7 95 82 D9 98 82 22 22 
55048.489900 1 705 Rx d 8 88 A3 38 88 03 7D 00 00 
55048.490200 1 706 Rx d 8 1A C0 01 1A 00 7D 00 00 
55048.499300 1 702 Rx d 8 62 00 00 00 00 00 00 B0 
55048.499500 1 703 Rx d 8 38 72 E4 30 D0 07 E5 DF 
55048.499700 1 704 Rx d 7 95 82 D9 98 83 22 22 
55048.499900 1 705 Rx d 8 88 A3 38 88 03 7D 00 00 
55048.500200 1 706 Rx d 8 1A C0 01 1A 00 7D 00 00 
55048.509200 1 702 Rx d 8 62 00 00 00 00 00 00 B0 
55048.509500 1 703 Rx d 8 39 72 E4 38 DA 07 13 38 
55048.509700 1 704 Rx d 7 95 82 D9 98 82 22 22 
55048.509900 1 705 Rx d 8 88 A3 38 88 03 7D 00 00 
55048.510200 1 706 Rx d 8 1A C0 01 1A 00 7D 00 00 
55048.519300 1 702 Rx d 8 62 00 00 00 00 00 00 B0 
55048.519500 1 703 Rx d 8 39 72 E4 00 2D 2C 2D 2D 
55048.519700 1 704 Rx d 7 95 82 D9 98 83 22 22 
55048.520000 1 705 Rx d 8 88 A3 38 88 03 7D 00 00 
55048.520200 1 706 Rx d 8 1A C0 01 1A 00 7D 00 00 
55048.529200 1 703 Rx d 8 39 72 E4 08 2D 2D 00 40 
55048.529500 1 702 Rx d 8 62 00 00 00 00 00 00 B0 
55048.529700 1 704 Rx d 7 95 82 D9 98 83 22 22 
55048.529900 1 705 Rx d 8 88 A3 38 88 03 7D 00 00 
55048.530200 1 706 Rx d 8 1A C0 01 1A 00 7D 00 00 
55048.539200 1 702 Rx d 8 62 00 00 00 00 00 00 B0 
55048.539500 1 703 Rx d 8 39 74 E4 10 00 00 7D 00 
55048.539700 1 704 Rx d 7 95 82 D9 98 82 22 22 
55048.539900 1 705 Rx d 8 86 A3 38 88 03 7D 00 00 
55048.540200 1 706 Rx d 8 1A C0 01 1A 00 7D 00 00 
55048.542100 1 1003x Rx d 8 0F 3E 00 20 5F 00 00 00 
55048.542400 1 1002x Rx d 8 0F 3E 00 80 5F 00 00 00 
55048.542700 1 1042x Rx d 7 02 28 28 26 26 2B 2B 
55048.542900 1 1043x Rx d 7 02 25 25 26 26 2A 2A 
55048.543200 1 1083x Rx d 7 01 40 00 02 00 7D 00 
55048.543500 1 10C3x Rx d 7 00 10 00 00 00 7D 00 
55048.543700 1 1103x Rx d 7 01 40 00 03 00 7D 00 
55048.544000 1 1142x Rx d 7 03 40 00 04 00 7D 00 
55048.544300 1 1182x Rx d 7 00 10 00 00 00 7D 00 
55048.544500 1 11C2x Rx d 7 01 30 00 02 00 7D 00 
55048.544800 1 1403x Rx d 7 00 80 00 05 00 7D 00 
55048.545100 1 1442x Rx d 7 00 80 00 05 00 7D 00 
55048.549300 1 702 Rx d 8 62 00 00 00 00 00 00 B0 
55048.549500 1 703 Rx d 8 39 74 E8 18 00 00 72 79 
55048.549700 1 704 Rx d 7 95 82 D9 98 83 22 22 
55048.550000 1 705 Rx d 8 88 A3 38 88 03 7D 00 00 
55048.550200 1 706 Rx d 8 1A C0 01 1A 00 7D 00 00 
55048.559200 1 703 Rx d 8 3A 74 E8 20 36 33 89 30 
55048.559500 1 702 Rx d 8 62 00 00 00 00 00 00 B0 
55048.559700 1 704 Rx d 7 95 82 D9 98 83 22 22 
55048.559900 1 705 Rx d 8 86 A3 38 88 03 7D 00 00 
55048.560100 1 706 Rx d 8 1A C0 01 1A 00 7D 00 00 
55048.569200 1 703 Rx d 8 3A 74 E8 28 A5 71 5D 05 
55048.569500 1 702 Rx d 8 62 00 00 00 00 00 00 B0 
55048.569700 1 704 Rx d 7 95 82 D8 98 83 22 22 
55048.569900 1 705 Rx d 8 88 A3 38 88 03 7D 00 00 
55048.570200 1 706 Rx d 8 1A C0 01 1A 00 7D 00 00 
55048.579300 1 702 Rx d 8 62 00 00 00 00 00 00 B0 
55048.579500 1 703 Rx d 8 3A 76 E8 30 D0 07 E5 DF 
55048.579700 1 704 Rx d 7 95 82 D8 98 82 22 22 
55048.579900 1 705 Rx d 8 88 A3 38 88 03 7D 00 00 
55048.580200 1 706 Rx d 8 1A C0 01 1A 00 7D 00 00 
55048.589300 1 702 Rx d 8 62 00 00 00 00 00 00 B0 
55048.589500 1 703 Rx d 8 3A 76 EC 38 DA 07 13 38 
55048.589700 1 704 Rx d 7 95 82 D9 98 83 22 22 
55048.589900 1 705 Rx d 8 86 A3 38 88 03 7D 00 00 
55048.590200 1 706 Rx d 8 1A C0 01 1A 00 7D 00 00 
55048.599300 1 702 Rx d 8 62 00 00 00 00 00 00 B0 
55048.599500 1 703 Rx d 8 3B 76 EC 00 2D 2C 2D 2D 
55048.599700 1 704 Rx d 7 95 82 D9 98 82 22 22 
55048.600000 1 705 Rx d 8 88 A3 38 88 03 7D 00 00 
55048.600200 1 706 Rx d 8 1A C0 01 1A 00 7D 00 00 
55048.609300 1 702 Rx d 8 62 00 00 00 00 00 00 B0 
55048.609500 1 703 Rx d 8 3B 76 EC 08 2D 2D 00 40 
55048.609700 1 704 Rx d 7 95 82 D9 98 82 22 22 
55048.609900 1 705 Rx d 8 88 A3 38 88 03 7D 00 00 
55048.610200 1 706 Rx d 8 1A C0 01 1A 00 7D 00 00 
55048.619300 1 702 Rx d 8 62 00 00 00 00 00 00 B0 
55048.619500 1 703 Rx d 8 3B 76 EC 10 00 00 7D 00 
55048.619700 1 704 Rx d 7 95 82 D9 98 82 22 22 
55048.620000 1 705 Rx d 8 88 A3 38 88 03 7D 00 00 
55048.620200 1 706 Rx d 8 1A C0 01 1A 00 7D 00 00 
55048.629200 1 703 Rx d 8 3B 78 EC 18 00 00 72 79 
55048.629500 1 702 Rx d 8 62 00 00 00 00 00 00 B0 
55048.629700 1 704 Rx d 7 95 82 D9 98 82 22 22 
55048.629900 1 705 Rx d 8 88 A3 38 88 03 7D 00 00 
55048.630200 1 706 Rx d 8 1A C0 01 1A 00 7D 00 00 
55048.639200 1 703 Rx d 8 3B 78 F0 20 36 33 89 30 
55048.639500 1 702 Rx d 8 62 00 00 00 00 00 00 B0 
55048.639700 1 704 Rx d 7 95 82 D8 98 82 22 22 
55048.639900 1 705 Rx d 8 88 A3 38 88 03 7D 00 00 
55048.640200 1 706 Rx d 8 1A C0 01 1A 00 7D 00 00 
55048.642100 1 1003x Rx d 8 0F 3E 00 40 6F 00 00 00 
55048.642400 1 1002x Rx d 8 0F 3E 00 A0 6F 00 00 00 
55048.642700 1 1042x Rx d 7 03 28 28 26 26 2F 00 
55048.642900 1 1043x Rx d 7 03 2A 2A 28 28 2F 00 
55048.643200 1 1083x Rx d 7 01 40 00 02 00 7D 00 
55048.643500 1 10C3x Rx d 7 00 10 00 00 00 7D 00 
55048.643700 1 1103x Rx d 7 01 40 00 03 00 7D 00 
55048.644000 1 1142x Rx d 7 03 40 00 04 00 7D 00 
55048.644300 1 1182x Rx d 7 00 10 00 00 00 7D 00 
55048.644500 1 11C2x Rx d 7 01 30 00 02 00 7D 00 
55048.644800 1 1403x Rx d 7 00 80 00 05 00 7D 00 
55048.645100 1 1442x Rx d 7 00 80 00 05 00 7D 00 
55048.649200 1 702 Rx d 8 62 00 00 00 00 00 00 B0 
55048.649500 1 703 Rx d 8 3C 78 F0 28 A5 71 5D 05 
55048.649700 1 704 Rx d 7 95 82 D8 98 83 22 22 
55048.649900 1 705 Rx d 8 86 A3 38 88 03 7D 00 00 
55048.650200 1 706 Rx d 8 1A C0 01 1A 00 7D 00 00 
55048.659300 1 702 Rx d 8 62 00 00 00 00 00 00 B0 
55048.659500 1 703 Rx d 8 3C 78 F0 30 D0 07 E5 DF 
55048.659700 1 704 Rx d 7 95 82 D9 98 82 22 22 
55048.659900 1 705 Rx d 8 86 A3 38 88 03 7D 00 00 
55048.660200 1 706 Rx d 8 1A C0 01 1A 00 7D 00 00 
55048.669300 1 702 Rx d 8 62 00 00 00 00 00 00 B0 
55048.669500 1 703 Rx d 8 3C 78 F0 38 DA 07 13 38 
55048.669700 1 704 Rx d 7 95 82 D9 98 83 22 22 
55048.670000 1 705 Rx d 8 88 A3 38 88 03 7D 00 00 
55048.670200 1 706 Rx d 8 1A C0 01 1A 00 7D 00 00 
55048.679300 1 702 Rx d 8 62 00 00 00 00 00 00 B0 
55048.679500 1 703 Rx d 8 3C 7A F0 00 2D 2C 2D 2D 
55048.679700 1 704 Rx d 7 95 82 D9 98 83 22 22 
55048.680000 1 705 Rx d 8 88 A3 38 88 03 7D 00 00 
55048.680200 1 706 Rx d 8 1A C0 01 1A 00 7D 00 00 
55048.689300 1 703 Rx d 8 3C 7A F4 08 2D 2D 00 40 
55048.689500 1 702 Rx d 8 62 00 00 00 00 00 00 B0 
55048.689700 1 704 Rx d 7 95 82 D9 98 82 22 22 
55048.689900 1 705 Rx d 8 88 A3 38 88 03 7D 00 00 
55048.690200 1 706 Rx d 8 1A C0 01 1A 00 7D 00 00 
55048.699200 1 702 Rx d 8 62 00 00 00 00 00 00 B0 
55048.699500 1 703 Rx d 8 3D 7A F4 10 00 00 7D 00 
55048.699700 1 704 Rx d 7 95 82 D9 98 82 22 22 
55048.700000 1 705 Rx d 8 88 A3 38 88 03 7D 00 00 
55048.700200 1 706 Rx d 8 1A C0 01 1A 00 7D 00 00 
55048.709300 1 702 Rx d 8 62 00 00 00 00 00 00 B0 
55048.709500 1 703 Rx d 8 3D 7A F4 18 00 00 72 79 
55048.709700 1 704 Rx d 7 95 82 D9 98 83 22 22 
55048.710000 1 705 Rx d 8 88 A3 38 88 03 7D 00 00 
55048.710200 1 706 Rx d 8 1A C0 01 1A 00 7D 00 00 
55048.719300 1 703 Rx d 8 3D 7A F4 20 36 33 89 30 
55048.719500 1 702 Rx d 8 62 00 00 00 00 00 00 B0 
55048.719700 1 704 Rx d 7 95 82 D8 98 82 22 22 
55048.719900 1 705 Rx d 8 88 A3 38 88 03 7D 00 00 
55048.720200 1 706 Rx d 8 1A C0 01 1A 00 7D 00 00 
55048.729200 1 703 Rx d 8 3D 7C F4 28 A5 71 5D 05 
55048.729500 1 702 Rx d 8 62 00 00 00 00 00 00 B0 
55048.729700 1 704 Rx d 7 95 82 D9 98 82 22 22 
55048.729900 1 705 Rx d 8 86 A3 38 88 03 7D 00 00 
55048.730200 1 706 Rx d 8 1A C0 01 1A 00 7D 00 00 
55048.739300 1 702 Rx d 8 62 00 00 00 00 00 00 B0 
55048.739500 1 703 Rx d 8 3D 7C F4 30 D0 07 E5 DF 
55048.739700 1 704 Rx d 7 95 82 D9 98 83 22 22 
55048.739900 1 705 Rx d 8 88 A3 38 88 03 7D 00 00 
55048.740200 1 706 Rx d 8 1A C0 01 1A 00 7D 00 00 
55048.742100 1 1003x Rx d 8 0F 3E 00 00 6F 00 00 00 
55048.742400 1 1002x Rx d 8 0F 3E 00 60 6F 00 00 00 
55048.742600 1 1042x Rx d 7 04 E8 03 5C 76 BE 32 
55048.742900 1 1043x Rx d 7 04 E8 03 86 96 BE 32 
55048.743200 1 1083x Rx d 7 01 40 00 02 00 7D 00 
55048.743400 1 10C3x Rx d 7 00 10 00 00 00 7D 00 
55048.743700 1 1103x Rx d 7 01 40 00 03 00 7D 00 
55048.744000 1 1142x Rx d 7 03 40 00 04 00 7D 00 
55048.744300 1 1182x Rx d 7 00 10 00 00 00 7D 00 
55048.744600 1 11C2x Rx d 7 01 40 00 02 00 7D 00 
55048.744800 1 1403x Rx d 7 00 80 00 05 00 7D 00 
55048.745100 1 1442x Rx d 7 00 80 00 05 00 7D 00 
55048.749200 1 702 Rx d 8 62 00 00 00 00 00 00 B0 
55048.749500 1 703 Rx d 8 3D 7C F8 38 DA 07 13 38 
55048.749700 1 704 Rx d 7 95 82 D9 98 82 22 22 
55048.749900 1 705 Rx d 8 88 A3 38 88 03 7D 00 00 
55048.750200 1 706 Rx d 8 1A C0 01 1A 00 7D 00 00 
55048.759300 1 702 Rx d 8 62 00 00 00 00 00 00 B0 
55048.759500 1 703 Rx d 8 3E 7C F8 00 2D 2C 2D 2D 
55048.759700 1 704 Rx d 7 95 82 D9 98 83 22 22 
55048.760000 1 705 Rx d 8 88 A3 38 88 03 7D 00 00 
55048.760200 1 706 Rx d 8 1A C0 01 1A 00 7D 00 00 
55048.769300 1 703 Rx d 8 3E 7C F8 08 2D 2D 00 40 
55048.769500 1 702 Rx d 8 62 00 00 00 00 00 00 B0 
55048.769700 1 704 Rx d 7 95 82 D8 98 83 22 22 
55048.769900 1 705 Rx d 8 86 A3 38 88 03 7D 00 00 
55048.770200 1 706 Rx d 8 1A C0 01 1A 00 7D 00 00 
55048.779200 1 702 Rx d 8 62 00 00 00 00 00 00 B0 
55048.779500 1 703 Rx d 8 3E 7C F8 10 00 00 7D 00 
55048.779700 1 704 Rx d 7 95 82 D9 98 82 22 22 
55048.780000 1 705 Rx d 8 88 A3 38 88 03 7D 00 00 
55048.780200 1 706 Rx d 8 1A C0 01 1A 00 7D 00 00 
55048.789300 1 702 Rx d 8 62 00 00 00 00 00 00 B0 
55048.789500 1 703 Rx d 8 3E 7C F8 18 00 00 72 79 
55048.789700 1 704 Rx d 7 95 82 D8 98 83 22 22 
55048.790000 1 705 Rx d 8 88 A3 38 88 03 7D 00 00 
55048.790200 1 706 Rx d 8 1A C0 01 1A 00 7D 00 00 
55048.799300 1 703 Rx d 8 3E 7C F8 20 36 33 89 30 
55048.799500 1 702 Rx d 8 62 00 00 00 00 00 00 B0 
55048.799700 1 704 Rx d 7 95 82 D9 98 83 22 22 
55048.799900 1 705 Rx d 8 88 A3 38 88 03 7D 00 00 
55048.800200 1 706 Rx d 8 1A C0 01 1A 00 7D 00 00 
55048.809200 1 703 Rx d 8 3E 7E F8 28 A5 71 5D 05 
55048.809500 1 702 Rx d 8 62 00 00 00 00 00 00 B0 
55048.809700 1 704 Rx d 7 95 82 D9 98 83 22 22 
55048.809900 1 705 Rx d 8 88 A3 38 88 03 7D 00 00 
55048.810200 1 706 Rx d 8 1A C0 01 1A 00 7D 00 00 
55048.819300 1 702 Rx d 8 62 00 00 00 00 00 00 B0 
55048.819500 1 703 Rx d 8 3E 7E FC 30 D0 07 E5 DF 
55048.819700 1 704 Rx d 7 95 82 D9 98 83 22 22 
55048.819900 1 705 Rx d 8 86 A3 38 88 03 7D 00 00 
55048.820200 1 706 Rx d 8 1A C0 01 1A 00 7D 00 00 
55048.829300 1 702 Rx d 8 62 00 00 00 00 00 00 B0 
55048.829500 1 703 Rx d 8 3F 7E FC 38 DA 07 13 38 
55048.829700 1 704 Rx d 7 95 82 D8 98 83 22 22 
55048.829900 1 705 Rx d 8 86 A3 38 88 03 7D 00 00 
55048.830200 1 706 Rx d 8 1A C0 01 1A 00 7D 00 00 
55048.839300 1 702 Rx d 8 62 00 00 00 00 00 00 B0 
55048.839500 1 703 Rx d 8 3F 7E FC 00 2D 2C 2D 2D 
55048.839700 1 704 Rx d 7 95 82 D9 98 82 22 22 
55048.840000 1 705 Rx d 8 86 A3 38 88 03 7D 00 00 
55048.840200 1 706 Rx d 8 1A C0 01 1A 00 7D 00 00 
55048.842100 1 1003x Rx d 8 0F 3E 00 20 5F 00 00 00 
55048.842400 1 1002x Rx d 8 0F 3E 00 80 5F 00 00 00 
55048.842600 1 1042x Rx d 7 05 E9 03 D5 28 85 34 
55048.842900 1 1043x Rx d 7 05 E9 03 D5 28 85 34 
55048.843200 1 1083x Rx d 7 01 40 00 02 00 7D 00 
55048.843500 1 10C3x Rx d 7 00 10 00 00 00 7D 00 
55048.843800 1 1103x Rx d 7 02 40 00 03 00 7D 00 
55048.844000 1 1142x Rx d 7 03 40 00 04 00 7D 00 
55048.844300 1 1182x Rx d 7 00 10 00 00 00 7D 00 
55048.844600 1 11C2x Rx d 7 01 40 00 03 00 7D 00 
55048.844800 1 1403x Rx d 7 00 80 00 05 00 7D 00 
55048.845100 1 1442x Rx d 7 00 80 00 05 00 7D 00 
55048.849300 1 703 Rx d 8 3F 7E FC 08 2D 2D 00 40 
55048.849500 1 702 Rx d 8 62 00 00 00 00 00 00 B0 
55048.849700 1 704 Rx d 7 95 82 D9 98 82 22 22 
55048.849900 1 705 Rx d 8 86 A3 38 88 03 7D 00 00 
55048.850200 1 706 Rx d 8 1A C0 01 1A 00 7D 00 00 
55048.859200 1 702 Rx d 8 62 00 00 00 00 00 00 B0 
55048.859500 1 703 Rx d 8 3F 7E FC 10 00 00 7D 00 
55048.859700 1 704 Rx d 7 95 82 D9 98 83 22 22 
55048.860000 1 705 Rx d 8 86 A3 38 88 03 7D 00 00 
55048.860200 1 706 Rx d 8 1A C0 01 1A 00 7D 00 00 
55048.869300 1 702 Rx d 8 62 00 00 00 00 00 00 B0 
55048.869500 1 703 Rx d 8 3F 7E FC 18 00 00 72 79 
55048.869700 1 704 Rx d 7 95 82 D8 98 82 22 22 
55048.870000 1 705 Rx d 8 86 A3 38 88 03 7D 00 00 
55048.870200 1 706 Rx d 8 1A C0 01 1A 00 7D 00 00 
55048.879300 1 702 Rx d 8 62 00 00 00 00 00 00 B0 
55048.879500 1 703 Rx d 8 3F 80 FC 20 36 33 89 30 
55048.879700 1 704 Rx d 7 95 82 D9 98 83 22 22 
55048.880000 1 705 Rx d 8 88 A3 38 88 03 7D 00 00 
55048.880200 1 706 Rx d 8 1A C0 01 1A 00 7D 00 00 
55048.889200 1 703 Rx d 8 3F 80 FC 28 A5 71 5D 05 
55048.889500 1 702 Rx d 8 62 00 00 00 00 00 00 B0 
55048.889700 1 704 Rx d 7 95 82 D9 98 83 22 22 
55048.889900 1 705 Rx d 8 88 A3 38 88 03 7D 00 00 
55048.890200 1 706 Rx d 8 1A C0 01 1A 00 7D 00 00 
55048.899300 1 703 Rx d 8 3F 80 00 31 D0 07 E5 DF 
55048.899500 1 702 Rx d 8 62 00 00 00 00 00 00 B0 
55048.899700 1 704 Rx d 7 95 82 D9 98 83 22 22 
55048.899900 1 705 Rx d 8 86 A3 38 88 03 7D 00 00 
55048.900200 1 706 Rx d 8 1A C0 01 1A 00 7D 00 00 
55048.909300 1 702 Rx d 8 62 00 00 00 00 00 00 B0 
55048.909500 1 703 Rx d 8 40 80 00 39 DA 07 13 38 
55048.909700 1 704 Rx d 7 95 82 D9 98 83 22 22 
55048.909900 1 705 Rx d 8 86 A3 38 88 03 7D 00 00 
55048.910200 1 706 Rx d 8 1A C0 01 1A 00 7D 00 00 
55048.919300 1 702 Rx d 8 62 00 00 00 00 00 00 B0 
55048.919500 1 703 Rx d 8 40 80 00 01 2D 2C 2D 2D 
55048.919700 1 704 Rx d 7 95 82 D8 98 83 22 22 
55048.920000 1 705 Rx d 8 88 A3 38 88 03 7D 00 00 
55048.920200 1 706 Rx d 8 1A C0 01 1A 00 7D 00 00 
55048.929300 1 703 Rx d 8 40 80 00 09 2D 2D 00 40 
55048.929500 1 702 Rx d 8 62 00 00 00 00 00 00 B0 
55048.929700 1 704 Rx d 7 95 82 D9 98 83 22 22 
55048.929900 1 705 Rx d 8 86 A3 38 88 03 7D 00 00 
55048.930200 1 706 Rx d 8 1A C0 01 1A 00 7D 00 00 
55048.939200 1 702 Rx d 8 62 00 00 00 00 00 00 B0 
55048.939500 1 703 Rx d 8 40 80 00 11 00 00 7D 00 
55048.939700 1 704 Rx d 7 95 82 D9 98 83 22 22 
55048.940000 1 705 Rx d 8 86 A3 38 88 03 7D 00 00 
55048.940200 1 706 Rx d 8 1A C0 01 1A 00 7D 00 00 
55048.942100 1 1043x Rx d 7 06 31 7E FF FF FF FF 
55048.942400 1 1002x Rx d 8 0F 3E 00 A0 6F 00 00 00 
55048.942700 1 1003x Rx d 8 0F 3E 00 40 6F 00 00 00 
55048.942900 1 1042x Rx d 7 06 31 7E C1 64 25 0B 
55048.943200 1 1083x Rx d 7 01 40 00 02 00 7D 00 
55048.943500 1 10C3x Rx d 7 00 10 00 00 00 7D 00 
55048.943700 1 1103x Rx d 7 01 40 00 03 00 7D 00 
55048.944000 1 1142x Rx d 7 03 40 00 04 00 7D 00 
55048.944300 1 1182x Rx d 7 00 10 00 00 00 7D 00 
55048.944600 1 11C2x Rx d 7 01 40 00 03 00 7D 00 
55048.944800 1 1403x Rx d 7 00 80 00 05 00 7D 00 
55048.945100 1 1442x Rx d 7 00 80 00 05 00 7D 00 
55048.949300 1 702 Rx d 8 62 00 00 00 00 00 00 B0 
55048.949500 1 703 Rx d 8 40 80 00 19 00 00 72 79 
55048.949700 1 704 Rx d 7 95 82 D9 98 82 22 22 
55048.950000 1 705 Rx d 8 88 A3 38 88 03 7D 00 00 
55048.950200 1 706 Rx d 8 1A C0 01 1A 00 7D 00 00 
55048.959300 1 702 Rx d 8 62 00 00 00 00 00 00 B0 
55048.959500 1 703 Rx d 8 40 82 00 21 36 33 89 30 
55048.959700 1 704 Rx d 7 95 82 D9 98 82 22 22 
55048.960000 1 705 Rx d 8 86 A3 38 88 03 7D 00 00 
55048.960200 1 706 Rx d 8 1A C0 01 1A 00 7D 00 00 
55048.969200 1 703 Rx d 8 40 82 04 29 A5 71 5D 05 
55048.969500 1 702 Rx d 8 62 00 00 00 00 00 00 B0 
55048.969700 1 704 Rx d 7 95 82 D8 98 82 22 22 
55048.969900 1 705 Rx d 8 88 A3 38 88 03 7D 00 00 
55048.970200 1 706 Rx d 8 1A C0 01 1A 00 7D 00 00 
55048.979300 1 703 Rx d 8 40 82 04 31 D0 07 E5 DF 
55048.979500 1 702 Rx d 8 62 00 00 00 00 00 00 B0 
55048.979700 1 704 Rx d 7 95 82 D8 98 83 22 22 
55048.980000 1 705 Rx d 8 86 A3 38 88 03 7D 00 00 
55048.980200 1 706 Rx d 8 1A C0 01 1A 00 7D 00 00 
55048.989300 1 702 Rx d 8 62 00 00 00 00 00 00 B0 
55048.989500 1 703 Rx d 8 41 82 04 39 DA 07 13 38 
55048.989700 1 704 Rx d 7 95 82 D9 98 82 22 22 
55048.989900 1 705 Rx d 8 88 A3 38 88 03 7D 00 00 
55048.990200 1 706 Rx d 8 1A C0 01 1A 00 7D 00 00 
55048.999300 1 702 Rx d 8 62 00 00 00 00 00 00 B0 
55048.999500 1 703 Rx d 8 41 82 04 01 2D 2C 2D 2D 
55048.999700 1 704 Rx d 7 95 82 D9 98 83 22 22 
55049.000000 1 705 Rx d 8 88 A3 38 88 03 7D 00 00 
55049.000200 1 706 Rx d 8 1A C0 01 1A 00 7D 00 00 
55049.009300 1 702 Rx d 8 62 00 00 00 00 00 00 B0 
55049.009500 1 703 Rx d 8 41 82 04 09 2D 2D 00 40 
55049.009700 1 704 Rx d 7 95 82 D8 98 83 22 22 
55049.010000 1 705 Rx d 8 88 A3 38 88 03 7D 00 00 
55049.010200 1 706 Rx d 8 1A C0 01 1A 00 7D 00 00 
55049.019200 1 702 Rx d 8 62 00 00 00 00 00 00 B0 
55049.019500 1 703 Rx d 8 41 82 04 11 00 00 7D 00 
55049.019700 1 704 Rx d 7 95 82 D8 98 82 22 22 
55049.020000 1 705 Rx d 8 88 A3 38 88 03 7D 00 00 
55049.020200 1 706 Rx d 8 18 C0 01 1A 00 7D 00 00 
55049.029300 1 702 Rx d 8 62 00 00 00 00 00 00 B0 
55049.029600 1 703 Rx d 8 41 82 04 19 00 00 72 79 
55049.029800 1 704 Rx d 7 95 82 D8 98 83 22 22 
55049.030000 1 705 Rx d 8 88 A3 38 88 03 7D 00 00 
55049.030200 1 706 Rx d 8 1A C0 01 1A 00 7D 00 00 
55049.039300 1 702 Rx d 8 62 00 00 00 00 00 00 B0 
55049.039500 1 703 Rx d 8 41 84 04 21 36 33 89 30 
55049.039800 1 704 Rx d 7 95 82 D8 98 82 22 22 
55049.040000 1 705 Rx d 8 86 A3 38 88 03 7D 00 00 
55049.040200 1 706 Rx d 8 1A C0 01 1A 00 7D 00 00 
55049.042100 1 1043x Rx d 7 07 00 00 00 00 00 00 
55049.042400 1 1002x Rx d 8 0F 3E 00 60 6F 00 00 00 
55049.042700 1 1003x Rx d 8 0F 3E 00 00 6F 00 00 00 
55049.043000 1 1042x Rx d 7 07 00 00 00 00 00 00 
55049.043300 1 1083x Rx d 7 01 30 00 02 00 7D 00 
55049.043500 1 10C3x Rx d 7 00 10 00 00 00 7D 00 
55049.043800 1 1103x Rx d 7 01 40 00 03 00 7D 00 
55049.044100 1 1142x Rx d 7 03 40 00 04 00 7D 00 
55049.044300 1 1182x Rx d 7 00 10 00 00 00 7D 00 
55049.044600 1 11C2x Rx d 7 01 40 00 02 00 7D 00 
55049.044900 1 1403x Rx d 7 00 80 00 05 00 7D 00 
55049.045100 1 1442x Rx d 7 00 80 00 05 00 7D 00 
55049.049300 1 703 Rx d 8 41 84 04 29 A5 71 5D 05 
55049.049500 1 702 Rx d 8 62 00 00 00 00 00 00 B0 
55049.049700 1 704 Rx d 7 95 82 D8 98 82 22 22 
55049.050000 1 705 Rx d 8 86 A3 38 88 03 7D 00 00 
55049.050200 1 706 Rx d 8 1A C0 01 1A 00 7D 00 00 
55049.059300 1 703 Rx d 8 41 84 08 31 D0 07 E5 DF 
55049.059500 1 702 Rx d 8 62 00 00 00 00 00 00 B0 
55049.059700 1 704 Rx d 7 95 82 D8 98 82 22 22 
55049.060000 1 705 Rx d 8 86 A3 38 88 03 7D 00 00 
55049.060200 1 706 Rx d 8 1A C0 01 1A 00 7D 00 00 
55049.069300 1 702 Rx d 8 62 00 00 00 00 00 00 B0 
55049.069500 1 703 Rx d 8 42 84 08 39 DA 07 13 38 
55049.069800 1 704 Rx d 7 95 82 D9 98 83 22 22 
55049.070000 1 705 Rx d 8 88 A3 38 88 03 7D 00 00 
55049.070200 1 706 Rx d 8 1A C0 01 1A 00 7D 00 00 
55049.079300 1 702 Rx d 8 62 00 00 00 00 00 00 B0 
55049.079500 1 703 Rx d 8 42 84 08 01 2D 2C 2D 2D 
55049.079700 1 704 Rx d 7 95 82 D9 98 82 22 22 
55049.080000 1 705 Rx d 8 86 A3 38 88 03 7D 00 00 
55049.080200 1 706 Rx d 8 1A C0 01 1A 00 7D 00 00 
55049.089300 1 702 Rx d 8 62 00 00 00 00 00 00 B0 
55049.089500 1 703 Rx d 8 42 84 08 09 2D 2D 00 40 
55049.089800 1 704 Rx d 7 95 82 D9 98 83 22 22 
55049.090000 1 705 Rx d 8 86 A3 38 88 03 7D 00 00 
55049.090200 1 706 Rx d 8 1A C0 01 1A 00 7D 00 00 
55049.099300 1 703 Rx d 8 42 84 08 11 00 00 7D 00 
55049.099500 1 702 Rx d 8 62 00 00 00 00 00 00 B0 
55049.099700 1 704 Rx d 7 95 82 D9 98 83 22 22 
55049.100000 1 705 Rx d 8 88 A3 38 88 03 7D 00 00 
55049.100200 1 706 Rx d 8 1A C0 01 1A 00 7D 00 00 
55049.109300 1 702 Rx d 8 62 00 00 00 00 00 00 B0 
55049.109500 1 703 Rx d 8 42 84 08 19 00 00 72 79 
55049.109700 1 704 Rx d 7 95 82 D8 98 82 22 22 
55049.110000 1 705 Rx d 8 88 A3 38 88 03 7D 00 00 
55049.110200 1 706 Rx d 8 1A C0 01 1A 00 7D 00 00 
55049.119300 1 702 Rx d 8 62 00 00 00 00 00 00 B0 
55049.119500 1 703 Rx d 8 42 84 08 21 36 33 89 30 
55049.119800 1 704 Rx d 7 95 82 D8 98 83 22 22 
55049.120000 1 705 Rx d 8 88 A3 38 88 03 7D 00 00 
55049.120200 1 706 Rx d 8 1A C0 01 1A 00 7D 00 00 
55049.129300 1 702 Rx d 8 62 00 00 00 00 00 00 B0 
55049.129500 1 703 Rx d 8 42 86 08 29 A5 71 5D 05 
55049.129700 1 704 Rx d 7 95 82 D9 98 83 22 22 
55049.130000 1 705 Rx d 8 86 A3 38 88 03 7D 00 00 
55049.130300 1 706 Rx d 8 1A C0 01 1A 00 7D 00 00 
55049.139300 1 703 Rx d 8 42 86 0C 31 D0 07 E5 DF 
55049.139500 1 702 Rx d 8 62 00 00 00 00 00 00 B0 
55049.139700 1 704 Rx d 7 95 82 D9 98 83 22 22 
55049.140000 1 705 Rx d 8 88 A3 38 88 03 7D 00 00 
55049.140200 1 706 Rx d 8 1A C0 01 1A 00 7D 00 00 
55049.142200 1 1003x Rx d 8 0F 3E 00 20 5F 00 00 00 
55049.142500 1 1002x Rx d 8 0F 3E 00 80 5F 00 00 00 
55049.142700 1 1042x Rx d 7 08 65 64 63 63 64 64 
55049.143000 1 1043x Rx d 7 08 65 64 63 63 64 64 
55049.143200 1 1083x Rx d 7 00 30 00 02 00 7D 00 
55049.143500 1 10C3x Rx d 7 00 10 00 00 00 7D 00 
55049.143800 1 1103x Rx d 7 01 40 00 02 00 7D 00 
55049.144000 1 1142x Rx d 7 03 40 00 04 00 7D 00 
55049.144300 1 1182x Rx d 7 00 10 00 00 00 7D 00 
55049.144600 1 11C2x Rx d 7 01 40 00 02 00 7D 00 
55049.144800 1 1403x Rx d 7 00 80 00 05 00 7D 00 
55049.145100 1 1442x Rx d 7 00 80 00 05 00 7D 00 
55049.149300 1 703 Rx d 8 43 86 0C 39 DA 07 13 38 
55049.149500 1 702 Rx d 8 62 00 00 00 00 00 00 B0 
55049.149800 1 704 Rx d 7 95 82 D8 98 83 22 22 
55049.150000 1 705 Rx d 8 88 A3 38 88 03 7D 00 00 
55049.150200 1 706 Rx d 8 1A C0 01 1A 00 7D 00 00 
55049.159300 1 702 Rx d 8 62 00 00 00 00 00 00 B0 
55049.159500 1 703 Rx d 8 43 86 0C 01 2D 2C 2D 2D 
55049.159700 1 704 Rx d 7 95 82 D8 98 83 22 22 
55049.160000 1 705 Rx d 8 86 A3 38 88 03 7D 00 00 
55049.160200 1 706 Rx d 8 1A C0 01 1A 00 7D 00 00 
55049.169300 1 702 Rx d 8 62 00 00 00 00 00 00 B0 
55049.169500 1 703 Rx d 8 43 86 0C 09 2D 2D 00 40 
55049.169800 1 704 Rx d 7 95 82 D8 98 82 22 22 
55049.170000 1 705 Rx d 8 88 A3 38 88 03 7D 00 00 
55049.170200 1 706 Rx d 8 1A C0 01 1A 00 7D 00 00 
55049.179300 1 703 Rx d 8 43 86 0C 11 00 00 7D 00 
55049.179500 1 702 Rx d 8 62 00 00 00 00 00 00 B0 
55049.179700 1 704 Rx d 7 95 82 D9 98 83 22 22 
55049.180000 1 705 Rx d 8 86 A3 38 88 03 7D 00 00 
55049.180200 1 706 Rx d 8 1A C0 01 1A 00 7D 00 00 
55049.189300 1 702 Rx d 8 62 00 00 00 00 00 00 B0 
55049.189500 1 703 Rx d 8 43 86 0C 19 00 00 72 79 
55049.189700 1 704 Rx d 7 95 82 D9 98 83 22 22 
55049.190000 1 705 Rx d 8 88 A3 38 88 03 7D 00 00 
55049.190200 1 706 Rx d 8 1A C0 01 1A 00 7D 00 00 
55049.199300 1 702 Rx d 8 62 00 00 00 00 00 00 B0 
55049.199500 1 703 Rx d 8 43 86 0C 21 36 33 89 30 
55049.199800 1 704 Rx d 7 95 82 D8 98 83 22 22 
55049.200000 1 705 Rx d 8 86 A3 38 88 03 7D 00 00 
55049.200200 1 706 Rx d 8 1A C0 01 1A 00 7D 00 00 
55049.209300 1 702 Rx d 8 62 00 00 00 00 00 00 B0 
55049.209500 1 703 Rx d 8 43 88 0C 29 A5 71 5D 05 
55049.209700 1 704 Rx d 7 95 82 D8 98 83 22 22 
55049.210000 1 705 Rx d 8 88 A3 38 88 03 7D 00 00 
55049.210300 1 706 Rx d 8 1A C0 01 1A 00 7D 00 00 
55049.219300 1 703 Rx d 8 43 88 0C 31 D0 07 E5 DF 
55049.219500 1 702 Rx d 8 62 00 00 00 00 00 00 B0 
55049.219700 1 704 Rx d 7 95 82 D9 98 83 22 22 
55049.220000 1 705 Rx d 8 86 A3 38 88 03 7D 00 00 
55049.220200 1 706 Rx d 8 1A C0 01 1A 00 7D 00 00 
55049.229300 1 703 Rx d 8 43 88 10 39 DA 07 13 38 
55049.229500 1 702 Rx d 8 62 00 00 00 00 00 00 B0 
55049.229800 1 704 Rx d 7 95 82 D9 98 82 22 22 
55049.230000 1 705 Rx d 8 86 A3 38 88 03 7D 00 00 
55049.230200 1 706 Rx d 8 1A C0 01 1A 00 7D 00 00 
55049.235700 1 687x Rx d 8 01 00 00 00 00 00 00 01 
55049.239300 1 702 Rx d 8 62 00 00 00 00 00 00 B0 
55049.239500 1 703 Rx d 8 44 88 10 01 2D 2C 2D 2D 
55049.239700 1 704 Rx d 7 95 82 D9 98 83 22 22 
55049.240000 1 705 Rx d 8 86 A3 38 88 03 7D 00 00 
55049.240200 1 706 Rx d 8 18 C0 01 1A 00 7D 00 00 
55049.242100 1 1003x Rx d 8 0F 3E 00 40 6F 00 00 00 
55049.242400 1 1002x Rx d 8 0F 3E 00 A0 6F 00 00 00 
55049.242700 1 1042x Rx d 7 09 65 64 00 00 00 00 
55049.243000 1 1043x Rx d 7 09 64 64 00 00 00 00 
55049.243200 1 1083x Rx d 7 01 40 00 02 00 7D 00 
55049.243500 1 10C3x Rx d 7 00 10 00 00 00 7D 00 
55049.243800 1 1103x Rx d 7 01 40 00 02 00 7D 00 
55049.244000 1 1142x Rx d 7 03 40 00 04 00 7D 00 
55049.244300 1 1182x Rx d 7 00 10 00 00 00 7D 00 
55049.244600 1 11C2x Rx d 7 01 40 00 02 00 7D 00 
55049.244900 1 1403x Rx d 7 00 80 00 05 00 7D 00 
55049.245200 1 1442x Rx d 7 00 80 00 05 00 7D 00 
55049.249300 1 702 Rx d 8 62 00 00 00 00 00 00 B0 
55049.249600 1 703 Rx d 8 44 88 10 09 2D 2D 00 40 
55049.249800 1 704 Rx d 7 95 82 D9 98 82 22 22 
55049.250000 1 705 Rx d 8 86 A3 38 88 03 7D 00 00 
55049.250200 1 706 Rx d 8 1A C0 01 1A 00 7D 00 00 
55049.259300 1 703 Rx d 8 44 88 10 11 00 00 7D 00 
55049.259500 1 702 Rx d 8 62 00 00 00 00 00 00 B0 
55049.259700 1 704 Rx d 7 95 82 D9 98 83 22 22 
55049.260000 1 705 Rx d 8 86 A3 38 88 03 7D 00 00 
55049.260200 1 706 Rx d 8 1A C0 01 1A 00 7D 00 00 
55049.268800 1 687x Rx d 8 02 00 00 00 00 00 00 00 
55049.269300 1 702 Rx d 8 62 00 00 00 00 00 00 B0 
55049.269500 1 703 Rx d 8 44 88 10 19 00 00 72 79 
55049.269700 1 704 Rx d 7 95 82 D9 98 83 22 22 
55049.270000 1 705 Rx d 8 88 A3 38 88 03 7D 00 00 
55049.270200 1 706 Rx d 8 1A C0 01 1A 00 7D 00 00 
55049.279300 1 702 Rx d 8 62 00 00 00 00 00 00 B0 
55049.279500 1 703 Rx d 8 44 88 10 21 36 33 89 30 
55049.279800 1 704 Rx d 7 95 82 D8 98 82 22 22 
55049.280000 1 705 Rx d 8 88 A3 38 88 03 7D 00 00 
55049.280200 1 706 Rx d 8 1A C0 01 1A 00 7D 00 00 
55049.289300 1 702 Rx d 8 62 00 00 00 00 00 00 B0 
55049.289600 1 703 Rx d 8 44 88 10 29 A5 71 5D 05 
55049.289800 1 704 Rx d 7 95 82 D9 98 82 22 22 
55049.290000 1 705 Rx d 8 86 A3 38 88 03 7D 00 00 
55049.290300 1 706 Rx d 8 1A C0 01 1A 00 7D 00 00 
55049.299300 1 703 Rx d 8 44 88 10 31 D0 07 E5 DF 
55049.299500 1 702 Rx d 8 62 00 00 00 00 00 00 B0 
55049.299700 1 704 Rx d 7 95 82 D9 98 83 22 22 
55049.300000 1 705 Rx d 8 88 A3 38 88 03 7D 00 00 
55049.300200 1 706 Rx d 8 1A C0 01 1A 00 7D 00 00 
55049.301700 1 687x Rx d 8 03 74 94 2E 94 4A 2D 2D 
55049.309300 1 703 Rx d 8 44 8A 10 39 DA 07 13 38 
55049.309500 1 702 Rx d 8 62 00 00 00 00 00 00 B0 
55049.309800 1 704 Rx d 7 95 82 D9 98 83 22 22 
55049.310000 1 705 Rx d 8 86 A3 38 88 03 7D 00 00 
55049.310200 1 706 Rx d 8 1A C0 01 1A 00 7D 00 00 
55049.319300 1 702 Rx d 8 62 00 00 00 00 00 00 B0 
55049.319500 1 703 Rx d 8 44 8A 14 01 2D 2C 2D 2D 
55049.319700 1 704 Rx d 7 95 82 D9 98 82 22 22 
55049.320000 1 705 Rx d 8 86 A3 38 88 03 7D 00 00 
55049.320200 1 706 Rx d 8 1A C0 01 1A 00 7D 00 00 
55049.329300 1 702 Rx d 8 62 00 00 00 00 00 00 B0 
55049.329600 1 703 Rx d 8 44 8A 14 09 2D 2D 00 40 
55049.329800 1 704 Rx d 7 95 82 D9 98 83 22 22 
55049.330000 1 705 Rx d 8 86 A3 38 88 03 7D 00 00 
55049.330200 1 706 Rx d 8 1A C0 01 1A 00 7D 00 00 
55049.334800 1 687x Rx d 8 04 00 10 36 9B 00 00 00 
55049.339300 1 703 Rx d 8 45 8A 14 11 00 00 7D 00 
55049.339500 1 702 Rx d 8 62 00 00 00 00 00 00 B0 
55049.339700 1 704 Rx d 7 95 82 D8 98 83 22 22 
55049.340000 1 705 Rx d 8 88 A3 38 88 03 7D 00 00 
55049.340200 1 706 Rx d 8 1A C0 01 1A 00 7D 00 00 
55049.342100 1 1003x Rx d 8 0F 3E 00 00 6F 00 00 00 
55049.342400 1 1002x Rx d 8 0F 3E 00 60 6F 00 00 00 
55049.342700 1 1042x Rx d 7 00 59 A4 A5 83 00 00 
55049.342900 1 1043x Rx d 7 00 58 A3 A5 83 00 00 
55049.343200 1 1083x Rx d 7 00 30 00 02 00 7D 00 
55049.343500 1 10C3x Rx d 7 00 10 00 00 00 7D 00 
55049.343800 1 1103x Rx d 7 01 30 00 02 00 7D 00 
55049.344100 1 1142x Rx d 7 03 40 00 04 00 7D 00 
55049.344300 1 1182x Rx d 7 00 10 00 00 00 7D 00 
55049.344600 1 11C2x Rx d 7 01 40 00 02 00 7D 00 
55049.344900 1 1403x Rx d 7 00 80 00 05 00 7D 00 
55049.345100 1 1442x Rx d 7 00 80 00 05 00 7D 00 
55049.349300 1 702 Rx d 8 62 00 00 00 00 00 00 B0 
55049.349500 1 703 Rx d 8 45 8A 14 19 00 00 72 79 
55049.349700 1 704 Rx d 7 95 82 D8 98 82 22 22 
55049.350000 1 705 Rx d 8 88 A3 38 88 03 7D 00 00 
55049.350200 1 706 Rx d 8 1A C0 01 1A 00 7D 00 00 
55049.359300 1 702 Rx d 8 62 00 00 00 00 00 00 B0 
55049.359500 1 703 Rx d 8 45 8A 14 21 36 33 89 30 
55049.359800 1 704 Rx d 7 95 82 D9 98 82 22 22 
55049.360000 1 705 Rx d 8 86 A3 38 88 03 7D 00 00 
55049.360200 1 706 Rx d 8 1A C0 01 1A 00 7D 00 00 
55049.367800 1 687x Rx d 8 05 00 00 00 1C 00 00 00 
55049.369300 1 702 Rx d 8 62 00 00 00 00 00 00 B0 
55049.369500 1 703 Rx d 8 45 8A 14 29 A5 71 5D 05 
55049.369700 1 704 Rx d 7 95 82 D9 98 83 22 22 
55049.370000 1 705 Rx d 8 86 A3 38 88 03 7D 00 00 
55049.370300 1 706 Rx d 8 1A C0 01 1A 00 7D 00 00 
55049.379300 1 703 Rx d 8 45 8A 14 31 D0 07 E5 DF 
55049.379500 1 702 Rx d 8 62 00 00 00 00 00 00 B0 
55049.379700 1 704 Rx d 7 95 82 D9 98 82 22 22 
55049.380000 1 705 Rx d 8 88 A3 38 88 03 7D 00 00 
55049.380200 1 706 Rx d 8 1A C0 01 1A 00 7D 00 00 
55049.389300 1 703 Rx d 8 45 8A 14 39 DA 07 13 38 
55049.389500 1 702 Rx d 8 62 00 00 00 00 00 00 B0 
55049.389800 1 704 Rx d 7 95 82 D8 98 83 22 22 
55049.390000 1 705 Rx d 8 86 A3 38 88 03 7D 00 00 
55049.390200 1 706 Rx d 8 1A C0 01 1A 00 7D 00 00 
55049.399300 1 702 Rx d 8 62 00 00 00 00 00 00 B0 
55049.399500 1 703 Rx d 8 45 8C 14 01 2D 2C 2D 2D 
55049.399700 1 704 Rx d 7 95 82 D9 98 83 22 22 
55049.400000 1 705 Rx d 8 86 A3 38 88 03 7D 00 00 
55049.400200 1 706 Rx d 8 1A C0 01 1A 00 7D 00 00 
55049.409300 1 702 Rx d 8 62 00 00 00 00 00 00 B0 
55049.409600 1 703 Rx d 8 45 8C 14 09 2D 2D 00 40 
55049.409800 1 704 Rx d 7 95 82 D9 98 83 22 22 
55049.410000 1 705 Rx d 8 86 A3 38 88 03 7D 00 00 
55049.410200 1 706 Rx d 8 1A C0 01 1A 00 7D 00 00 
55049.419300 1 702 Rx d 8 62 00 00 00 00 00 00 B0 
55049.419500 1 703 Rx d 8 45 8C 18 11 00 00 7D 00 
55049.419700 1 704 Rx d 7 95 82 D8 98 83 22 22 
55049.420000 1 705 Rx d 8 86 A3 38 88 03 7D 00 00 
55049.420200 1 706 Rx d 8 1A C0 01 1A 00 7D 00 00 
55049.429300 1 702 Rx d 8 62 00 00 00 00 00 00 B0 
55049.429600 1 703 Rx d 8 46 8C 18 19 00 00 72 79 
55049.429800 1 704 Rx d 7 95 82 D8 98 83 22 22 
55049.430000 1 705 Rx d 8 86 A3 38 88 03 7D 00 00 
55049.430200 1 706 Rx d 8 1A C0 01 1A 00 7D 00 00 
55049.439300 1 702 Rx d 8 62 00 00 00 00 00 00 B0 
55049.439500 1 703 Rx d 8 46 8C 18 21 36 33 89 30 
55049.439800 1 704 Rx d 7 95 82 D9 98 83 22 22 
55049.440000 1 705 Rx d 8 86 A3 38 88 03 7D 00 00 
55049.440200 1 706 Rx d 8 1A C0 01 1A 00 7D 00 00 
55049.442100 1 1003x Rx d 8 0F 3E 00 20 5F 00 00 00 
55049.442400 1 1002x Rx d 8 0F 3E 00 80 5F 00 00 00 
55049.442700 1 1042x Rx d 7 01 29 29 2A 2A 2A 2A 
55049.443000 1 1043x Rx d 7 01 2C 2C 2B 2B 28 28 
55049.443200 1 1083x Rx d 7 00 40 00 02 00 7D 00 
55049.443500 1 10C3x Rx d 7 00 10 00 00 00 7D 00 
55049.443800 1 1103x Rx d 7 01 30 00 01 00 7D 00 
55049.444000 1 1142x Rx d 7 03 40 00 04 00 7D 00 
55049.444300 1 1182x Rx d 7 00 10 00 00 00 7D 00 
55049.444600 1 11C2x Rx d 7 01 40 00 02 00 7D 00 
55049.444900 1 1403x Rx d 7 00 80 00 05 00 7D 00 
55049.445100 1 1442x Rx d 7 00 80 00 05 00 7D 00 
55049.449300 1 703 Rx d 8 46 8C 18 29 A5 71 5D 05 
55049.449500 1 702 Rx d 8 62 00 00 00 00 00 00 B0 
55049.449700 1 704 Rx d 7 95 82 D9 98 82 22 22 
55049.450000 1 705 Rx d 8 86 A3 38 88 03 7D 00 00 
55049.450200 1 706 Rx d 8 1A C0 01 1A 00 7D 00 00 
55049.459300 1 703 Rx d 8 46 8C 18 31 D0 07 E5 DF 
55049.459500 1 702 Rx d 8 62 00 00 00 00 00 00 B0 
55049.459700 1 704 Rx d 7 95 82 D9 98 83 22 22 
55049.460000 1 705 Rx d 8 86 A3 38 88 03 7D 00 00 
55049.460200 1 706 Rx d 8 1A C0 01 1A 00 7D 00 00 
55049.469300 1 703 Rx d 8 46 8C 18 39 DA 07 13 38 
55049.469500 1 702 Rx d 8 62 00 00 00 00 00 00 B0 
55049.469800 1 704 Rx d 7 95 82 D8 98 83 22 22 
55049.470000 1 705 Rx d 8 86 A3 38 88 03 7D 00 00 
55049.470200 1 706 Rx d 8 1A C0 01 1A 00 7D 00 00 
55049.479300 1 702 Rx d 8 62 00 00 00 00 00 00 B0 
55049.479500 1 703 Rx d 8 46 8C 18 01 2D 2C 2D 2D 
55049.479700 1 704 Rx d 7 95 82 D9 98 82 22 22 
55049.480000 1 705 Rx d 8 86 A3 38 88 03 7D 00 00 
55049.480300 1 706 Rx d 8 1A C0 01 1A 00 7D 00 00 
55049.489300 1 702 Rx d 8 62 00 00 00 00 00 00 B0 
55049.489600 1 703 Rx d 8 46 8C 18 09 2D 2D 00 40 
55049.489800 1 704 Rx d 7 95 82 D8 98 82 22 22 
55049.490000 1 705 Rx d 8 86 A3 38 88 03 7D 00 00 
55049.490200 1 706 Rx d 8 1A C0 01 1A 00 7D 00 00 
55049.499300 1 703 Rx d 8 46 8C 18 11 00 00 7D 00 
55049.499500 1 702 Rx d 8 62 00 00 00 00 00 00 B0 
55049.499700 1 704 Rx d 7 95 82 D8 98 83 22 22 
55049.500000 1 705 Rx d 8 86 A3 38 88 03 7D 00 00 
55049.500200 1 706 Rx d 8 1A C0 01 1A 00 7D 00 00 
55049.509300 1 702 Rx d 8 62 00 00 00 00 00 00 B0 
55049.509500 1 703 Rx d 8 46 8E 18 19 00 00 72 79 
55049.509700 1 704 Rx d 7 95 82 D9 98 83 22 22 
55049.510000 1 705 Rx d 8 88 A3 38 88 03 7D 00 00 
55049.510200 1 706 Rx d 8 1A C0 01 1A 00 7D 00 00 
55049.519300 1 702 Rx d 8 62 00 00 00 00 00 00 B0 
55049.519500 1 703 Rx d 8 46 8E 18 21 36 33 89 30 
55049.519800 1 704 Rx d 7 95 82 D8 98 83 22 22 
55049.520000 1 705 Rx d 8 88 A3 38 88 03 7D 00 00 
55049.520200 1 706 Rx d 8 1A C0 01 1A 00 7D 00 00 
55049.529300 1 702 Rx d 8 62 00 00 00 00 00 00 B0 
55049.529500 1 703 Rx d 8 46 8E 1C 29 A5 71 5D 05 
55049.529700 1 704 Rx d 7 95 82 D8 98 82 22 22 
55049.530000 1 705 Rx d 8 86 A3 38 88 03 7D 00 00 
55049.530300 1 706 Rx d 8 1A C0 01 1A 00 7D 00 00 
55049.539300 1 702 Rx d 8 62 00 00 00 00 00 00 B0 
55049.539600 1 703 Rx d 8 47 8E 1C 31 D0 07 E5 DF 
55049.539800 1 704 Rx d 7 95 82 D9 98 83 22 22 
55049.540000 1 705 Rx d 8 86 A3 38 88 03 7D 00 00 
55049.540200 1 706 Rx d 8 1A C0 01 1A 00 7D 00 00 
55049.542100 1 1043x Rx d 7 02 25 25 26 26 2A 2A 
55049.542400 1 1002x Rx d 8 0F 3E 00 A0 6F 00 00 00 
55049.542700 1 1003x Rx d 8 0F 3E 00 40 6F 00 00 00 
55049.543000 1 1042x Rx d 7 02 28 28 26 26 2B 2B 
55049.543200 1 1083x Rx d 7 00 30 00 02 00 7D 00 
55049.543500 1 10C3x Rx d 7 00 10 00 00 00 7D 00 
55049.543800 1 1103x Rx d 7 01 30 00 01 00 7D 00 
55049.544000 1 1142x Rx d 7 03 40 00 03 00 7D 00 
55049.544300 1 1182x Rx d 7 00 10 00 00 00 7D 00 
55049.544600 1 11C2x Rx d 7 01 30 00 02 00 7D 00 
55049.544800 1 1403x Rx d 7 00 80 00 05 00 7D 00 
55049.545100 1 1442x Rx d 7 00 80 00 05 00 7D 00 
55049.549300 1 703 Rx d 8 47 8E 1C 39 DA 07 13 38 
55049.549500 1 702 Rx d 8 62 00 00 00 00 00 00 B0 
55049.549800 1 704 Rx d 7 95 82 D9 98 83 22 22 
55049.550000 1 705 Rx d 8 86 A3 38 88 03 7D 00 00 
55049.550200 1 706 Rx d 8 1A C0 01 1A 00 7D 00 00 
55049.559300 1 703 Rx d 8 47 8E 1C 01 2D 2C 2D 2D 
55049.559500 1 702 Rx d 8 62 00 00 00 00 00 00 B0 
55049.559700 1 704 Rx d 7 95 82 D9 98 83 22 22 
55049.560000 1 705 Rx d 8 86 A3 38 88 03 7D 00 00 
55049.560200 1 706 Rx d 8 1A C0 01 1A 00 7D 00 00 
55049.569300 1 702 Rx d 8 62 00 00 00 00 00 00 B0 
55049.569600 1 703 Rx d 8 47 8E 1C 09 2D 2D 00 40 
55049.569800 1 704 Rx d 7 95 82 D9 98 83 22 22 
55049.570000 1 705 Rx d 8 86 A3 38 88 03 7D 00 00 
55049.570200 1 706 Rx d 8 1A C0 01 1A 00 7D 00 00 
55049.579300 1 702 Rx d 8 62 00 00 00 00 00 00 B0 
55049.579600 1 703 Rx d 8 47 8E 1C 11 00 00 7D 00 
55049.579800 1 704 Rx d 7 95 82 D9 98 82 22 22 
55049.580000 1 705 Rx d 8 86 A3 38 88 03 7D 00 00 
55049.580300 1 706 Rx d 8 1A C0 01 1A 00 7D 00 00 
55049.589300 1 703 Rx d 8 47 8E 1C 19 00 00 72 79 
55049.589500 1 702 Rx d 8 62 00 00 00 00 00 00 B0 
55049.589700 1 704 Rx d 7 95 82 D9 98 83 22 22 
55049.590000 1 705 Rx d 8 88 A3 38 88 03 7D 00 00 
55049.590200 1 706 Rx d 8 1A C0 01 1A 00 7D 00 00 
55049.599300 1 702 Rx d 8 62 00 00 00 00 00 00 B0 
55049.599500 1 703 Rx d 8 47 8E 1C 21 36 33 89 30 
55049.599800 1 704 Rx d 7 95 82 D9 98 83 22 22 
55049.600000 1 705 Rx d 8 88 A3 38 88 03 7D 00 00 
55049.600200 1 706 Rx d 8 1A C0 01 1A 00 7D 00 00 
55049.609300 1 702 Rx d 8 62 00 00 00 00 00 00 B0 
55049.609500 1 703 Rx d 8 47 8E 1C 29 A5 71 5D 05 
55049.609700 1 704 Rx d 7 95 82 D9 98 82 22 22 
55049.610000 1 705 Rx d 8 86 A3 38 88 03 7D 00 00 
55049.610300 1 706 Rx d 8 1A C0 01 1A 00 7D 00 00 
55049.619300 1 702 Rx d 8 62 00 00 00 00 00 00 B0 
55049.619600 1 703 Rx d 8 47 90 1C 31 D0 07 E5 DF 
55049.619800 1 704 Rx d 7 95 82 D9 98 83 22 22 
55049.620000 1 705 Rx d 8 86 A3 38 88 03 7D 00 00 
55049.620200 1 706 Rx d 8 1A C0 01 1A 00 7D 00 00 
55049.629300 1 703 Rx d 8 47 90 1C 39 DA 07 13 38 
55049.629500 1 702 Rx d 8 62 00 00 00 00 00 00 B0 
55049.629800 1 704 Rx d 7 95 82 D8 98 82 22 22 
55049.630000 1 705 Rx d 8 88 A3 38 88 03 7D 00 00 
55049.630200 1 706 Rx d 8 1A C0 01 1A 00 7D 00 00 
55049.639300 1 703 Rx d 8 47 90 20 01 2D 2C 2D 2D 
55049.639500 1 702 Rx d 8 62 00 00 00 00 00 00 B0 
55049.639700 1 704 Rx d 7 95 82 D8 98 83 22 22 
55049.640000 1 705 Rx d 8 86 A3 38 88 03 7D 00 00 
55049.640200 1 706 Rx d 8 1A C0 01 1A 00 7D 00 00 
55049.642100 1 1043x Rx d 7 03 2A 2A 28 28 2F 00 
55049.642400 1 1002x Rx d 8 0F 3E 00 60 6F 00 00 00 
55049.642700 1 1003x Rx d 8 0F 3E 00 00 6F 00 00 00 
55049.642900 1 1042x Rx d 7 03 28 28 26 26 2F 00 
55049.643200 1 1083x Rx d 7 00 40 00 02 00 7D 00 
55049.643500 1 10C3x Rx d 7 00 10 00 00 00 7D 00 
55049.643800 1 1103x Rx d 7 01 30 00 01 00 7D 00 
55049.644000 1 1142x Rx d 7 03 40 00 03 00 7D 00 
55049.644300 1 1182x Rx d 7 00 10 00 00 00 7D 00 
55049.644600 1 11C2x Rx d 7 01 30 00 02 00 7D 00 
55049.644900 1 1403x Rx d 7 00 80 00 05 00 7D 00 
55049.645100 1 1442x Rx d 7 00 80 00 05 00 7D 00 
55049.649300 1 702 Rx d 8 62 00 00 00 00 00 00 B0 
55049.649600 1 703 Rx d 8 48 90 20 09 2D 2D 00 40 
55049.649800 1 704 Rx d 7 95 82 D9 98 82 22 22 
55049.650000 1 705 Rx d 8 86 A3 38 88 03 7D 00 00 
55049.650200 1 706 Rx d 8 1A C0 01 1A 00 7D 00 00 
55049.659300 1 702 Rx d 8 62 00 00 00 00 00 00 B0 
55049.659600 1 703 Rx d 8 48 90 20 11 00 00 7D 00 
55049.659800 1 704 Rx d 7 95 82 D9 98 83 22 22 
55049.660000 1 705 Rx d 8 88 A3 38 88 03 7D 00 00 
55049.660300 1 706 Rx d 8 1A C0 01 1A 00 7D 00 00 
55049.669300 1 703 Rx d 8 48 90 20 19 00 00 72 79 
55049.669500 1 702 Rx d 8 62 00 00 00 00 00 00 B0 
55049.669700 1 704 Rx d 7 95 82 D8 98 83 22 22 
55049.670000 1 705 Rx d 8 86 A3 38 88 03 7D 00 00 
55049.670200 1 706 Rx d 8 1A C0 01 1A 00 7D 00 00 
55049.679300 1 702 Rx d 8 62 00 00 00 00 00 00 B0 
55049.679500 1 703 Rx d 8 48 90 20 21 36 33 89 30 
55049.679800 1 704 Rx d 7 95 82 D8 98 83 22 22 
55049.680000 1 705 Rx d 8 86 A3 38 88 03 7D 00 00 
55049.680200 1 706 Rx d 8 1A C0 01 1A 00 7D 00 00 
55049.689300 1 702 Rx d 8 62 00 00 00 00 00 00 B0 
55049.689500 1 703 Rx d 8 48 90 20 29 A5 71 5D 05 
55049.689700 1 704 Rx d 7 95 82 D9 98 82 22 22 
55049.690000 1 705 Rx d 8 86 A3 38 88 03 7D 00 00 
55049.690200 1 706 Rx d 8 1A C0 01 1A 00 7D 00 00 
55049.699300 1 702 Rx d 8 62 00 00 00 00 00 00 B0 
55049.699600 1 703 Rx d 8 48 90 20 31 D0 07 E5 DF 
55049.699800 1 704 Rx d 7 95 82 D9 98 83 22 22 
55049.700000 1 705 Rx d 8 88 A3 38 88 03 7D 00 00 
55049.700200 1 706 Rx d 8 1A C0 01 1A 00 7D 00 00 
55049.709300 1 702 Rx d 8 62 00 00 00 00 00 00 B0 
55049.709500 1 703 Rx d 8 48 90 20 39 DA 07 13 38 
55049.709800 1 704 Rx d 7 95 82 D8 98 82 22 22 
55049.710000 1 705 Rx d 8 86 A3 38 88 03 7D 00 00 
55049.710300 1 706 Rx d 8 1A C0 01 1A 00 7D 00 00 
55049.719300 1 702 Rx d 8 62 00 00 00 00 00 00 B0 
55049.719600 1 703 Rx d 8 48 90 20 01 2D 2C 2D 2D 
55049.719800 1 704 Rx d 7 95 82 D9 98 83 22 22 
55049.720000 1 705 Rx d 8 86 A3 38 88 03 7D 00 00 
55049.720300 1 706 Rx d 8 1A C0 01 1A 00 7D 00 00 
55049.729300 1 703 Rx d 8 48 90 20 09 2D 2D 00 40 
55049.729600 1 702 Rx d 8 62 00 00 00 00 00 00 B0 
55049.729800 1 704 Rx d 7 95 82 D9 98 83 22 22 
55049.730000 1 705 Rx d 8 86 A3 38 88 03 7D 00 00 
55049.730200 1 706 Rx d 8 1A C0 01 1A 00 7D 00 00 
55049.739300 1 702 Rx d 8 62 00 00 00 00 00 00 B0 
55049.739600 1 703 Rx d 8 48 92 20 11 00 00 7D 00 
55049.739800 1 704 Rx d 7 95 82 D9 98 83 22 22 
55049.740000 1 705 Rx d 8 86 A3 38 88 03 7D 00 00 
55049.740300 1 706 Rx d 8 1A C0 01 1A 00 7D 00 00 
55049.742100 1 1043x Rx d 7 04 E8 03 86 96 BE 32 
55049.742400 1 1002x Rx d 8 0F 3E 00 80 5F 00 00 00 
55049.742700 1 1003x Rx d 8 0F 3E 00 20 5F 00 00 00 
55049.743000 1 1042x Rx d 7 04 E8 03 5C 76 BE 32 
55049.743300 1 1083x Rx d 7 00 40 00 02 00 7D 00 
55049.743500 1 10C3x Rx d 7 00 10 00 00 00 7D 00 
55049.743800 1 1103x Rx d 7 01 30 00 01 00 7D 00 
55049.744100 1 1142x Rx d 7 03 40 00 03 00 7D 00 
55049.744300 1 1182x Rx d 7 00 10 00 00 00 7D 00 
55049.744600 1 11C2x Rx d 7 01 40 00 02 00 7D 00 
55049.744900 1 1403x Rx d 7 00 80 00 05 00 7D 00 
55049.745100 1 1442x Rx d 7 00 80 00 05 00 7D 00 
55049.749400 1 702 Rx d 8 62 00 00 00 00 00 00 B0 
55049.749600 1 703 Rx d 8 48 92 20 19 00 00 72 79 
55049.749800 1 704 Rx d 7 95 82 D8 98 83 22 22 
55049.750000 1 705 Rx d 8 86 A3 38 88 03 7D 00 00 
55049.750200 1 706 Rx d 8 1A C0 01 1A 00 7D 00 00 
55049.759300 1 703 Rx d 8 48 92 24 21 36 33 89 30 
55049.759500 1 702 Rx d 8 62 00 00 00 00 00 00 B0 
55049.759800 1 704 Rx d 7 95 82 D9 98 83 22 22 
55049.760000 1 705 Rx d 8 86 A3 38 88 03 7D 00 00 
55049.760200 1 706 Rx d 8 1A C0 01 1A 00 7D 00 00 
55049.769300 1 703 Rx d 8 49 92 24 29 A5 71 5D 05 
55049.769500 1 702 Rx d 8 62 00 00 00 00 00 00 B0 
55049.769700 1 704 Rx d 7 95 82 D9 98 83 22 22 
55049.770000 1 705 Rx d 8 86 A3 38 88 03 7D 00 00 
55049.770200 1 706 Rx d 8 1A C0 01 1A 00 7D 00 00 
55049.779300 1 702 Rx d 8 62 00 00 00 00 00 00 B0 
55049.779600 1 703 Rx d 8 49 92 24 31 D0 07 E5 DF 
55049.779800 1 704 Rx d 7 95 82 D8 98 83 22 22 
55049.780000 1 705 Rx d 8 86 A3 38 88 03 7D 00 00 
55049.780200 1 706 Rx d 8 1A C0 01 1A 00 7D 00 00 
55049.789300 1 702 Rx d 8 62 00 00 00 00 00 00 B0 
55049.789500 1 703 Rx d 8 49 92 24 39 DA 07 13 38 
55049.789800 1 704 Rx d 7 95 82 D8 98 83 22 22 
55049.790000 1 705 Rx d 8 86 A3 38 88 03 7D 00 00 
55049.790300 1 706 Rx d 8 1A C0 01 1A 00 7D 00 00 
55049.799300 1 702 Rx d 8 62 00 00 00 00 00 00 B0 
55049.799600 1 703 Rx d 8 49 92 24 01 2D 2C 2D 2D 
55049.799800 1 704 Rx d 7 95 82 D8 98 83 22 22 
55049.800000 1 705 Rx d 8 86 A3 38 88 03 7D 00 00 
55049.800300 1 706 Rx d 8 1A C0 01 1A 00 7D 00 00 
55049.809300 1 702 Rx d 8 62 00 00 00 00 00 00 B0 
55049.809600 1 703 Rx d 8 49 92 24 09 2D 2D 00 40 
55049.809800 1 704 Rx d 7 95 82 D9 98 82 22 22 
55049.810000 1 705 Rx d 8 86 A3 38 88 03 7D 00 00 
55049.810200 1 706 Rx d 8 1A C0 01 1A 00 7D 00 00 
55049.819300 1 702 Rx d 8 62 00 00 00 00 00 00 B0 
55049.819600 1 703 Rx d 8 49 92 24 11 00 00 7D 00 
55049.819800 1 704 Rx d 7 95 82 D9 98 83 22 22 
55049.820000 1 705 Rx d 8 88 A3 38 88 03 7D 00 00 
55049.820300 1 706 Rx d 8 1A C0 01 1A 00 7D 00 00 
55049.829300 1 703 Rx d 8 49 92 24 19 00 00 72 79 
55049.829500 1 702 Rx d 8 62 00 00 00 00 00 00 B0 
55049.829700 1 704 Rx d 7 95 82 D8 98 82 22 22 
55049.830000 1 705 Rx d 8 88 A3 38 88 03 7D 00 00 
55049.830200 1 706 Rx d 8 1A C0 01 1A 00 7D 00 00 
55049.839300 1 703 Rx d 8 49 92 24 21 36 33 89 30 
55049.839500 1 702 Rx d 8 62 00 00 00 00 00 00 B0 
55049.839800 1 704 Rx d 7 95 82 D9 98 82 22 22 
55049.840000 1 705 Rx d 8 86 A3 38 88 03 7D 00 00 
55049.840200 1 706 Rx d 8 1A C0 01 1A 00 7D 00 00 
55049.842100 1 1043x Rx d 7 05 E9 03 D5 28 85 34 
55049.842400 1 1002x Rx d 8 0F 3E 00 A0 6F 00 00 00 
55049.842700 1 1003x Rx d 8 0F 3E 00 40 6F 00 00 00 
55049.843000 1 1042x Rx d 7 05 E9 03 D5 28 85 34 
55049.843200 1 1083x Rx d 7 00 40 00 02 00 7D 00 
55049.843500 1 10C3x Rx d 7 00 10 00 00 00 7D 00 
55049.843800 1 1103x Rx d 7 01 30 00 02 00 7D 00 
55049.844000 1 1142x Rx d 7 03 40 00 03 00 7D 00 
55049.844300 1 1182x Rx d 7 00 10 00 00 00 7D 00 
55049.844600 1 11C2x Rx d 7 01 40 00 02 00 7D 00 
55049.844800 1 1403x Rx d 7 00 80 00 05 00 7D 00 
55049.845100 1 1442x Rx d 7 00 80 00 05 00 7D 00 
55049.849300 1 702 Rx d 8 62 00 00 00 00 00 00 B0 
55049.849500 1 703 Rx d 8 49 92 24 29 A5 71 5D 05 
55049.849700 1 704 Rx d 7 95 82 D9 98 83 22 22 
55049.850000 1 705 Rx d 8 88 A3 38 88 03 7D 00 00 
55049.850200 1 706 Rx d 8 1A C0 01 1A 00 7D 00 00 
55049.859300 1 702 Rx d 8 62 00 00 00 00 00 00 B0 
55049.859600 1 703 Rx d 8 49 92 24 31 D0 07 E5 DF 
55049.859800 1 704 Rx d 7 95 82 D8 98 83 22 22 
55049.860000 1 705 Rx d 8 86 A3 38 88 03 7D 00 00 
55049.860200 1 706 Rx d 8 1A C0 01 1A 00 7D 00 00 
55049.869300 1 702 Rx d 8 62 00 00 00 00 00 00 B0 
55049.869500 1 703 Rx d 8 49 94 24 39 DA 07 13 38 
55049.869800 1 704 Rx d 7 95 82 D9 98 83 22 22 
55049.870000 1 705 Rx d 8 86 A3 38 88 03 7D 00 00 
55049.870300 1 706 Rx d 8 1A C0 01 1A 00 7D 00 00 
55049.879300 1 702 Rx d 8 62 00 00 00 00 00 00 B0 
55049.879600 1 703 Rx d 8 49 94 24 01 2D 2C 2D 2D 
55049.879800 1 704 Rx d 7 95 82 D9 98 82 22 22 
55049.880000 1 705 Rx d 8 88 A3 38 88 03 7D 00 00 
55049.880300 1 706 Rx d 8 1A C0 01 1A 00 7D 00 00 
55049.889300 1 703 Rx d 8 49 94 28 09 2D 2D 00 40 
55049.889600 1 702 Rx d 8 62 00 00 00 00 00 00 B0 
55049.889800 1 704 Rx d 7 95 82 D9 98 82 22 22 
55049.890000 1 705 Rx d 8 86 A3 38 88 03 7D 00 00 
55049.890200 1 706 Rx d 8 1A C0 01 1A 00 7D 00 00 
55049.899300 1 702 Rx d 8 62 00 00 00 00 00 00 B0 
55049.899600 1 703 Rx d 8 49 94 28 11 00 00 7D 00 
55049.899800 1 704 Rx d 7 95 82 D8 98 83 22 22 
55049.900000 1 705 Rx d 8 86 A3 38 88 03 7D 00 00 
55049.900300 1 706 Rx d 8 1A C0 01 1A 00 7D 00 00 
55049.909300 1 703 Rx d 8 4A 94 28 19 00 00 72 79 
55049.909500 1 702 Rx d 8 62 00 00 00 00 00 00 B0 
55049.909700 1 704 Rx d 7 95 82 D8 98 83 22 22 
55049.910000 1 705 Rx d 8 86 A3 38 88 03 7D 00 00 
55049.910200 1 706 Rx d 8 1A C0 01 1A 00 7D 00 00 
55049.919300 1 703 Rx d 8 4A 94 28 21 36 33 89 30 
55049.919600 1 702 Rx d 8 62 00 00 00 00 00 00 B0 
55049.919800 1 704 Rx d 7 95 82 D9 98 82 22 22 
55049.920000 1 705 Rx d 8 86 A3 38 88 03 7D 00 00 
55049.920200 1 706 Rx d 8 1A C0 01 1A 00 7D 00 00 
55049.929300 1 703 Rx d 8 4A 94 28 29 A5 71 5D 05 
55049.929500 1 702 Rx d 8 62 00 00 00 00 00 00 B0 
55049.929700 1 704 Rx d 7 95 82 D9 98 83 22 22 
55049.930000 1 705 Rx d 8 86 A3 38 88 03 7D 00 00 
55049.930200 1 706 Rx d 8 1A C0 01 1A 00 7D 00 00 
55049.939300 1 702 Rx d 8 62 00 00 00 00 00 00 B0 
55049.939600 1 703 Rx d 8 4A 94 28 31 D0 07 E5 DF 
55049.939800 1 704 Rx d 7 95 82 D8 98 83 22 22 
55049.940000 1 705 Rx d 8 88 A3 38 88 03 7D 00 00 
55049.940200 1 706 Rx d 8 1A C0 01 1A 00 7D 00 00 
55049.942200 1 1003x Rx d 8 0F 3E 00 00 6F 00 00 00 
55049.942400 1 1002x Rx d 8 0F 3E 00 60 6F 00 00 00 
55049.942700 1 1042x Rx d 7 06 31 7E C1 64 25 0B 
55049.943000 1 1043x Rx d 7 06 31 7E FF FF FF FF 
55049.943200 1 1083x Rx d 7 00 40 00 02 00 7D 00 
55049.943500 1 10C3x Rx d 7 00 10 00 00 00 7D 00 
55049.943800 1 1103x Rx d 7 01 40 00 02 00 7D 00 
55049.944000 1 1142x Rx d 7 03 40 00 03 00 7D 00 
55049.944300 1 1182x Rx d 7 00 10 00 00 00 7D 00 
55049.944600 1 11C2x Rx d 7 00 40 00 02 00 7D 00 
55049.944900 1 1403x Rx d 7 00 80 00 05 00 7D 00 
55049.945200 1 1442x Rx d 7 00 80 00 05 00 7D 00 
55049.949300 1 702 Rx d 8 62 00 00 00 00 00 00 B0 
55049.949500 1 703 Rx d 8 4A 94 28 39 DA 07 13 38 
55049.949800 1 704 Rx d 7 95 82 D9 98 83 22 22 
55049.950000 1 705 Rx d 8 86 A3 38 88 03 7D 00 00 
55049.950200 1 706 Rx d 8 1A C0 01 1A 00 7D 00 00 
55049.959300 1 702 Rx d 8 62 00 00 00 00 00 00 B0 
55049.959600 1 703 Rx d 8 4A 94 28 01 2D 2C 2D 2D 
55049.959800 1 704 Rx d 7 95 82 D9 98 83 22 22 
55049.960000 1 705 Rx d 8 86 A3 38 88 03 7D 00 00 
55049.960300 1 706 Rx d 8 1A C0 01 1A 00 7D 00 00 
55049.969300 1 703 Rx d 8 4A 94 28 09 2D 2D 00 40 
55049.969600 1 702 Rx d 8 62 00 00 00 00 00 00 B0 
55049.969800 1 704 Rx d 7 95 82 D8 98 83 22 22 
55049.970000 1 705 Rx d 8 88 A3 38 88 03 7D 00 00 
55049.970200 1 706 Rx d 8 1A C0 01 1A 00 7D 00 00 
55049.979300 1 702 Rx d 8 62 00 00 00 00 00 00 B0 
55049.979500 1 703 Rx d 8 4A 94 28 11 00 00 7D 00 
55049.979800 1 704 Rx d 7 95 82 D9 98 82 22 22 
55049.980000 1 705 Rx d 8 86 A3 38 88 03 7D 00 00 
55049.980300 1 706 Rx d 8 1A C0 01 1A 00 7D 00 00 
55049.989400 1 702 Rx d 8 62 00 00 00 00 00 00 B0 
55049.989600 1 703 Rx d 8 4A 94 28 19 00 00 72 79 
55049.989800 1 704 Rx d 7 95 82 D9 98 83 22 22 
55049.990000 1 705 Rx d 8 86 A3 38 88 03 7D 00 00 
55049.990200 1 706 Rx d 8 1A C0 01 1A 00 7D 00 00 
55049.999300 1 703 Rx d 8 4A 94 28 21 36 33 89 30 
55049.999600 1 702 Rx d 8 62 00 00 00 00 00 00 B0 
55049.999800 1 704 Rx d 7 95 82 D8 98 83 22 22 
55050.000000 1 705 Rx d 8 86 A3 38 88 03 7D 00 00 
55050.000200 1 706 Rx d 8 1A C0 01 1A 00 7D 00 00 
55050.009300 1 703 Rx d 8 4A 96 28 29 A5 71 5D 05 
55050.009500 1 702 Rx d 8 62 00 00 00 00 00 00 B0 
55050.009700 1 704 Rx d 7 95 82 D9 98 83 22 22 
55050.010000 1 705 Rx d 8 86 A3 38 88 03 7D 00 00 
55050.010200 1 706 Rx d 8 1A C0 01 1A 00 7D 00 00 
55050.019300 1 702 Rx d 8 62 00 00 00 00 00 00 B0 
55050.019600 1 703 Rx d 8 4A 96 28 31 D0 07 E5 DF 
55050.019800 1 704 Rx d 7 95 82 D9 98 83 22 22 
55050.020000 1 705 Rx d 8 86 A3 38 88 03 7D 00 00 
55050.020200 1 706 Rx d 8 1A C0 01 1A 00 7D 00 00 
55050.029300 1 702 Rx d 8 62 00 00 00 00 00 00 B0 
55050.029600 1 703 Rx d 8 4A 96 28 39 DA 07 13 38 
55050.029800 1 704 Rx d 7 95 82 D9 98 83 22 22 
55050.030000 1 705 Rx d 8 86 A3 38 88 03 7D 00 00 
55050.030300 1 706 Rx d 8 1A C0 01 1A 00 7D 00 00 
55050.039400 1 702 Rx d 8 62 00 00 00 00 00 00 B0 
55050.039600 1 703 Rx d 8 4A 96 2C 01 2D 2C 2D 2D 
55050.039800 1 704 Rx d 7 95 82 D8 98 83 22 22 
55050.040000 1 705 Rx d 8 86 A3 38 88 03 7D 00 00 
55050.040300 1 706 Rx d 8 1A C0 01 1A 00 7D 00 00 
55050.042100 1 1003x Rx d 8 0F 3E 00 20 5F 00 00 00 
55050.042400 1 1002x Rx d 8 0F 3E 00 80 5F 00 00 00 
55050.042700 1 1042x Rx d 7 07 00 00 00 00 00 00 
55050.043000 1 1043x Rx d 7 07 00 00 00 00 00 00 
55050.043300 1 1083x Rx d 7 00 40 00 02 00 7D 00 
55050.043500 1 10C3x Rx d 7 00 10 00 00 00 7D 00 
55050.043800 1 1103x Rx d 7 01 40 00 02 00 7D 00 
55050.044100 1 1142x Rx d 7 03 40 00 03 00 7D 00 
55050.044400 1 1182x Rx d 7 00 10 00 00 00 7D 00 
55050.044700 1 11C2x Rx d 7 00 40 00 02 00 7D 00 
55050.044900 1 1403x Rx d 7 00 80 00 05 00 7D 00 
55050.045200 1 1442x Rx d 7 00 80 00 05 00 7D 00 
55050.049300 1 702 Rx d 8 62 00 00 00 00 00 00 B0 
55050.049600 1 703 Rx d 8 4B 96 2C 09 2D 2D 00 40 
55050.049800 1 704 Rx d 7 95 82 D8 98 82 22 22 
55050.050000 1 705 Rx d 8 86 A3 38 88 03 7D 00 00 
55050.050200 1 706 Rx d 8 1A C0 01 1A 00 7D 00 00 
55050.059300 1 702 Rx d 8 62 00 00 00 00 00 00 B0 
55050.059600 1 703 Rx d 8 4B 96 2C 11 00 00 7D 00 
55050.059800 1 704 Rx d 7 95 82 D8 98 83 22 22 
55050.060000 1 705 Rx d 8 86 A3 38 88 03 7D 00 00 
55050.060300 1 706 Rx d 8 1A C0 01 1A 00 7D 00 00 
55050.069300 1 703 Rx d 8 4B 96 2C 19 00 00 72 79 
55050.069600 1 702 Rx d 8 62 00 00 00 00 00 00 B0 
55050.069800 1 704 Rx d 7 95 82 D8 98 82 22 22 
55050.070000 1 705 Rx d 8 86 A3 38 88 03 7D 00 00 
55050.070300 1 706 Rx d 8 1A C0 01 1A 00 7D 00 00 
55050.079300 1 703 Rx d 8 4B 96 2C 21 36 33 89 30 
55050.079600 1 702 Rx d 8 62 00 00 00 00 00 00 B0 
55050.079800 1 704 Rx d 7 95 82 D9 98 83 22 22 
55050.080000 1 705 Rx d 8 86 A3 38 88 03 7D 00 00 
55050.080200 1 706 Rx d 8 1A C0 01 1A 00 7D 00 00 
55050.089300 1 702 Rx d 8 62 00 00 00 00 00 00 B0 
55050.089500 1 703 Rx d 8 4B 96 2C 29 A5 71 5D 05 
55050.089800 1 704 Rx d 7 95 82 D9 98 83 22 22 
55050.090000 1 705 Rx d 8 86 A3 38 88 03 7D 00 00 
55050.090300 1 706 Rx d 8 1A C0 01 1A 00 7D 00 00 
55050.099400 1 702 Rx d 8 62 00 00 00 00 00 00 B0 
55050.099600 1 703 Rx d 8 4B 96 2C 31 D0 07 E5 DF 
55050.099800 1 704 Rx d 7 95 82 D9 98 83 22 22 
55050.100000 1 705 Rx d 8 86 A3 38 88 03 7D 00 00 
55050.100300 1 706 Rx d 8 1A C0 01 1A 00 7D 00 00 
