***BUSMASTER Ver 3.2.2***
***PROTOCOL CAN***
***NOTE: PLEASE DO NOT EDIT THIS DOCUMENT***
***[START LOGGING SESSION]***
***START DATE AND TIME 13:2:2026 15:15:59:664***
***HEX***
***SYSTEM MODE***
***START CHANNEL BAUD RATE***
***CHANNEL 1 - PCAN-USB Driver Id 16 - 500000 bps***
***END CHANNEL BAUD RATE***
***START DATABASE FILES***
***C:\Users\andre\OneDrive - Delft University of Technology\AeroDelft\GitHub\DICON\assets\dbc_files\BLS_046_00_MSG_00.dbf***
***C:\Users\andre\OneDrive - Delft University of Technology\AeroDelft\GitHub\DICON\assets\dbc_files\BLS_102_00_MSG_00.dbf***
***C:\Users\andre\OneDrive - Delft University of Technology\AeroDelft\GitHub\DICON\assets\dbc_files\External_Coms.dbf***
***END DATABASE FILES***
***<Time><Tx/Rx><Channel><CAN ID><Type><DLC><DataBytes>***
15:17:26:9195 Rx 22 0x8100A001 xr 0 
15:17:26:9198 Rx 1 0x781 s 3 08 00 00 
15:17:26:9198 Rx 1 0xFF07 s 3 08 00 00 
15:17:26:9201 Rx 1 0x789 s 3 08 00 00 
15:17:26:9201 Rx 1 0x701 s 3 08 00 00 
15:17:26:9332 Rx 1 0xFFFF103 x 3 08 00 00 
15:17:26:9332 Rx 1 0xFFFF101 x 3 08 00 00 
15:17:26:9333 Rx 1 0xFFFF102 x 3 08 00 00 
15:17:26:9333 Rx 1 0xFFFF101 x 3 08 00 00 
15:17:26:9339 Rx 1 0xFFFF143 x 3 08 00 00 
15:17:26:9339 Rx 1 0xFFFF101 x 3 08 00 00 
15:17:26:9341 Rx 1 0xFFFF142 x 3 08 00 00 
15:17:26:9341 Rx 1 0xFFFF101 x 3 08 00 00 
15:17:26:9595 Rx 1 0x781 s 3 08 00 00 
15:17:26:9595 Rx 1 0x701 s 3 08 00 00 
15:17:26:9601 Rx 1 0x789 s 3 08 00 00 
15:17:26:9601 Rx 1 0x701 s 3 08 00 00 
15:17:26:9731 Rx 1 0xFFFF103 x 3 08 00 00 
15:17:26:9731 Rx 1 0xFFFF101 x 3 08 00 00 
15:17:26:9734 Rx 1 0xFFFF102 x 3 08 00 00 
15:17:26:9734 Rx 1 0xFFFF101 x 3 08 00 00 
15:17:26:9739 Rx 1 0xFFFF143 x 3 08 00 00 
15:17:26:9739 Rx 1 0xFFFF101 x 3 08 00 00 
15:17:26:9741 Rx 1 0xFFFF142 x 3 08 00 00 
15:17:26:9741 Rx 1 0xFFFF101 x 3 08 00 00 
15:17:26:9995 Rx 1 0x781 s 3 08 00 00 
15:17:26:9995 Rx 1 0x701 s 3 08 00 00 
15:17:27:0001 Rx 1 0x789 s 3 08 00 00 
15:17:27:0001 Rx 1 0x701 s 3 08 00 00 
15:17:27:0131 Rx 1 0xFFFF103 x 3 08 00 00 
15:17:27:0131 Rx 1 0xFFFF101 x 3 08 00 00 
15:17:27:0133 Rx 1 0xFFFF102 x 3 08 00 00 
15:17:27:0133 Rx 1 0xFFFF101 x 3 08 00 00 
15:17:27:0139 Rx 1 0xFFFF143 x 3 08 00 00 
15:17:27:0139 Rx 1 0xFFFF101 x 3 08 00 00 
15:17:27:0141 Rx 1 0xFFFF142 x 3 08 00 00 
15:17:27:0141 Rx 1 0xFFFF101 x 3 08 00 00 
15:17:27:0395 Rx 1 0x781 s 3 08 00 00 
15:17:27:0395 Rx 1 0x701 s 3 08 00 00 
15:17:27:0401 Rx 1 0x789 s 3 08 00 00 
15:17:27:0401 Rx 1 0x701 s 3 08 00 00 
15:17:27:0531 Rx 1 0xFFFF103 x 3 08 00 00 
15:17:27:0531 Rx 1 0xFFFF101 x 3 08 00 00 
15:17:27:0533 Rx 1 0xFFFF102 x 3 08 00 00 
15:17:27:0533 Rx 1 0xFFFF101 x 3 08 00 00 
15:17:27:0539 Rx 1 0xFFFF143 x 3 08 00 00 
15:17:27:0539 Rx 1 0xFFFF101 x 3 08 00 00 
15:17:27:0541 Rx 1 0xFFFF142 x 3 08 00 00 
15:17:27:0541 Rx 1 0xFFFF101 x 3 08 00 00 
15:17:27:0795 Rx 1 0x781 s 3 08 00 00 
15:17:27:0795 Rx 1 0x701 s 3 08 00 00 
15:17:27:0801 Rx 1 0x789 s 3 08 00 00 
15:17:27:0801 Rx 1 0x701 s 3 08 00 00 
15:17:27:0931 Rx 1 0xFFFF103 x 3 08 00 00 
15:17:27:0931 Rx 1 0xFFFF101 x 3 08 00 00 
15:17:27:0933 Rx 1 0xFFFF102 x 3 08 00 00 
15:17:27:0933 Rx 1 0xFFFF101 x 3 08 00 00 
15:17:27:0939 Rx 1 0xFFFF143 x 3 08 00 00 
15:17:27:0939 Rx 1 0xFFFF101 x 3 08 00 00 
15:17:27:0940 Rx 1 0xFFFF142 x 3 08 00 00 
15:17:27:0940 Rx 1 0xFFFF101 x 3 08 00 00 
15:17:27:1195 Rx 1 0x781 s 3 08 00 00 
15:17:27:1195 Rx 1 0x701 s 3 08 00 00 
15:17:27:1201 Rx 1 0x789 s 3 08 00 00 
15:17:27:1201 Rx 1 0x704 s 3 08 00 00 
15:17:27:1205 Rx 1 0x781 s 3 0B 00 00 
15:17:27:1205 Rx 1 0x704 s 3 0B 00 00 
15:17:27:1262 Rx 1 0x781 s 3 0B 00 00 
15:17:27:1262 Rx 1 0x701 s 3 0B 00 00 
15:17:27:1264 Rx 1 0x789 s 3 0B 00 00 
15:17:27:1264 Rx 1 0x701 s 3 0B 00 00 
15:17:27:1266 Rx 1 0x5E00A001 x 0 
15:17:27:1331 Rx 1 0xFFFF103 x 3 08 00 00 
15:17:27:1331 Rx 1 0xFFFF101 x 3 08 00 00 
15:17:27:1333 Rx 1 0xFFFF102 x 3 08 00 00 
15:17:27:1333 Rx 1 0xFFFF101 x 3 08 00 00 
15:17:27:1339 Rx 1 0xFFFF143 x 3 08 00 00 
15:17:27:1339 Rx 1 0xFFFF101 x 3 08 00 00 
15:17:27:1341 Rx 1 0xFFFF142 x 3 08 00 00 
15:17:27:1341 Rx 1 0xFFFF101 x 3 08 00 00 
15:17:27:1342 Rx 1 0xFFFF103 x 3 0B 00 00 
15:17:27:1342 Rx 1 0xFFFF101 x 3 0B 00 00 
15:17:27:1344 Rx 1 0xFFFF102 x 3 0B 00 00 
15:17:27:1344 Rx 1 0xFFFF101 x 3 0B 00 00 
15:17:27:1592 Rx 1 0x702 s 8 22 00 00 00 00 00 00 30 
15:17:27:1592 Rx 1 0x701 s 8 22 00 00 00 00 00 00 30 
15:17:27:1595 Rx 1 0x703 s 8 0F 20 3C 00 2D 2C 2D 2D 
15:17:27:1595 Rx 1 0x704 s 8 0F 20 3C 00 2D 2C 2D 2D 
15:17:27:1604 Rx 1 0x704 s 7 95 82 D9 98 82 22 22 
15:17:27:1604 Rx 1 0x704 s 7 95 82 D9 98 82 22 22 
15:17:27:1605 Rx 1 0x705 s 8 88 A3 38 88 03 7D 00 00 
15:17:27:1605 Rx 1 0x701 s 8 88 A3 38 88 03 7D 00 00 
15:17:27:1605 Rx 1 0x706 s 8 20 20 02 20 00 7D 00 00 
15:17:27:1605 Rx 1 0x701 s 8 20 20 02 20 00 7D 00 00 
15:17:27:1693 Rx 1 0x702 s 8 22 00 00 00 00 00 00 30 
15:17:27:1693 Rx 1 0x701 s 8 22 00 00 00 00 00 00 30 
15:17:27:1695 Rx 1 0x703 s 8 0F 20 40 08 2D 2D 00 20 
15:17:27:1695 Rx 1 0x701 s 8 0F 20 40 08 2D 2D 00 20 
15:17:27:1697 Rx 1 0x704 s 7 95 82 D9 98 82 22 22 
15:17:27:1697 Rx 1 0x701 s 7 95 82 D9 98 82 22 22 
15:17:27:1699 Rx 1 0x705 s 8 86 A3 38 88 03 7D 00 00 
15:17:27:1699 Rx 1 0x701 s 8 86 A3 38 88 03 7D 00 00 
15:17:27:1702 Rx 1 0x706 s 8 20 20 02 20 00 7D 00 00 
15:17:27:1702 Rx 1 0x701 s 8 20 20 02 20 00 7D 00 00 
15:17:27:1792 Rx 1 0x702 s 8 22 00 00 00 00 00 00 B0 
15:17:27:1792 Rx 1 0x701 s 8 22 00 00 00 00 00 00 B0 
15:17:27:1795 Rx 1 0x703 s 8 10 20 40 10 00 00 7D 00 
15:17:27:1795 Rx 1 0x701 s 8 10 20 40 10 00 00 7D 00 
15:17:27:1797 Rx 1 0x704 s 7 95 82 D9 98 82 22 22 
15:17:27:1797 Rx 1 0x701 s 7 95 82 D9 98 82 22 22 
15:17:27:1799 Rx 1 0x705 s 8 88 A3 38 88 03 7D 00 00 
15:17:27:1799 Rx 1 0x701 s 8 88 A3 38 88 03 7D 00 00 
15:17:27:1802 Rx 1 0x706 s 8 1E 00 02 20 00 7D 00 00 
15:17:27:1802 Rx 1 0x701 s 8 1E 00 02 20 00 7D 00 00 
15:17:27:1893 Rx 1 0x702 s 8 22 00 00 00 00 00 00 B0 
15:17:27:1893 Rx 1 0x701 s 8 22 00 00 00 00 00 00 B0 
15:17:27:1895 Rx 1 0x703 s 8 10 22 44 18 00 00 72 79 
15:17:27:1895 Rx 1 0x701 s 8 10 22 44 18 00 00 72 79 
15:17:27:1897 Rx 1 0x704 s 7 95 82 D8 98 82 22 22 
15:17:27:1897 Rx 1 0x701 s 7 95 82 D8 98 82 22 22 
15:17:27:1900 Rx 1 0x705 s 8 88 A3 38 88 03 7D 00 00 
15:17:27:1900 Rx 1 0x701 s 8 88 A3 38 88 03 7D 00 00 
15:17:27:1902 Rx 1 0x706 s 8 1E 00 02 1E 00 7D 00 00 
15:17:27:1902 Rx 1 0x701 s 8 1E 00 02 1E 00 7D 00 00 
15:17:27:1993 Rx 1 0x702 s 8 22 00 00 00 00 00 00 B0 
15:17:27:1993 Rx 1 0x701 s 8 22 00 00 00 00 00 00 B0 
15:17:27:1995 Rx 1 0x703 s 8 11 22 44 20 36 33 89 30 
15:17:27:1995 Rx 1 0x701 s 8 11 22 44 20 36 33 89 30 
15:17:27:1997 Rx 1 0x704 s 7 95 82 D9 98 82 22 22 
15:17:27:1997 Rx 1 0x701 s 7 95 82 D9 98 82 22 22 
15:17:27:1999 Rx 1 0x705 s 8 88 A3 38 88 03 7D 00 00 
15:17:27:1999 Rx 1 0x701 s 8 88 A3 38 88 03 7D 00 00 
15:17:27:2002 Rx 1 0x706 s 8 1E 00 02 1E 00 7D 00 00 
15:17:27:2002 Rx 1 0x701 s 8 1E 00 02 1E 00 7D 00 00 
15:17:27:2092 Rx 1 0x702 s 8 22 00 00 00 00 00 00 B0 
15:17:27:2092 Rx 1 0x701 s 8 22 00 00 00 00 00 00 B0 
15:17:27:2095 Rx 1 0x703 s 8 11 22 44 28 A5 71 5D 05 
15:17:27:2095 Rx 1 0x701 s 8 11 22 44 28 A5 71 5D 05 
15:17:27:2097 Rx 1 0x704 s 7 95 82 D9 98 82 22 22 
15:17:27:2097 Rx 1 0x701 s 7 95 82 D9 98 82 22 22 
15:17:27:2099 Rx 1 0x705 s 8 88 A3 38 88 03 7D 00 00 
15:17:27:2099 Rx 1 0x701 s 8 88 A3 38 88 03 7D 00 00 
15:17:27:2102 Rx 1 0x706 s 8 1E 00 02 1E 00 7D 00 00 
15:17:27:2102 Rx 1 0x701 s 8 1E 00 02 1E 00 7D 00 00 
15:17:27:2193 Rx 1 0x702 s 8 22 00 00 00 00 00 00 B0 
15:17:27:2193 Rx 1 0x701 s 8 22 00 00 00 00 00 00 B0 
15:17:27:2195 Rx 1 0x703 s 8 11 24 48 30 D0 07 E5 DF 
15:17:27:2195 Rx 1 0x701 s 8 11 24 48 30 D0 07 E5 DF 
15:17:27:2197 Rx 1 0x704 s 7 95 82 D9 98 82 22 22 
15:17:27:2197 Rx 1 0x701 s 7 95 82 D9 98 82 22 22 
15:17:27:2200 Rx 1 0x705 s 8 86 A3 38 88 03 7D 00 00 
15:17:27:2200 Rx 1 0x701 s 8 86 A3 38 88 03 7D 00 00 
15:17:27:2202 Rx 1 0x706 s 8 1E 00 02 1E 00 7D 00 00 
15:17:27:2202 Rx 1 0x701 s 8 1E 00 02 1E 00 7D 00 00 
15:17:27:2293 Rx 1 0x702 s 8 22 00 00 00 00 00 00 B0 
15:17:27:2293 Rx 1 0x701 s 8 22 00 00 00 00 00 00 B0 
15:17:27:2295 Rx 1 0x703 s 8 12 24 48 38 DA 07 13 38 
15:17:27:2295 Rx 1 0x701 s 8 12 24 48 38 DA 07 13 38 
15:17:27:2297 Rx 1 0x704 s 7 95 82 D9 98 83 22 22 
15:17:27:2297 Rx 1 0x701 s 7 95 82 D9 98 83 22 22 
15:17:27:2299 Rx 1 0x705 s 8 86 A3 38 88 03 7D 00 00 
15:17:27:2299 Rx 1 0x701 s 8 86 A3 38 88 03 7D 00 00 
15:17:27:2302 Rx 1 0x706 s 8 1E 00 02 1E 00 7D 00 00 
15:17:27:2302 Rx 1 0x701 s 8 1E 00 02 1E 00 7D 00 00 
15:17:27:2392 Rx 1 0x702 s 8 22 00 00 00 00 00 00 B0 
15:17:27:2392 Rx 1 0x701 s 8 22 00 00 00 00 00 00 B0 
15:17:27:2395 Rx 1 0x703 s 8 12 26 48 00 2D 2C 2D 2D 
15:17:27:2395 Rx 1 0x701 s 8 12 26 48 00 2D 2C 2D 2D 
15:17:27:2397 Rx 1 0x704 s 7 95 82 D9 98 82 22 22 
15:17:27:2397 Rx 1 0x701 s 7 95 82 D9 98 82 22 22 
15:17:27:2399 Rx 1 0x705 s 8 88 A3 38 88 03 7D 00 00 
15:17:27:2399 Rx 1 0x701 s 8 88 A3 38 88 03 7D 00 00 
15:17:27:2402 Rx 1 0x706 s 8 1C 00 02 1E 00 7D 00 00 
15:17:27:2402 Rx 1 0x701 s 8 1C 00 02 1E 00 7D 00 00 
15:17:27:2421 Rx 1 0x1003 x 8 02 12 04 00 64 00 00 00 
15:17:27:2421 Rx 1 0x1001 x 8 02 12 04 00 64 00 00 00 
15:17:27:2424 Rx 1 0x1002 x 8 02 12 04 60 64 00 00 00 
15:17:27:2424 Rx 1 0x1001 x 8 02 12 04 60 64 00 00 00 
15:17:27:2492 Rx 1 0x703 s 8 12 26 4C 08 2D 2D 00 40 
15:17:27:2492 Rx 1 0x701 s 8 12 26 4C 08 2D 2D 00 40 
15:17:27:2495 Rx 1 0x702 s 8 22 00 00 00 00 00 00 B0 
15:17:27:2495 Rx 1 0x701 s 8 22 00 00 00 00 00 00 B0 
15:17:27:2497 Rx 1 0x704 s 7 95 82 D9 98 82 22 22 
15:17:27:2497 Rx 1 0x701 s 7 95 82 D9 98 82 22 22 
15:17:27:2499 Rx 1 0x705 s 8 88 A3 38 88 03 7D 00 00 
15:17:27:2499 Rx 1 0x701 s 8 88 A3 38 88 03 7D 00 00 
15:17:27:2502 Rx 1 0x706 s 8 1C E0 01 1E 00 7D 00 00 
15:17:27:2502 Rx 1 0x701 s 8 1C E0 01 1E 00 7D 00 00 
15:17:27:2592 Rx 1 0x702 s 8 22 00 00 00 00 00 00 B0 
15:17:27:2592 Rx 1 0x701 s 8 22 00 00 00 00 00 00 B0 
15:17:27:2595 Rx 1 0x703 s 8 13 26 4C 10 00 00 7D 00 
15:17:27:2595 Rx 1 0x701 s 8 13 26 4C 10 00 00 7D 00 
15:17:27:2597 Rx 1 0x704 s 7 95 82 D9 98 82 22 22 
15:17:27:2597 Rx 1 0x701 s 7 95 82 D9 98 82 22 22 
15:17:27:2599 Rx 1 0x705 s 8 86 A3 38 88 03 7D 00 00 
15:17:27:2599 Rx 1 0x701 s 8 86 A3 38 88 03 7D 00 00 
15:17:27:2602 Rx 1 0x706 s 8 1C E0 01 1E 00 7D 00 00 
15:17:27:2602 Rx 1 0x701 s 8 1C E0 01 1E 00 7D 00 00 
15:17:27:2692 Rx 1 0x702 s 8 22 00 00 00 00 00 00 B0 
15:17:27:2692 Rx 1 0x701 s 8 22 00 00 00 00 00 00 B0 
15:17:27:2695 Rx 1 0x703 s 8 13 28 4C 18 00 00 72 79 
15:17:27:2695 Rx 1 0x701 s 8 13 28 4C 18 00 00 72 79 
15:17:27:2697 Rx 1 0x704 s 7 95 82 D9 98 82 22 22 
15:17:27:2697 Rx 1 0x701 s 7 95 82 D9 98 82 22 22 
15:17:27:2699 Rx 1 0x705 s 8 88 A3 38 88 03 7D 00 00 
15:17:27:2699 Rx 1 0x701 s 8 88 A3 38 88 03 7D 00 00 
15:17:27:2702 Rx 1 0x706 s 8 1C E0 01 1C 00 7D 00 00 
15:17:27:2702 Rx 1 0x701 s 8 1C E0 01 1C 00 7D 00 00 
15:17:27:2792 Rx 1 0x702 s 8 22 00 00 00 00 00 00 B0 
15:17:27:2792 Rx 1 0x701 s 8 22 00 00 00 00 00 00 B0 
15:17:27:2795 Rx 1 0x703 s 8 13 28 50 20 36 33 89 30 
15:17:27:2795 Rx 1 0x701 s 8 13 28 50 20 36 33 89 30 
15:17:27:2797 Rx 1 0x704 s 7 95 82 D8 98 82 22 22 
15:17:27:2797 Rx 1 0x701 s 7 95 82 D8 98 82 22 22 
15:17:27:2799 Rx 1 0x705 s 8 86 A3 38 88 03 7D 00 00 
15:17:27:2799 Rx 1 0x701 s 8 86 A3 38 88 03 7D 00 00 
15:17:27:2802 Rx 1 0x706 s 8 1C E0 01 1C 00 7D 00 00 
15:17:27:2802 Rx 1 0x701 s 8 1C E0 01 1C 00 7D 00 00 
15:17:27:2892 Rx 1 0x702 s 8 22 00 00 00 00 00 00 B0 
15:17:27:2892 Rx 1 0x701 s 8 22 00 00 00 00 00 00 B0 
15:17:27:2895 Rx 1 0x703 s 8 14 28 50 28 A5 71 5D 05 
15:17:27:2895 Rx 1 0x701 s 8 14 28 50 28 A5 71 5D 05 
15:17:27:2897 Rx 1 0x704 s 7 95 82 D9 98 82 22 22 
15:17:27:2897 Rx 1 0x701 s 7 95 82 D9 98 82 22 22 
15:17:27:2899 Rx 1 0x705 s 8 88 A3 38 88 03 7D 00 00 
15:17:27:2899 Rx 1 0x701 s 8 88 A3 38 88 03 7D 00 00 
15:17:27:2901 Rx 1 0x706 s 8 1C E0 01 1C 00 7D 00 00 
15:17:27:2901 Rx 1 0x701 s 8 1C E0 01 1C 00 7D 00 00 
15:17:27:2992 Rx 1 0x702 s 8 22 00 00 00 00 00 00 B0 
15:17:27:2992 Rx 1 0x701 s 8 22 00 00 00 00 00 00 B0 
15:17:27:2995 Rx 1 0x703 s 8 14 2A 50 30 D0 07 E5 DF 
15:17:27:2995 Rx 1 0x701 s 8 14 2A 50 30 D0 07 E5 DF 
15:17:27:2997 Rx 1 0x704 s 7 95 82 D9 98 83 22 22 
15:17:27:2997 Rx 1 0x701 s 7 95 82 D9 98 83 22 22 
15:17:27:2999 Rx 1 0x705 s 8 88 A3 38 88 03 7D 00 00 
15:17:27:2999 Rx 1 0x701 s 8 88 A3 38 88 03 7D 00 00 
15:17:27:3002 Rx 1 0x706 s 8 1C E0 01 1C 00 7D 00 00 
15:17:27:3002 Rx 1 0x701 s 8 1C E0 01 1C 00 7D 00 00 
15:17:27:3093 Rx 1 0x702 s 8 22 00 00 00 00 00 00 B0 
15:17:27:3093 Rx 1 0x701 s 8 22 00 00 00 00 00 00 B0 
15:17:27:3095 Rx 1 0x703 s 8 14 2A 54 38 DA 07 13 38 
15:17:27:3095 Rx 1 0x701 s 8 14 2A 54 38 DA 07 13 38 
15:17:27:3097 Rx 1 0x704 s 7 95 82 D9 98 82 22 22 
15:17:27:3097 Rx 1 0x701 s 7 95 82 D9 98 82 22 22 
15:17:27:3099 Rx 1 0x705 s 8 86 A3 38 88 03 7D 00 00 
15:17:27:3099 Rx 1 0x701 s 8 86 A3 38 88 03 7D 00 00 
15:17:27:3102 Rx 1 0x706 s 8 1C E0 01 1C 00 7D 00 00 
15:17:27:3102 Rx 1 0x701 s 8 1C E0 01 1C 00 7D 00 00 
15:17:27:3192 Rx 1 0x702 s 8 22 00 00 00 00 00 00 B0 
15:17:27:3192 Rx 1 0x701 s 8 22 00 00 00 00 00 00 B0 
15:17:27:3195 Rx 1 0x703 s 8 15 2A 54 00 2D 2C 2D 2D 
15:17:27:3195 Rx 1 0x701 s 8 15 2A 54 00 2D 2C 2D 2D 
15:17:27:3197 Rx 1 0x704 s 7 95 82 D9 98 82 22 22 
15:17:27:3197 Rx 1 0x701 s 7 95 82 D9 98 82 22 22 
15:17:27:3199 Rx 1 0x705 s 8 86 A3 38 88 03 7D 00 00 
15:17:27:3199 Rx 1 0x701 s 8 86 A3 38 88 03 7D 00 00 
15:17:27:3202 Rx 1 0x706 s 8 1C E0 01 1C 00 7D 00 00 
15:17:27:3202 Rx 1 0x701 s 8 1C E0 01 1C 00 7D 00 00 
15:17:27:3293 Rx 1 0x702 s 8 22 00 00 00 00 00 00 B0 
15:17:27:3293 Rx 1 0x701 s 8 22 00 00 00 00 00 00 B0 
15:17:27:3295 Rx 1 0x703 s 8 15 2C 58 08 2D 2D 00 40 
15:17:27:3295 Rx 1 0x701 s 8 15 2C 58 08 2D 2D 00 40 
15:17:27:3297 Rx 1 0x704 s 7 95 82 D9 98 82 22 22 
15:17:27:3297 Rx 1 0x701 s 7 95 82 D9 98 82 22 22 
15:17:27:3299 Rx 1 0x705 s 8 88 A3 38 88 03 7D 00 00 
15:17:27:3299 Rx 1 0x701 s 8 88 A3 38 88 03 7D 00 00 
15:17:27:3302 Rx 1 0x706 s 8 1C E0 01 1C 00 7D 00 00 
15:17:27:3302 Rx 1 0x701 s 8 1C E0 01 1C 00 7D 00 00 
15:17:27:3393 Rx 1 0x702 s 8 22 00 00 00 00 00 00 B0 
15:17:27:3393 Rx 1 0x701 s 8 22 00 00 00 00 00 00 B0 
15:17:27:3395 Rx 1 0x703 s 8 16 2C 58 10 00 00 7D 00 
15:17:27:3395 Rx 1 0x701 s 8 16 2C 58 10 00 00 7D 00 
15:17:27:3397 Rx 1 0x704 s 7 95 82 D9 98 82 22 22 
15:17:27:3397 Rx 1 0x701 s 7 95 82 D9 98 82 22 22 
15:17:27:3399 Rx 1 0x705 s 8 88 A3 38 88 03 7D 00 00 
15:17:27:3399 Rx 1 0x701 s 8 88 A3 38 88 03 7D 00 00 
15:17:27:3402 Rx 1 0x706 s 8 1C E0 01 1C 00 7D 00 00 
15:17:27:3402 Rx 1 0x701 s 8 1C E0 01 1C 00 7D 00 00 
15:17:27:3422 Rx 1 0x1003 x 8 04 12 00 20 54 00 00 00 
15:17:27:3422 Rx 1 0x1001 x 8 04 12 00 20 54 00 00 00 
15:17:27:3425 Rx 1 0x1002 x 8 04 12 00 80 54 00 00 00 
15:17:27:3427 Rx 1 0x1042 x 7 00 59 A4 A5 83 00 00 
15:17:27:3430 Rx 1 0x1043 x 7 00 58 A4 A5 83 00 00 
15:17:27:3433 Rx 1 0x1083 x 7 00 10 00 00 00 7D 00 
15:17:27:3435 Rx 1 0x10C3 x 7 00 10 00 00 00 7D 00 
15:17:27:3438 Rx 1 0x1103 x 7 00 20 00 01 00 7D 00 
15:17:27:3441 Rx 1 0x1142 x 7 00 20 00 02 00 7D 00 
15:17:27:3443 Rx 1 0x1182 x 7 00 10 00 00 00 7D 00 
15:17:27:3446 Rx 1 0x11C2 x 7 00 20 00 00 00 7D 00 
15:17:27:3449 Rx 1 0x1403 x 7 00 50 00 02 00 7D 00 
15:17:27:3451 Rx 1 0x1442 x 7 00 50 00 02 00 7D 00 
15:17:27:3493 Rx 1 0x702 s 8 22 00 00 00 00 00 00 B0 
15:17:27:3495 Rx 1 0x703 s 8 16 2C 58 18 00 00 72 79 
15:17:27:3497 Rx 1 0x704 s 7 95 82 D9 98 83 22 22 
15:17:27:3500 Rx 1 0x705 s 8 86 A3 38 88 03 7D 00 00 
15:17:27:3502 Rx 1 0x706 s 8 1C E0 01 1C 00 7D 00 00 
15:17:27:3593 Rx 1 0x702 s 8 22 00 00 00 00 00 00 B0 
15:17:27:3595 Rx 1 0x703 s 8 16 2E 5C 20 36 33 89 30 
15:17:27:3597 Rx 1 0x704 s 7 95 82 D9 98 82 22 22 
15:17:27:3599 Rx 1 0x705 s 8 88 A3 38 88 03 7D 00 00 
15:17:27:3602 Rx 1 0x706 s 8 1A C0 01 1C 00 7D 00 00 
15:17:27:3692 Rx 1 0x702 s 8 22 00 00 00 00 00 00 B0 
15:17:27:3695 Rx 1 0x703 s 8 17 2E 5C 28 A5 71 5D 05 
15:17:27:3697 Rx 1 0x704 s 7 95 82 D8 98 82 22 22 
15:17:27:3699 Rx 1 0x705 s 8 88 A3 38 88 03 7D 00 00 
15:17:27:3702 Rx 1 0x706 s 8 1A C0 01 1C 00 7D 00 00 
15:17:27:3793 Rx 1 0x702 s 8 22 00 00 00 00 00 00 B0 
15:17:27:3795 Rx 1 0x703 s 8 17 2E 5C 30 D0 07 E5 DF 
15:17:27:3797 Rx 1 0x704 s 7 95 82 D9 98 83 22 22 
15:17:27:3800 Rx 1 0x705 s 8 86 A3 38 88 03 7D 00 00 
15:17:27:3802 Rx 1 0x706 s 8 1A C0 01 1A 00 7D 00 00 
15:17:27:3893 Rx 1 0x702 s 8 22 00 00 00 00 00 00 B0 
15:17:27:3895 Rx 1 0x703 s 8 17 30 60 38 DA 07 13 38 
15:17:27:3897 Rx 1 0x704 s 7 95 82 D9 98 82 22 22 
15:17:27:3899 Rx 1 0x705 s 8 86 A3 38 88 03 7D 00 00 
15:17:27:3902 Rx 1 0x706 s 8 1A C0 01 1A 00 7D 00 00 
15:17:27:3992 Rx 1 0x702 s 8 22 00 00 00 00 00 00 B0 
15:17:27:3995 Rx 1 0x703 s 8 18 30 60 00 2D 2C 2D 2D 
15:17:27:3997 Rx 1 0x704 s 7 95 82 D9 98 82 22 22 
15:17:27:4000 Rx 1 0x705 s 8 86 A3 38 88 03 7D 00 00 
15:17:27:4002 Rx 1 0x706 s 8 1A C0 01 1A 00 7D 00 00 
15:17:27:4092 Rx 1 0x703 s 8 18 30 60 08 2D 2D 00 40 
15:17:27:4095 Rx 1 0x702 s 8 22 00 00 00 00 00 00 B0 
15:17:27:4097 Rx 1 0x704 s 7 95 82 D9 98 82 22 22 
15:17:27:4099 Rx 1 0x705 s 8 88 A3 38 88 03 7D 00 00 
15:17:27:4102 Rx 1 0x706 s 8 1A C0 01 1A 00 7D 00 00 
15:17:27:4193 Rx 1 0x702 s 8 22 00 00 00 00 00 00 B0 
15:17:27:4195 Rx 1 0x703 s 8 18 32 64 10 00 00 7D 00 
15:17:27:4197 Rx 1 0x704 s 7 95 82 D9 98 83 22 22 
15:17:27:4199 Rx 1 0x705 s 8 88 A3 38 88 03 7D 00 00 
15:17:27:4202 Rx 1 0x706 s 8 1A C0 01 1A 00 7D 00 00 
15:17:27:4292 Rx 1 0x702 s 8 22 00 00 00 00 00 00 B0 
15:17:27:4295 Rx 1 0x703 s 8 19 32 64 18 00 00 72 79 
15:17:27:4297 Rx 1 0x704 s 7 95 82 D9 98 82 22 22 
15:17:27:4299 Rx 1 0x705 s 8 86 A3 38 88 03 7D 00 00 
15:17:27:4302 Rx 1 0x706 s 8 1A C0 01 1A 00 7D 00 00 
15:17:27:4392 Rx 1 0x702 s 8 22 00 00 00 00 00 00 B0 
15:17:27:4395 Rx 1 0x703 s 8 19 32 64 20 36 33 89 30 
15:17:27:4397 Rx 1 0x704 s 7 95 82 D9 98 82 22 22 
15:17:27:4399 Rx 1 0x705 s 8 88 A3 38 88 03 7D 00 00 
15:17:27:4402 Rx 1 0x706 s 8 1A C0 01 1A 00 7D 00 00 
15:17:27:4422 Rx 1 0x1003 x 8 04 12 00 40 64 00 00 00 
15:17:27:4424 Rx 1 0x1002 x 8 04 12 00 A0 64 00 00 00 
15:17:27:4427 Rx 1 0x1042 x 7 01 29 29 2A 2A 2A 2A 
15:17:27:4430 Rx 1 0x1043 x 7 01 2C 2C 2C 2C 28 28 
15:17:27:4432 Rx 1 0x1083 x 7 00 20 00 01 00 7D 00 
15:17:27:4435 Rx 1 0x10C3 x 7 00 10 00 00 00 7D 00 
15:17:27:4438 Rx 1 0x1103 x 7 00 20 00 01 00 7D 00 
15:17:27:4440 Rx 1 0x1142 x 7 01 30 00 02 00 7D 00 
15:17:27:4443 Rx 1 0x1182 x 7 00 10 00 00 00 7D 00 
15:17:27:4446 Rx 1 0x11C2 x 7 00 20 00 01 00 7D 00 
15:17:27:4449 Rx 1 0x1403 x 7 00 60 00 03 00 7D 00 
15:17:27:4451 Rx 1 0x1442 x 7 00 70 00 03 00 7D 00 
15:17:27:4492 Rx 1 0x702 s 8 22 00 00 00 00 00 00 B0 
15:17:27:4495 Rx 1 0x703 s 8 19 34 68 28 A5 71 5D 05 
15:17:27:4497 Rx 1 0x704 s 7 95 82 D8 98 83 22 22 
15:17:27:4499 Rx 1 0x705 s 8 88 A3 38 88 03 7D 00 00 
15:17:27:4501 Rx 1 0x706 s 8 1A C0 01 1A 00 7D 00 00 
15:17:27:4592 Rx 1 0x702 s 8 22 00 00 00 00 00 00 B0 
15:17:27:4595 Rx 1 0x703 s 8 1A 34 68 30 D0 07 E5 DF 
15:17:27:4597 Rx 1 0x704 s 7 95 82 D9 98 82 22 22 
15:17:27:4599 Rx 1 0x705 s 8 88 A3 38 88 03 7D 00 00 
15:17:27:4602 Rx 1 0x706 s 8 1A C0 01 1A 00 7D 00 00 
15:17:27:4693 Rx 1 0x702 s 8 22 00 00 00 00 00 00 B0 
15:17:27:4695 Rx 1 0x703 s 8 1A 34 68 38 DA 07 13 38 
15:17:27:4697 Rx 1 0x704 s 7 95 82 D8 98 82 22 22 
15:17:27:4699 Rx 1 0x705 s 8 86 A3 38 88 03 7D 00 00 
15:17:27:4702 Rx 1 0x706 s 8 1A C0 01 1A 00 7D 00 00 
15:17:27:4792 Rx 1 0x702 s 8 22 00 00 00 00 00 00 B0 
15:17:27:4795 Rx 1 0x703 s 8 1A 36 6C 00 2D 2C 2D 2D 
15:17:27:4797 Rx 1 0x704 s 7 95 82 D8 98 83 22 22 
15:17:27:4799 Rx 1 0x705 s 8 88 A3 38 88 03 7D 00 00 
15:17:27:4802 Rx 1 0x706 s 8 1A C0 01 1A 00 7D 00 00 
15:17:27:4893 Rx 1 0x702 s 8 22 00 00 00 00 00 00 B0 
15:17:27:4895 Rx 1 0x703 s 8 1B 36 6C 08 2D 2D 00 40 
15:17:27:4897 Rx 1 0x704 s 7 95 82 D9 98 82 22 22 
15:17:27:4900 Rx 1 0x705 s 8 88 A3 38 88 03 7D 00 00 
15:17:27:4902 Rx 1 0x706 s 8 18 A0 01 1A 00 7D 00 00 
15:17:27:4993 Rx 1 0x702 s 8 22 00 00 00 00 00 00 B0 
15:17:27:4995 Rx 1 0x703 s 8 1B 36 6C 10 00 00 7D 00 
15:17:27:4997 Rx 1 0x704 s 7 95 82 D8 98 83 22 22 
15:17:27:4999 Rx 1 0x705 s 8 88 A3 38 88 03 7D 00 00 
15:17:27:5002 Rx 1 0x706 s 8 18 A0 01 1A 00 7D 00 00 
15:17:27:5092 Rx 1 0x703 s 8 1B 38 70 18 00 00 72 79 
15:17:27:5095 Rx 1 0x702 s 8 22 00 00 00 00 00 00 B0 
15:17:27:5097 Rx 1 0x704 s 7 95 82 D9 98 83 22 22 
15:17:27:5099 Rx 1 0x705 s 8 86 A3 38 88 03 7D 00 00 
15:17:27:5102 Rx 1 0x706 s 8 18 A0 01 1A 00 7D 00 00 
15:17:27:5192 Rx 1 0x703 s 8 1C 38 70 20 36 33 89 30 
15:17:27:5195 Rx 1 0x702 s 8 22 00 00 00 00 00 00 B0 
15:17:27:5197 Rx 1 0x704 s 7 95 82 D9 98 83 22 22 
15:17:27:5199 Rx 1 0x705 s 8 88 A3 38 88 03 7D 00 00 
15:17:27:5202 Rx 1 0x706 s 8 18 A0 01 1A 00 7D 00 00 
15:17:27:5292 Rx 1 0x703 s 8 1C 38 70 28 A5 71 5D 05 
15:17:27:5295 Rx 1 0x702 s 8 22 00 00 00 00 00 00 B0 
15:17:27:5297 Rx 1 0x704 s 7 95 82 D8 98 82 22 22 
15:17:27:5299 Rx 1 0x705 s 8 88 A3 38 88 03 7D 00 00 
15:17:27:5301 Rx 1 0x706 s 8 18 A0 01 18 00 7D 00 00 
15:17:27:5392 Rx 1 0x703 s 8 1C 3A 74 30 D0 07 E5 DF 
15:17:27:5395 Rx 1 0x702 s 8 22 00 00 00 00 00 00 B0 
15:17:27:5397 Rx 1 0x704 s 7 95 82 D9 98 83 22 22 
15:17:27:5399 Rx 1 0x705 s 8 88 A3 38 88 03 7D 00 00 
15:17:27:5402 Rx 1 0x706 s 8 18 A0 01 18 00 7D 00 00 
15:17:27:5421 Rx 1 0x1003 x 8 04 12 00 00 64 00 00 00 
15:17:27:5424 Rx 1 0x1002 x 8 04 12 00 60 64 00 00 00 
15:17:27:5427 Rx 1 0x1042 x 7 02 28 28 26 26 2B 2B 
15:17:27:5429 Rx 1 0x1043 x 7 02 25 25 26 26 2A 2A 
15:17:27:5432 Rx 1 0x1083 x 7 00 30 00 01 00 7D 00 
15:17:27:5435 Rx 1 0x10C3 x 7 00 10 00 00 00 7D 00 
15:17:27:5438 Rx 1 0x1103 x 7 00 30 00 02 00 7D 00 
15:17:27:5441 Rx 1 0x1142 x 7 02 30 00 03 00 7D 00 
15:17:27:5443 Rx 1 0x1182 x 7 00 10 00 00 00 7D 00 
15:17:27:5446 Rx 1 0x11C2 x 7 00 30 00 01 00 7D 00 
15:17:27:5449 Rx 1 0x1403 x 7 00 70 00 04 00 7D 00 
15:17:27:5451 Rx 1 0x1442 x 7 00 70 00 04 00 7D 00 
15:17:27:5492 Rx 1 0x703 s 8 1D 3A 74 38 DA 07 13 38 
15:17:27:5495 Rx 1 0x702 s 8 22 00 00 00 00 00 00 B0 
15:17:27:5497 Rx 1 0x704 s 7 95 82 D8 98 82 22 22 
15:17:27:5499 Rx 1 0x705 s 8 88 A3 38 88 03 7D 00 00 
15:17:27:5502 Rx 1 0x706 s 8 18 A0 01 18 00 7D 00 00 
15:17:27:5592 Rx 1 0x702 s 8 22 00 00 00 00 00 00 B0 
15:17:27:5595 Rx 1 0x703 s 8 1D 3A 74 00 2D 2C 2D 2D 
15:17:27:5597 Rx 1 0x704 s 7 95 82 D9 98 82 22 22 
15:17:27:5599 Rx 1 0x705 s 8 86 A3 38 88 03 7D 00 00 
15:17:27:5602 Rx 1 0x706 s 8 18 A0 01 18 00 7D 00 00 
15:17:27:5692 Rx 1 0x702 s 8 22 00 00 00 00 00 00 B0 
15:17:27:5695 Rx 1 0x703 s 8 1D 3C 74 08 2D 2D 00 40 
15:17:27:5697 Rx 1 0x704 s 7 95 82 D9 98 83 22 22 
15:17:27:5699 Rx 1 0x705 s 8 88 A3 38 88 03 7D 00 00 
15:17:27:5702 Rx 1 0x706 s 8 18 A0 01 18 00 7D 00 00 
15:17:27:5793 Rx 1 0x702 s 8 22 00 00 00 00 00 00 B0 
15:17:27:5795 Rx 1 0x703 s 8 1E 3C 78 10 00 00 7D 00 
15:17:27:5797 Rx 1 0x704 s 7 95 82 D9 98 82 22 22 
15:17:27:5799 Rx 1 0x705 s 8 88 A3 38 88 03 7D 00 00 
15:17:27:5802 Rx 1 0x706 s 8 18 A0 01 18 00 7D 00 00 
15:17:27:5893 Rx 1 0x702 s 8 22 00 00 00 00 00 00 B0 
15:17:27:5895 Rx 1 0x703 s 8 1E 3C 78 18 00 00 72 79 
15:17:27:5897 Rx 1 0x704 s 7 95 82 D8 98 83 22 22 
15:17:27:5900 Rx 1 0x705 s 8 88 A3 38 88 03 7D 00 00 
15:17:27:5902 Rx 1 0x706 s 8 18 A0 01 18 00 7D 00 00 
15:17:27:5993 Rx 1 0x702 s 8 22 00 00 00 00 00 00 B0 
15:17:27:5995 Rx 1 0x703 s 8 1E 3E 78 20 36 33 89 30 
15:17:27:5997 Rx 1 0x704 s 7 95 82 D9 98 82 22 22 
15:17:27:5999 Rx 1 0x705 s 8 86 A3 38 88 03 7D 00 00 
15:17:27:6002 Rx 1 0x706 s 8 18 A0 01 18 00 7D 00 00 
15:17:27:6092 Rx 1 0x702 s 8 22 00 00 00 00 00 00 B0 
15:17:27:6095 Rx 1 0x703 s 8 1E 3E 7C 28 A5 71 5D 05 
15:17:27:6097 Rx 1 0x704 s 7 95 82 D9 98 82 22 22 
15:17:27:6099 Rx 1 0x705 s 8 88 A3 38 88 03 7D 00 00 
15:17:27:6102 Rx 1 0x706 s 8 18 A0 01 18 00 7D 00 00 
15:17:27:6193 Rx 1 0x702 s 8 22 00 00 00 00 00 00 B0 
15:17:27:6195 Rx 1 0x703 s 8 1F 3E 7C 30 D0 07 E5 DF 
15:17:27:6197 Rx 1 0x704 s 7 95 82 D8 98 83 22 22 
15:17:27:6200 Rx 1 0x705 s 8 88 A3 38 88 03 7D 00 00 
15:17:27:6202 Rx 1 0x706 s 8 18 A0 01 18 00 7D 00 00 
15:17:27:6293 Rx 1 0x702 s 8 22 00 00 00 00 00 00 B0 
15:17:27:6295 Rx 1 0x703 s 8 1F 40 7C 38 DA 07 13 38 
15:17:27:6297 Rx 1 0x704 s 7 95 82 D9 98 82 22 22 
15:17:27:6299 Rx 1 0x705 s 8 86 A3 38 88 03 7D 00 00 
15:17:27:6302 Rx 1 0x706 s 8 18 A0 01 18 00 7D 00 00 
15:17:27:6393 Rx 1 0x702 s 8 22 00 00 00 00 00 00 B0 
15:17:27:6395 Rx 1 0x703 s 8 1F 40 80 00 2D 2C 2D 2D 
15:17:27:6397 Rx 1 0x704 s 7 95 82 D9 98 82 22 22 
15:17:27:6400 Rx 1 0x705 s 8 88 A3 38 88 03 7D 00 00 
15:17:27:6402 Rx 1 0x706 s 8 18 A0 01 18 00 7D 00 00 
15:17:27:6421 Rx 1 0x1043 x 7 03 2A 2A 28 28 2F 00 
15:17:27:6424 Rx 1 0x1002 x 8 04 12 00 80 54 00 00 00 
15:17:27:6427 Rx 1 0x1003 x 8 04 12 00 20 54 00 00 00 
15:17:27:6430 Rx 1 0x1042 x 7 03 28 28 26 26 2F 00 
15:17:27:6432 Rx 1 0x1083 x 7 00 30 00 02 00 7D 00 
15:17:27:6435 Rx 1 0x10C3 x 7 00 10 00 00 00 7D 00 
15:17:27:6438 Rx 1 0x1103 x 7 00 30 00 02 00 7D 00 
15:17:27:6441 Rx 1 0x1142 x 7 02 30 00 03 00 7D 00 
15:17:27:6443 Rx 1 0x1182 x 7 00 10 00 00 00 7D 00 
15:17:27:6446 Rx 1 0x11C2 x 7 00 30 00 02 00 7D 00 
15:17:27:6449 Rx 1 0x1403 x 7 00 70 00 04 00 7D 00 
15:17:27:6451 Rx 1 0x1442 x 7 00 80 00 04 00 7D 00 
15:17:27:6492 Rx 1 0x703 s 8 20 40 80 08 2D 2D 00 40 
15:17:27:6495 Rx 1 0x702 s 8 22 00 00 00 00 00 00 B0 
15:17:27:6497 Rx 1 0x704 s 7 95 82 D9 98 83 22 22 
15:17:27:6500 Rx 1 0x705 s 8 86 A3 38 88 03 7D 00 00 
15:17:27:6502 Rx 1 0x706 s 8 16 80 01 18 00 7D 00 00 
15:17:27:6593 Rx 1 0x703 s 8 20 42 80 10 00 00 7D 00 
15:17:27:6595 Rx 1 0x702 s 8 22 00 00 00 00 00 00 B0 
15:17:27:6597 Rx 1 0x704 s 7 95 82 D8 98 83 22 22 
15:17:27:6599 Rx 1 0x705 s 8 88 A3 38 88 03 7D 00 00 
15:17:27:6602 Rx 1 0x706 s 8 16 80 01 18 00 7D 00 00 
15:17:27:6692 Rx 1 0x702 s 8 22 00 00 00 00 00 00 B0 
15:17:27:6695 Rx 1 0x703 s 8 20 42 84 18 00 00 72 79 
15:17:27:6697 Rx 1 0x704 s 7 95 82 D9 98 82 22 22 
15:17:27:6699 Rx 1 0x705 s 8 86 A3 38 88 03 7D 00 00 
15:17:27:6702 Rx 1 0x706 s 8 16 80 01 18 00 7D 00 00 
15:17:27:6793 Rx 1 0x702 s 8 22 00 00 00 00 00 00 B0 
15:17:27:6795 Rx 1 0x703 s 8 21 42 84 20 36 33 89 30 
15:17:27:6797 Rx 1 0x704 s 7 95 82 D8 98 82 22 22 
15:17:27:6799 Rx 1 0x705 s 8 86 A3 38 88 03 7D 00 00 
15:17:27:6802 Rx 1 0x706 s 8 16 80 01 18 00 7D 00 00 
15:17:27:6892 Rx 1 0x702 s 8 22 00 00 00 00 00 00 B0 
15:17:27:6895 Rx 1 0x703 s 8 21 42 84 28 A5 71 5D 05 
15:17:27:6897 Rx 1 0x704 s 7 95 82 D9 98 83 22 22 
15:17:27:6899 Rx 1 0x705 s 8 88 A3 38 88 03 7D 00 00 
15:17:27:6902 Rx 1 0x706 s 8 16 80 01 16 00 7D 00 00 
15:17:27:6992 Rx 1 0x702 s 8 22 00 00 00 00 00 00 B0 
15:17:27:6995 Rx 1 0x703 s 8 21 44 88 30 D0 07 E5 DF 
15:17:27:6997 Rx 1 0x704 s 7 95 82 D9 98 82 22 22 
15:17:27:6999 Rx 1 0x705 s 8 86 A3 38 88 03 7D 00 00 
15:17:27:7002 Rx 1 0x706 s 8 16 80 01 16 00 7D 00 00 
15:17:27:7093 Rx 1 0x702 s 8 22 00 00 00 00 00 00 B0 
15:17:27:7095 Rx 1 0x703 s 8 22 44 88 38 DA 07 13 38 
15:17:27:7097 Rx 1 0x704 s 7 95 82 D9 98 82 22 22 
15:17:27:7099 Rx 1 0x705 s 8 86 A3 38 88 03 7D 00 00 
15:17:27:7102 Rx 1 0x706 s 8 16 80 01 16 00 7D 00 00 
15:17:27:7192 Rx 1 0x702 s 8 22 00 00 00 00 00 00 B0 
15:17:27:7195 Rx 1 0x703 s 8 22 44 88 00 2D 2C 2D 2D 
15:17:27:7197 Rx 1 0x704 s 7 95 82 D8 98 83 22 22 
15:17:27:7199 Rx 1 0x705 s 8 88 A3 38 88 03 7D 00 00 
15:17:27:7202 Rx 1 0x706 s 8 16 A0 01 1A 00 7D 00 00 
15:17:27:7293 Rx 1 0x702 s 8 22 00 00 00 00 00 00 B0 
15:17:27:7295 Rx 1 0x703 s 8 22 46 8C 08 2D 2D 00 40 
15:17:27:7297 Rx 1 0x704 s 7 95 82 D9 98 82 22 22 
15:17:27:7300 Rx 1 0x705 s 8 88 A3 38 88 03 7D 00 00 
15:17:27:7302 Rx 1 0x706 s 8 18 A0 01 1A 00 7D 00 00 
15:17:27:7393 Rx 1 0x702 s 8 22 00 00 00 00 00 00 B0 
15:17:27:7395 Rx 1 0x703 s 8 23 46 8C 10 00 00 7D 00 
15:17:27:7397 Rx 1 0x704 s 7 95 82 D8 98 83 22 22 
15:17:27:7400 Rx 1 0x705 s 8 86 A3 38 88 03 7D 00 00 
15:17:27:7402 Rx 1 0x706 s 8 18 A0 01 1A 00 7D 00 00 
15:17:27:7421 Rx 1 0x1043 x 7 04 E8 03 86 96 BE 32 
15:17:27:7424 Rx 1 0x1002 x 8 04 12 00 A0 64 00 00 00 
15:17:27:7427 Rx 1 0x1003 x 8 04 12 00 40 64 00 00 00 
15:17:27:7430 Rx 1 0x1042 x 7 04 E8 03 5C 76 BE 32 
15:17:27:7433 Rx 1 0x1083 x 7 00 30 00 02 00 7D 00 
15:17:27:7435 Rx 1 0x10C3 x 7 00 10 00 00 00 7D 00 
15:17:27:7438 Rx 1 0x1103 x 7 00 30 00 02 00 7D 00 
15:17:27:7441 Rx 1 0x1142 x 7 02 40 00 03 00 7D 00 
15:17:27:7443 Rx 1 0x1182 x 7 00 10 00 00 00 7D 00 
15:17:27:7446 Rx 1 0x11C2 x 7 01 30 00 02 00 7D 00 
15:17:27:7449 Rx 1 0x1403 x 7 00 80 00 05 00 7D 00 
15:17:27:7451 Rx 1 0x1442 x 7 00 80 00 05 00 7D 00 
15:17:27:7492 Rx 1 0x703 s 8 23 46 8C 18 00 00 72 79 
15:17:27:7495 Rx 1 0x702 s 8 22 00 00 00 00 00 00 B0 
15:17:27:7497 Rx 1 0x704 s 7 95 82 D9 98 83 22 22 
15:17:27:7499 Rx 1 0x705 s 8 88 A3 38 88 03 7D 00 00 
15:17:27:7502 Rx 1 0x706 s 8 18 C0 01 1A 00 7D 00 00 
15:17:27:7592 Rx 1 0x703 s 8 23 48 8C 20 36 33 89 30 
15:17:27:7595 Rx 1 0x702 s 8 22 00 00 00 00 00 00 B0 
15:17:27:7597 Rx 1 0x704 s 7 95 82 D9 98 82 22 22 
15:17:27:7599 Rx 1 0x705 s 8 86 A3 38 88 03 7D 00 00 
15:17:27:7602 Rx 1 0x706 s 8 18 A0 01 1A 00 7D 00 00 
15:17:27:7692 Rx 1 0x703 s 8 23 48 90 28 A5 71 5D 05 
15:17:27:7695 Rx 1 0x702 s 8 22 00 00 00 00 00 00 B0 
15:17:27:7697 Rx 1 0x704 s 7 95 82 D9 98 82 22 22 
15:17:27:7699 Rx 1 0x705 s 8 86 A3 38 88 03 7D 00 00 
15:17:27:7702 Rx 1 0x706 s 8 1A A0 01 1A 00 7D 00 00 
15:17:27:7792 Rx 1 0x703 s 8 24 48 90 30 D0 07 E5 DF 
15:17:27:7795 Rx 1 0x702 s 8 22 00 00 00 00 00 00 B0 
15:17:27:7797 Rx 1 0x704 s 7 95 82 D8 98 83 22 22 
15:17:27:7799 Rx 1 0x705 s 8 88 A3 38 88 03 7D 00 00 
15:17:27:7802 Rx 1 0x706 s 8 18 C0 01 1A 00 7D 00 00 
15:17:27:7892 Rx 1 0x703 s 8 24 4A 90 38 DA 07 13 38 
15:17:27:7895 Rx 1 0x702 s 8 22 00 00 00 00 00 00 B0 
15:17:27:7897 Rx 1 0x704 s 7 95 82 D8 98 82 22 22 
15:17:27:7899 Rx 1 0x705 s 8 86 A3 38 88 03 7D 00 00 
15:17:27:7902 Rx 1 0x706 s 8 18 C0 01 1A 00 7D 00 00 
15:17:27:7992 Rx 1 0x703 s 8 24 4A 94 00 2D 2C 2D 2D 
15:17:27:7995 Rx 1 0x702 s 8 22 00 00 00 00 00 00 B0 
15:17:27:7997 Rx 1 0x704 s 7 95 82 D8 98 82 22 22 
15:17:27:7999 Rx 1 0x705 s 8 88 A3 38 88 03 7D 00 00 
15:17:27:8002 Rx 1 0x706 s 8 1A C0 01 1A 00 7D 00 00 
15:17:27:8093 Rx 1 0x702 s 8 22 00 00 00 00 00 00 B0 
15:17:27:8095 Rx 1 0x703 s 8 25 4A 94 08 2C 2D 00 40 
15:17:27:8097 Rx 1 0x704 s 7 95 82 D9 98 83 22 22 
15:17:27:8100 Rx 1 0x705 s 8 88 A3 38 88 03 7D 00 00 
15:17:27:8102 Rx 1 0x706 s 8 18 C0 01 1A 00 7D 00 00 
15:17:27:8193 Rx 1 0x702 s 8 22 00 00 00 00 00 00 B0 
15:17:27:8195 Rx 1 0x703 s 8 25 4A 94 10 00 00 7D 00 
15:17:27:8197 Rx 1 0x704 s 7 95 82 D9 98 82 22 22 
15:17:27:8199 Rx 1 0x705 s 8 88 A3 38 88 03 7D 00 00 
15:17:27:8202 Rx 1 0x706 s 8 18 C0 01 1A 00 7D 00 00 
15:17:27:8293 Rx 1 0x702 s 8 22 00 00 00 00 00 00 B0 
15:17:27:8295 Rx 1 0x703 s 8 25 4C 98 18 00 00 72 79 
15:17:27:8297 Rx 1 0x704 s 7 95 82 D9 98 83 22 22 
15:17:27:8300 Rx 1 0x705 s 8 86 A3 38 88 03 7D 00 00 
15:17:27:8302 Rx 1 0x706 s 8 18 A0 01 1A 00 7D 00 00 
15:17:27:8393 Rx 1 0x702 s 8 22 00 00 00 00 00 00 B0 
15:17:27:8395 Rx 1 0x703 s 8 26 4C 98 20 36 33 89 30 
15:17:27:8397 Rx 1 0x704 s 7 95 82 D9 98 82 22 22 
15:17:27:8399 Rx 1 0x705 s 8 88 A3 38 88 03 7D 00 00 
15:17:27:8402 Rx 1 0x706 s 8 1A C0 01 1A 00 7D 00 00 
15:17:27:8421 Rx 1 0x1003 x 8 04 12 00 00 64 00 00 00 
15:17:27:8424 Rx 1 0x1002 x 8 04 12 00 60 64 00 00 00 
15:17:27:8427 Rx 1 0x1042 x 7 05 E9 03 D5 28 85 34 
15:17:27:8429 Rx 1 0x1043 x 7 05 E9 03 D5 28 85 34 
15:17:27:8432 Rx 1 0x1083 x 7 00 40 00 02 00 7D 00 
15:17:27:8435 Rx 1 0x10C3 x 7 00 10 00 00 00 7D 00 
15:17:27:8437 Rx 1 0x1103 x 7 01 30 00 02 00 7D 00 
15:17:27:8440 Rx 1 0x1142 x 7 03 40 00 04 00 7D 00 
15:17:27:8443 Rx 1 0x1182 x 7 00 10 00 00 00 7D 00 
15:17:27:8446 Rx 1 0x11C2 x 7 01 30 00 02 00 7D 00 
15:17:27:8449 Rx 1 0x1403 x 7 00 90 00 05 00 7D 00 
15:17:27:8451 Rx 1 0x1442 x 7 00 90 00 05 00 7D 00 
15:17:27:8492 Rx 1 0x702 s 8 22 00 00 00 00 00 00 B0 
15:17:27:8495 Rx 1 0x703 s 8 26 4C 98 28 A5 71 5D 05 
15:17:27:8497 Rx 1 0x704 s 7 95 82 D9 98 83 22 22 
15:17:27:8499 Rx 1 0x705 s 8 88 A3 38 88 03 7D 00 00 
15:17:27:8502 Rx 1 0x706 s 8 18 C0 01 1A 00 7D 00 00 
15:17:27:8593 Rx 1 0x702 s 8 22 00 00 00 00 00 00 B0 
15:17:27:8595 Rx 1 0x703 s 8 26 4E 9C 30 D0 07 E5 DF 
15:17:27:8597 Rx 1 0x704 s 7 95 82 D9 98 83 22 22 
15:17:27:8600 Rx 1 0x705 s 8 86 A3 38 88 03 7D 00 00 
15:17:27:8602 Rx 1 0x706 s 8 1A C0 01 1A 00 7D 00 00 
15:17:27:8693 Rx 1 0x702 s 8 22 00 00 00 00 00 00 B0 
15:17:27:8695 Rx 1 0x703 s 8 26 4E 9C 38 DA 07 13 38 
15:17:27:8697 Rx 1 0x704 s 7 95 82 D9 98 82 22 22 
15:17:27:8699 Rx 1 0x705 s 8 86 A3 38 88 03 7D 00 00 
15:17:27:8702 Rx 1 0x706 s 8 1A C0 01 1A 00 7D 00 00 
15:17:27:8793 Rx 1 0x702 s 8 22 00 00 00 00 00 00 B0 
15:17:27:8795 Rx 1 0x703 s 8 27 4E 9C 00 2D 2C 2D 2D 
15:17:27:8797 Rx 1 0x704 s 7 95 82 D8 98 82 22 22 
15:17:27:8800 Rx 1 0x705 s 8 88 A3 38 88 03 7D 00 00 
15:17:27:8802 Rx 1 0x706 s 8 18 C0 01 1A 00 7D 00 00 
15:17:27:8892 Rx 1 0x703 s 8 27 50 9C 08 2D 2D 00 40 
15:17:27:8895 Rx 1 0x702 s 8 22 00 00 00 00 00 00 B0 
15:17:27:8897 Rx 1 0x704 s 7 95 82 D9 98 82 22 22 
15:17:27:8899 Rx 1 0x705 s 8 88 A3 38 88 03 7D 00 00 
15:17:27:8902 Rx 1 0x706 s 8 1A C0 01 1A 00 7D 00 00 
15:17:27:8993 Rx 1 0x703 s 8 27 50 A0 10 00 00 7D 00 
15:17:27:8995 Rx 1 0x702 s 8 22 00 00 00 00 00 00 B0 
15:17:27:8997 Rx 1 0x704 s 7 95 82 D9 98 83 22 22 
15:17:27:8999 Rx 1 0x705 s 8 86 A3 38 88 03 7D 00 00 
15:17:27:9002 Rx 1 0x706 s 8 1A C0 01 1A 00 7D 00 00 
15:17:27:9092 Rx 1 0x702 s 8 22 00 00 00 00 00 00 B0 
15:17:27:9095 Rx 1 0x703 s 8 28 50 A0 18 00 00 72 79 
15:17:27:9097 Rx 1 0x704 s 7 95 82 D9 98 82 22 22 
15:17:27:9099 Rx 1 0x705 s 8 88 A3 38 88 03 7D 00 00 
15:17:27:9102 Rx 1 0x706 s 8 1A C0 01 1A 00 7D 00 00 
15:17:27:9193 Rx 1 0x702 s 8 22 00 00 00 00 00 00 B0 
15:17:27:9195 Rx 1 0x703 s 8 28 52 A0 20 36 33 89 30 
15:17:27:9197 Rx 1 0x704 s 7 95 82 D9 98 82 22 22 
15:17:27:9199 Rx 1 0x705 s 8 86 A3 38 88 03 7D 00 00 
15:17:27:9202 Rx 1 0x706 s 8 1A C0 01 1A 00 7D 00 00 
15:17:27:9292 Rx 1 0x702 s 8 22 00 00 00 00 00 00 B0 
15:17:27:9295 Rx 1 0x703 s 8 28 52 A4 28 A5 71 5D 05 
15:17:27:9297 Rx 1 0x704 s 7 95 82 D9 98 83 22 22 
15:17:27:9299 Rx 1 0x705 s 8 88 A3 38 88 03 7D 00 00 
15:17:27:9302 Rx 1 0x706 s 8 1A C0 01 1A 00 7D 00 00 
15:17:27:9392 Rx 1 0x702 s 8 22 00 00 00 00 00 00 B0 
15:17:27:9395 Rx 1 0x703 s 8 29 52 A4 30 D0 07 E5 DF 
15:17:27:9397 Rx 1 0x704 s 7 95 82 D8 98 82 22 22 
15:17:27:9399 Rx 1 0x705 s 8 86 A3 38 88 03 7D 00 00 
15:17:27:9402 Rx 1 0x706 s 8 1A C0 01 1A 00 7D 00 00 
15:17:27:9421 Rx 1 0x1003 x 8 04 12 00 20 54 00 00 00 
15:17:27:9424 Rx 1 0x1002 x 8 04 12 00 80 54 00 00 00 
15:17:27:9427 Rx 1 0x1042 x 7 06 31 7E C1 64 25 0B 
15:17:27:9429 Rx 1 0x1043 x 7 06 31 7E FF FF FF FF 
15:17:27:9432 Rx 1 0x1083 x 7 01 40 00 02 00 7D 00 
15:17:27:9435 Rx 1 0x10C3 x 7 00 10 00 00 00 7D 00 
15:17:27:9438 Rx 1 0x1103 x 7 01 30 00 02 00 7D 00 
15:17:27:9441 Rx 1 0x1142 x 7 03 40 00 04 00 7D 00 
15:17:27:9443 Rx 1 0x1182 x 7 00 10 00 00 00 7D 00 
15:17:27:9446 Rx 1 0x11C2 x 7 02 40 00 03 00 7D 00 
15:17:27:9449 Rx 1 0x1403 x 7 01 90 00 06 00 7D 00 
15:17:27:9451 Rx 1 0x1442 x 7 01 90 00 06 00 7D 00 
15:17:27:9493 Rx 1 0x702 s 8 22 00 00 00 00 00 00 B0 
15:17:27:9495 Rx 1 0x703 s 8 29 52 A4 38 DA 07 13 38 
15:17:27:9497 Rx 1 0x704 s 7 95 82 D8 98 82 22 22 
15:17:27:9499 Rx 1 0x705 s 8 86 A3 38 88 03 7D 00 00 
15:17:27:9502 Rx 1 0x706 s 8 1A C0 01 1A 00 7D 00 00 
15:17:27:9592 Rx 1 0x702 s 8 22 00 00 00 00 00 00 B0 
15:17:27:9595 Rx 1 0x703 s 8 29 54 A4 00 2D 2C 2D 2D 
15:17:27:9597 Rx 1 0x704 s 7 95 82 D9 98 83 22 22 
15:17:27:9599 Rx 1 0x705 s 8 88 A3 38 88 03 7D 00 00 
15:17:27:9602 Rx 1 0x706 s 8 1A C0 01 1A 00 7D 00 00 
15:17:27:9693 Rx 1 0x702 s 8 22 00 00 00 00 00 00 B0 
15:17:27:9695 Rx 1 0x703 s 8 29 54 A8 08 2D 2D 00 40 
15:17:27:9697 Rx 1 0x704 s 7 95 82 D9 98 82 22 22 
15:17:27:9700 Rx 1 0x705 s 8 86 A3 38 88 03 7D 00 00 
15:17:27:9702 Rx 1 0x706 s 8 1A A0 01 1A 00 7D 00 00 
15:17:27:9793 Rx 1 0x702 s 8 22 00 00 00 00 00 00 B0 
15:17:27:9795 Rx 1 0x703 s 8 2A 54 A8 10 00 00 7D 00 
15:17:27:9797 Rx 1 0x704 s 7 95 82 D9 98 83 22 22 
15:17:27:9800 Rx 1 0x705 s 8 88 A3 38 88 03 7D 00 00 
15:17:27:9802 Rx 1 0x706 s 8 18 C0 01 1A 00 7D 00 00 
15:17:27:9893 Rx 1 0x702 s 8 22 00 00 00 00 00 00 B0 
15:17:27:9895 Rx 1 0x703 s 8 2A 56 A8 18 00 00 72 79 
15:17:27:9897 Rx 1 0x704 s 7 95 82 D9 98 82 22 22 
15:17:27:9900 Rx 1 0x705 s 8 88 A3 38 88 03 7D 00 00 
15:17:27:9902 Rx 1 0x706 s 8 18 C0 01 1A 00 7D 00 00 
15:17:27:9993 Rx 1 0x702 s 8 22 00 00 00 00 00 00 B0 
15:17:27:9995 Rx 1 0x703 s 8 2A 56 AC 20 36 33 89 30 
15:17:27:9997 Rx 1 0x704 s 7 95 82 D9 98 83 22 22 
15:17:27:9999 Rx 1 0x705 s 8 86 A3 38 88 03 7D 00 00 
15:17:28:0002 Rx 1 0x706 s 8 1A C0 01 1A 00 7D 00 00 
15:17:28:0093 Rx 1 0x702 s 8 22 00 00 00 00 00 00 B0 
15:17:28:0095 Rx 1 0x703 s 8 2B 56 AC 28 A5 71 5D 05 
15:17:28:0097 Rx 1 0x704 s 7 95 82 D8 98 83 22 22 
15:17:28:0099 Rx 1 0x705 s 8 86 A3 38 88 03 7D 00 00 
15:17:28:0102 Rx 1 0x706 s 8 1A C0 01 1A 00 7D 00 00 
15:17:28:0193 Rx 1 0x702 s 8 22 00 00 00 00 00 00 B0 
15:17:28:0195 Rx 1 0x703 s 8 2B 58 AC 30 D0 07 E5 DF 
15:17:28:0197 Rx 1 0x704 s 7 95 82 D9 98 82 22 22 
15:17:28:0200 Rx 1 0x705 s 8 86 A3 38 88 03 7D 00 00 
15:17:28:0202 Rx 1 0x706 s 8 1A C0 01 1A 00 7D 00 00 
15:17:28:0292 Rx 1 0x702 s 8 22 00 00 00 00 00 00 B0 
15:17:28:0295 Rx 1 0x703 s 8 2B 58 B0 38 DA 07 13 38 
15:17:28:0297 Rx 1 0x704 s 7 95 82 D9 98 82 22 22 
15:17:28:0299 Rx 1 0x705 s 8 86 A3 38 88 03 7D 00 00 
15:17:28:0302 Rx 1 0x706 s 8 1A C0 01 1A 00 7D 00 00 
15:17:28:0393 Rx 1 0x702 s 8 22 00 00 00 00 00 00 B0 
15:17:28:0395 Rx 1 0x703 s 8 2C 58 B0 00 2D 2C 2D 2D 
15:17:28:0397 Rx 1 0x704 s 7 95 82 D8 98 83 22 22 
15:17:28:0400 Rx 1 0x705 s 8 86 A3 38 88 03 7D 00 00 
15:17:28:0402 Rx 1 0x706 s 8 1A C0 01 1A 00 7D 00 00 
15:17:28:0421 Rx 1 0x1003 x 8 04 12 00 40 64 00 00 00 
15:17:28:0424 Rx 1 0x1002 x 8 04 12 00 A0 64 00 00 00 
15:17:28:0427 Rx 1 0x1042 x 7 07 00 00 00 00 00 00 
15:17:28:0429 Rx 1 0x1043 x 7 07 00 00 00 00 00 00 
15:17:28:0432 Rx 1 0x1083 x 7 01 40 00 02 00 7D 00 
15:17:28:0435 Rx 1 0x10C3 x 7 00 10 00 00 00 7D 00 
15:17:28:0438 Rx 1 0x1103 x 7 01 30 00 02 00 7D 00 
15:17:28:0440 Rx 1 0x1142 x 7 03 40 00 04 00 7D 00 
15:17:28:0443 Rx 1 0x1182 x 7 00 10 00 00 00 7D 00 
15:17:28:0446 Rx 1 0x11C2 x 7 02 40 00 03 00 7D 00 
15:17:28:0449 Rx 1 0x1403 x 7 01 90 00 06 00 7D 00 
15:17:28:0451 Rx 1 0x1442 x 7 01 90 00 06 00 7D 00 
15:17:28:0492 Rx 1 0x703 s 8 2C 5A B0 08 2D 2D 00 40 
15:17:28:0495 Rx 1 0x702 s 8 22 00 00 00 00 00 00 B0 
15:17:28:0497 Rx 1 0x704 s 7 95 82 D8 98 83 22 22 
15:17:28:0499 Rx 1 0x705 s 8 88 A3 38 88 03 7D 00 00 
15:17:28:0502 Rx 1 0x706 s 8 1A C0 01 1A 00 7D 00 00 
15:17:28:0592 Rx 1 0x702 s 8 22 00 00 00 00 00 00 B0 
15:17:28:0595 Rx 1 0x703 s 8 2C 5A B4 10 00 00 7D 00 
15:17:28:0597 Rx 1 0x704 s 7 95 82 D9 98 82 22 22 
15:17:28:0599 Rx 1 0x705 s 8 88 A3 38 88 03 7D 00 00 
15:17:28:0602 Rx 1 0x706 s 8 1A C0 01 1A 00 7D 00 00 
15:17:28:0692 Rx 1 0x702 s 8 22 00 00 00 00 00 00 B0 
15:17:28:0695 Rx 1 0x703 s 8 2D 5A B4 18 00 00 72 79 
15:17:28:0697 Rx 1 0x704 s 7 95 82 D8 98 82 22 22 
15:17:28:0699 Rx 1 0x705 s 8 86 A3 38 88 03 7D 00 00 
15:17:28:0702 Rx 1 0x706 s 8 1A C0 01 1A 00 7D 00 00 
15:17:28:0792 Rx 1 0x702 s 8 22 00 00 00 00 00 00 B0 
15:17:28:0795 Rx 1 0x703 s 8 2D 5A B4 20 36 33 89 30 
15:17:28:0797 Rx 1 0x704 s 7 95 82 D9 98 82 22 22 
15:17:28:0799 Rx 1 0x705 s 8 88 A3 38 88 03 7D 00 00 
15:17:28:0801 Rx 1 0x706 s 8 1A C0 01 1A 00 7D 00 00 
15:17:28:0892 Rx 1 0x702 s 8 22 00 00 00 00 00 00 B0 
15:17:28:0895 Rx 1 0x703 s 8 2D 5C B8 28 A5 71 5D 05 
15:17:28:0897 Rx 1 0x704 s 7 95 82 D8 98 82 22 22 
15:17:28:0899 Rx 1 0x705 s 8 88 A3 38 88 03 7D 00 00 
15:17:28:0902 Rx 1 0x706 s 8 1A C0 01 1A 00 7D 00 00 
15:17:28:0993 Rx 1 0x702 s 8 22 00 00 00 00 00 00 B0 
15:17:28:0995 Rx 1 0x703 s 8 2E 5C B8 30 D0 07 E5 DF 
15:17:28:0997 Rx 1 0x704 s 7 95 82 D9 98 82 22 22 
15:17:28:0999 Rx 1 0x705 s 8 88 A3 38 88 03 7D 00 00 
15:17:28:1002 Rx 1 0x706 s 8 1A C0 01 1A 00 7D 00 00 
15:17:28:1092 Rx 1 0x702 s 8 22 00 00 00 00 00 00 B0 
15:17:28:1095 Rx 1 0x703 s 8 2E 5C B8 38 DA 07 13 38 
15:17:28:1097 Rx 1 0x704 s 7 95 82 D9 98 83 22 22 
15:17:28:1099 Rx 1 0x705 s 8 88 A3 38 88 03 7D 00 00 
15:17:28:1102 Rx 1 0x706 s 8 1A C0 01 1A 00 7D 00 00 
15:17:28:1192 Rx 1 0x702 s 8 22 00 00 00 00 00 00 B0 
15:17:28:1195 Rx 1 0x703 s 8 2E 5E BC 00 2D 2C 2D 2D 
15:17:28:1197 Rx 1 0x704 s 7 95 82 D9 98 82 22 22 
15:17:28:1199 Rx 1 0x705 s 8 86 A3 38 88 03 7D 00 00 
15:17:28:1202 Rx 1 0x706 s 8 1A C0 01 1A 00 7D 00 00 
15:17:28:1293 Rx 1 0x702 s 8 22 00 00 00 00 00 00 B0 
15:17:28:1295 Rx 1 0x703 s 8 2F 5E BC 08 2D 2D 00 40 
15:17:28:1297 Rx 1 0x704 s 7 95 82 D8 98 83 22 22 
15:17:28:1299 Rx 1 0x705 s 8 86 A3 38 88 03 7D 00 00 
15:17:28:1302 Rx 1 0x706 s 8 1A C0 01 1A 00 7D 00 00 
15:17:28:1392 Rx 1 0x703 s 8 2F 5E BC 10 00 00 7D 00 
15:17:28:1395 Rx 1 0x702 s 8 62 00 00 00 00 00 00 B0 
15:17:28:1397 Rx 1 0x704 s 7 95 82 D9 98 83 22 22 
15:17:28:1399 Rx 1 0x705 s 8 86 A3 38 88 03 7D 00 00 
15:17:28:1402 Rx 1 0x706 s 8 1A C0 01 1A 00 7D 00 00 
15:17:28:1421 Rx 1 0x1003 x 8 04 12 00 00 64 00 00 00 
15:17:28:1424 Rx 1 0x1002 x 8 04 1A 00 60 64 00 00 00 
15:17:28:1427 Rx 1 0x1042 x 7 08 65 64 64 64 63 64 
15:17:28:1429 Rx 1 0x1043 x 7 08 65 64 63 63 64 64 
15:17:28:1432 Rx 1 0x1083 x 7 01 40 00 03 00 7D 00 
15:17:28:1435 Rx 1 0x10C3 x 7 00 10 00 00 00 7D 00 
15:17:28:1437 Rx 1 0x1103 x 7 01 30 00 02 00 7D 00 
15:17:28:1440 Rx 1 0x1142 x 7 03 50 00 04 00 7D 00 
15:17:28:1443 Rx 1 0x1182 x 7 00 10 00 00 00 7D 00 
15:17:28:1446 Rx 1 0x11C2 x 7 02 40 00 03 00 7D 00 
15:17:28:1448 Rx 1 0x1403 x 7 02 A0 00 06 00 7D 00 
15:17:28:1451 Rx 1 0x1442 x 7 02 A0 00 06 00 7D 00 
15:17:28:1492 Rx 1 0x702 s 8 62 00 00 00 00 00 00 B0 
15:17:28:1495 Rx 1 0x703 s 8 2F 60 BC 18 00 00 72 79 
15:17:28:1497 Rx 1 0x704 s 7 95 82 D9 98 82 22 22 
15:17:28:1499 Rx 1 0x705 s 8 88 A3 38 88 03 7D 00 00 
15:17:28:1502 Rx 1 0x706 s 8 1A C0 01 1A 00 7D 00 00 
15:17:28:1593 Rx 1 0x702 s 8 62 00 00 00 00 00 00 B0 
15:17:28:1595 Rx 1 0x703 s 8 2F 60 C0 20 36 33 89 30 
15:17:28:1597 Rx 1 0x704 s 7 95 82 D8 98 82 22 22 
15:17:28:1599 Rx 1 0x705 s 8 88 A3 38 88 03 7D 00 00 
15:17:28:1601 Rx 1 0x706 s 8 1A C0 01 1A 00 7D 00 00 
15:17:28:1693 Rx 1 0x702 s 8 62 00 00 00 00 00 00 B0 
15:17:28:1695 Rx 1 0x703 s 8 30 60 C0 28 A5 71 5D 05 
15:17:28:1697 Rx 1 0x704 s 7 95 82 D9 98 82 22 22 
15:17:28:1700 Rx 1 0x705 s 8 86 A3 38 88 03 7D 00 00 
15:17:28:1702 Rx 1 0x706 s 8 1A C0 01 1A 00 7D 00 00 
15:17:28:1793 Rx 1 0x702 s 8 62 00 00 00 00 00 00 B0 
15:17:28:1795 Rx 1 0x703 s 8 30 60 C0 30 D0 07 E5 DF 
15:17:28:1797 Rx 1 0x704 s 7 95 82 D8 98 83 22 22 
15:17:28:1799 Rx 1 0x705 s 8 88 A3 38 88 03 7D 00 00 
15:17:28:1802 Rx 1 0x706 s 8 1A C0 01 1A 00 7D 00 00 
15:17:28:1892 Rx 1 0x703 s 8 30 62 C4 38 DA 07 13 38 
15:17:28:1895 Rx 1 0x702 s 8 62 00 00 00 00 00 00 B0 
15:17:28:1897 Rx 1 0x704 s 7 95 82 D8 98 82 22 22 
15:17:28:1899 Rx 1 0x705 s 8 88 A3 38 88 03 7D 00 00 
15:17:28:1901 Rx 1 0x706 s 8 1A C0 01 1A 00 7D 00 00 
15:17:28:1992 Rx 1 0x703 s 8 31 62 C4 00 2D 2C 2D 2D 
15:17:28:1995 Rx 1 0x702 s 8 62 00 00 00 00 00 00 B0 
15:17:28:1997 Rx 1 0x704 s 7 95 82 D8 98 83 22 22 
15:17:28:1999 Rx 1 0x705 s 8 88 A3 38 88 03 7D 00 00 
15:17:28:2002 Rx 1 0x706 s 8 1A C0 01 1A 00 7D 00 00 
15:17:28:2093 Rx 1 0x702 s 8 62 00 00 00 00 00 00 B0 
15:17:28:2095 Rx 1 0x703 s 8 31 62 C4 08 2D 2D 00 40 
15:17:28:2097 Rx 1 0x704 s 7 95 82 D8 98 83 22 22 
15:17:28:2099 Rx 1 0x705 s 8 88 A3 38 88 03 7D 00 00 
15:17:28:2102 Rx 1 0x706 s 8 1A C0 01 1A 00 7D 00 00 
15:17:28:2192 Rx 1 0x703 s 8 31 64 C4 10 00 00 7D 00 
15:17:28:2195 Rx 1 0x702 s 8 62 00 00 00 00 00 00 B0 
15:17:28:2197 Rx 1 0x704 s 7 95 82 D8 98 82 22 22 
15:17:28:2199 Rx 1 0x705 s 8 86 A3 38 88 03 7D 00 00 
15:17:28:2202 Rx 1 0x706 s 8 1A C0 01 1A 00 7D 00 00 
15:17:28:2292 Rx 1 0x702 s 8 62 00 00 00 00 00 00 B0 
15:17:28:2295 Rx 1 0x703 s 8 31 64 C8 18 00 00 72 79 
15:17:28:2297 Rx 1 0x704 s 7 95 82 D9 98 83 22 22 
15:17:28:2299 Rx 1 0x705 s 8 86 A3 38 88 03 7D 00 00 
15:17:28:2302 Rx 1 0x706 s 8 1A C0 01 1A 00 7D 00 00 
15:17:28:2393 Rx 1 0x702 s 8 62 00 00 00 00 00 00 B0 
15:17:28:2395 Rx 1 0x703 s 8 32 64 C8 20 36 33 89 30 
15:17:28:2397 Rx 1 0x704 s 7 95 82 D8 98 82 22 22 
15:17:28:2399 Rx 1 0x705 s 8 88 A3 38 88 03 7D 00 00 
15:17:28:2401 Rx 1 0x706 s 8 1A C0 01 1A 00 7D 00 00 
15:17:28:2421 Rx 1 0x1043 x 7 09 65 64 00 00 00 00 
15:17:28:2424 Rx 1 0x1002 x 8 0F 3E 00 80 5F 00 00 00 
15:17:28:2427 Rx 1 0x1003 x 8 0F 3E 00 20 5F 00 00 00 
15:17:28:2429 Rx 1 0x1042 x 7 09 64 64 00 00 00 00 
15:17:28:2432 Rx 1 0x1083 x 7 01 40 00 03 00 7D 00 
15:17:28:2435 Rx 1 0x10C3 x 7 00 10 00 00 00 7D 00 
15:17:28:2437 Rx 1 0x1103 x 7 01 30 00 02 00 7D 00 
15:17:28:2440 Rx 1 0x1142 x 7 03 50 00 04 00 7D 00 
15:17:28:2443 Rx 1 0x1182 x 7 00 10 00 00 00 7D 00 
15:17:28:2446 Rx 1 0x11C2 x 7 02 40 00 03 00 7D 00 
15:17:28:2448 Rx 1 0x1403 x 7 01 90 00 05 00 7D 00 
15:17:28:2451 Rx 1 0x1442 x 7 01 A0 00 05 00 7D 00 
15:17:28:2493 Rx 1 0x702 s 8 62 00 00 00 00 00 00 B0 
15:17:28:2495 Rx 1 0x703 s 8 32 64 C8 28 A5 71 5D 05 
15:17:28:2497 Rx 1 0x704 s 7 95 82 D9 98 83 22 22 
15:17:28:2500 Rx 1 0x705 s 8 86 A3 38 88 03 7D 00 00 
15:17:28:2502 Rx 1 0x706 s 8 1A C0 01 1A 00 7D 00 00 
15:17:28:2593 Rx 1 0x702 s 8 62 00 00 00 00 00 00 B0 
15:17:28:2595 Rx 1 0x703 s 8 32 66 CC 30 D0 07 E5 DF 
15:17:28:2597 Rx 1 0x704 s 7 95 82 D9 98 82 22 22 
15:17:28:2599 Rx 1 0x705 s 8 86 A3 38 88 03 7D 00 00 
15:17:28:2602 Rx 1 0x706 s 8 1A C0 01 1A 00 7D 00 00 
15:17:28:2692 Rx 1 0x703 s 8 33 66 CC 38 DA 07 13 38 
15:17:28:2695 Rx 1 0x702 s 8 62 00 00 00 00 00 00 B0 
15:17:28:2697 Rx 1 0x704 s 7 95 82 D8 98 82 22 22 
15:17:28:2699 Rx 1 0x705 s 8 88 A3 38 88 03 7D 00 00 
15:17:28:2701 Rx 1 0x706 s 8 1A C0 01 1A 00 7D 00 00 
15:17:28:2792 Rx 1 0x703 s 8 33 66 CC 00 2D 2C 2D 2D 
15:17:28:2795 Rx 1 0x702 s 8 62 00 00 00 00 00 00 B0 
15:17:28:2797 Rx 1 0x704 s 7 95 82 D8 98 82 22 22 
15:17:28:2799 Rx 1 0x705 s 8 86 A3 38 88 03 7D 00 00 
15:17:28:2802 Rx 1 0x706 s 8 1A C0 01 1A 00 7D 00 00 
15:17:28:2893 Rx 1 0x702 s 8 62 00 00 00 00 00 00 B0 
15:17:28:2895 Rx 1 0x703 s 8 33 68 CC 08 2D 2D 00 40 
15:17:28:2897 Rx 1 0x704 s 7 95 82 D8 98 83 22 22 
15:17:28:2899 Rx 1 0x705 s 8 88 A3 38 88 03 7D 00 00 
15:17:28:2902 Rx 1 0x706 s 8 1A C0 01 1A 00 7D 00 00 
15:17:28:2993 Rx 1 0x702 s 8 62 00 00 00 00 00 00 B0 
15:17:28:2995 Rx 1 0x703 s 8 33 68 D0 10 00 00 7D 00 
15:17:28:2997 Rx 1 0x704 s 7 95 82 D8 98 82 22 22 
15:17:28:3000 Rx 1 0x705 s 8 86 A3 38 88 03 7D 00 00 
15:17:28:3002 Rx 1 0x706 s 8 1A C0 01 1A 00 7D 00 00 
15:17:28:3092 Rx 1 0x703 s 8 34 68 D0 18 00 00 72 79 
15:17:28:3095 Rx 1 0x702 s 8 62 00 00 00 00 00 00 B0 
15:17:28:3097 Rx 1 0x704 s 7 95 82 D9 98 83 22 22 
15:17:28:3099 Rx 1 0x705 s 8 86 A3 38 88 03 7D 00 00 
15:17:28:3102 Rx 1 0x706 s 8 1A C0 01 1A 00 7D 00 00 
15:17:28:3192 Rx 1 0x703 s 8 34 68 D0 20 36 33 89 30 
15:17:28:3195 Rx 1 0x702 s 8 62 00 00 00 00 00 00 B0 
15:17:28:3197 Rx 1 0x704 s 7 95 82 D8 98 83 22 22 
15:17:28:3199 Rx 1 0x705 s 8 86 A3 38 88 03 7D 00 00 
15:17:28:3201 Rx 1 0x706 s 8 1A C0 01 1A 00 7D 00 00 
15:17:28:3292 Rx 1 0x702 s 8 62 00 00 00 00 00 00 B0 
15:17:28:3295 Rx 1 0x703 s 8 34 6A D0 28 A5 71 5D 05 
15:17:28:3297 Rx 1 0x704 s 7 95 82 D8 98 83 22 22 
15:17:28:3299 Rx 1 0x705 s 8 88 A3 38 88 03 7D 00 00 
15:17:28:3302 Rx 1 0x706 s 8 1A C0 01 1A 00 7D 00 00 
15:17:28:3393 Rx 1 0x702 s 8 62 00 00 00 00 00 00 B0 
15:17:28:3395 Rx 1 0x703 s 8 34 6A D4 30 D0 07 E5 DF 
15:17:28:3397 Rx 1 0x704 s 7 95 82 D9 98 82 22 22 
15:17:28:3399 Rx 1 0x705 s 8 88 A3 38 88 03 7D 00 00 
15:17:28:3402 Rx 1 0x706 s 8 1A C0 01 1A 00 7D 00 00 
15:17:28:3421 Rx 1 0x1003 x 8 0F 3E 00 40 6F 00 00 00 
15:17:28:3424 Rx 1 0x1002 x 8 0F 3E 00 A0 6F 00 00 00 
15:17:28:3427 Rx 1 0x1042 x 7 00 59 A4 A5 83 00 00 
15:17:28:3429 Rx 1 0x1043 x 7 00 59 A4 A5 83 00 00 
15:17:28:3432 Rx 1 0x1083 x 7 01 40 00 03 00 7D 00 
15:17:28:3435 Rx 1 0x10C3 x 7 00 10 00 00 00 7D 00 
15:17:28:3437 Rx 1 0x1103 x 7 01 40 00 02 00 7D 00 
15:17:28:3440 Rx 1 0x1142 x 7 03 50 00 04 00 7D 00 
15:17:28:3443 Rx 1 0x1182 x 7 00 10 00 00 00 7D 00 
15:17:28:3446 Rx 1 0x11C2 x 7 02 40 00 03 00 7D 00 
15:17:28:3449 Rx 1 0x1403 x 7 00 80 00 05 00 7D 00 
15:17:28:3451 Rx 1 0x1442 x 7 00 80 00 05 00 7D 00 
15:17:28:3492 Rx 1 0x702 s 8 62 00 00 00 00 00 00 B0 
15:17:28:3495 Rx 1 0x703 s 8 35 6A D4 38 DA 07 13 38 
15:17:28:3497 Rx 1 0x704 s 7 95 82 D9 98 82 22 22 
15:17:28:3499 Rx 1 0x705 s 8 86 A3 38 88 03 7D 00 00 
15:17:28:3502 Rx 1 0x706 s 8 1A C0 01 1A 00 7D 00 00 
15:17:28:3593 Rx 1 0x702 s 8 62 00 00 00 00 00 00 B0 
15:17:28:3595 Rx 1 0x703 s 8 35 6A D4 00 2D 2C 2D 2D 
15:17:28:3597 Rx 1 0x704 s 7 95 82 D8 98 82 22 22 
15:17:28:3600 Rx 1 0x705 s 8 88 A3 38 88 03 7D 00 00 
15:17:28:3602 Rx 1 0x706 s 8 1A C0 01 1A 00 7D 00 00 
15:17:28:3693 Rx 1 0x702 s 8 62 00 00 00 00 00 00 B0 
15:17:28:3695 Rx 1 0x703 s 8 35 6C D4 08 2D 2D 00 40 
15:17:28:3697 Rx 1 0x704 s 7 95 82 D8 98 83 22 22 
15:17:28:3699 Rx 1 0x705 s 8 88 A3 38 88 03 7D 00 00 
15:17:28:3702 Rx 1 0x706 s 8 1A C0 01 1A 00 7D 00 00 
15:17:28:3793 Rx 1 0x702 s 8 62 00 00 00 00 00 00 B0 
15:17:28:3795 Rx 1 0x703 s 8 35 6C D8 10 00 00 7D 00 
15:17:28:3797 Rx 1 0x704 s 7 95 82 D9 98 82 22 22 
15:17:28:3800 Rx 1 0x705 s 8 86 A3 38 88 03 7D 00 00 
15:17:28:3802 Rx 1 0x706 s 8 1A C0 01 1A 00 7D 00 00 
15:17:28:3892 Rx 1 0x703 s 8 36 6C D8 18 00 00 72 79 
15:17:28:3895 Rx 1 0x702 s 8 62 00 00 00 00 00 00 B0 
15:17:28:3897 Rx 1 0x704 s 7 95 82 D8 98 82 22 22 
15:17:28:3899 Rx 1 0x705 s 8 88 A3 38 88 03 7D 00 00 
15:17:28:3902 Rx 1 0x706 s 8 1A C0 01 1A 00 7D 00 00 
15:17:28:3992 Rx 1 0x703 s 8 36 6C D8 20 36 33 89 30 
15:17:28:3995 Rx 1 0x702 s 8 62 00 00 00 00 00 00 B0 
15:17:28:3997 Rx 1 0x704 s 7 95 82 D9 98 82 22 22 
15:17:28:3999 Rx 1 0x705 s 8 88 A3 38 88 03 7D 00 00 
15:17:28:4001 Rx 1 0x706 s 8 1A C0 01 1A 00 7D 00 00 
15:17:28:4092 Rx 1 0x702 s 8 62 00 00 00 00 00 00 B0 
15:17:28:4095 Rx 1 0x703 s 8 36 6E D8 28 A5 71 5D 05 
15:17:28:4097 Rx 1 0x704 s 7 95 82 D8 98 83 22 22 
15:17:28:4099 Rx 1 0x705 s 8 88 A3 38 88 03 7D 00 00 
15:17:28:4102 Rx 1 0x706 s 8 1A C0 01 1A 00 7D 00 00 
15:17:28:4193 Rx 1 0x702 s 8 62 00 00 00 00 00 00 B0 
15:17:28:4195 Rx 1 0x703 s 8 36 6E DC 30 D0 07 E5 DF 
15:17:28:4197 Rx 1 0x704 s 7 95 82 D9 98 83 22 22 
15:17:28:4199 Rx 1 0x705 s 8 88 A3 38 88 03 7D 00 00 
15:17:28:4202 Rx 1 0x706 s 8 1A C0 01 1A 00 7D 00 00 
15:17:28:4292 Rx 1 0x702 s 8 62 00 00 00 00 00 00 B0 
15:17:28:4295 Rx 1 0x703 s 8 37 6E DC 38 DA 07 13 38 
15:17:28:4297 Rx 1 0x704 s 7 95 82 D9 98 83 22 22 
15:17:28:4299 Rx 1 0x705 s 8 86 A3 38 88 03 7D 00 00 
15:17:28:4302 Rx 1 0x706 s 8 1A C0 01 1A 00 7D 00 00 
15:17:28:4393 Rx 1 0x702 s 8 62 00 00 00 00 00 00 B0 
15:17:28:4395 Rx 1 0x703 s 8 37 6E DC 00 2D 2C 2D 2D 
15:17:28:4397 Rx 1 0x704 s 7 95 82 D8 98 82 22 22 
15:17:28:4400 Rx 1 0x705 s 8 86 A3 38 88 03 7D 00 00 
15:17:28:4402 Rx 1 0x706 s 8 1A C0 01 1A 00 7D 00 00 
15:17:28:4421 Rx 1 0x1003 x 8 0F 3E 00 00 6F 00 00 00 
15:17:28:4424 Rx 1 0x1002 x 8 0F 3E 00 60 6F 00 00 00 
15:17:28:4426 Rx 1 0x1042 x 7 01 29 29 2A 2A 2A 2A 
15:17:28:4429 Rx 1 0x1043 x 7 01 2C 2C 2B 2B 28 28 
15:17:28:4432 Rx 1 0x1083 x 7 01 40 00 03 00 7D 00 
15:17:28:4435 Rx 1 0x10C3 x 7 00 10 00 00 00 7D 00 
15:17:28:4438 Rx 1 0x1103 x 7 01 40 00 02 00 7D 00 
15:17:28:4440 Rx 1 0x1142 x 7 03 40 00 04 00 7D 00 
15:17:28:4443 Rx 1 0x1182 x 7 00 10 00 00 00 7D 00 
15:17:28:4446 Rx 1 0x11C2 x 7 01 40 00 02 00 7D 00 
15:17:28:4448 Rx 1 0x1403 x 7 00 80 00 05 00 7D 00 
15:17:28:4451 Rx 1 0x1442 x 7 00 80 00 05 00 7D 00 
15:17:28:4492 Rx 1 0x703 s 8 37 70 DC 08 2D 2D 00 40 
15:17:28:4495 Rx 1 0x702 s 8 62 00 00 00 00 00 00 B0 
15:17:28:4497 Rx 1 0x704 s 7 95 82 D8 98 83 22 22 
15:17:28:4499 Rx 1 0x705 s 8 88 A3 38 88 03 7D 00 00 
15:17:28:4502 Rx 1 0x706 s 8 1A C0 01 1A 00 7D 00 00 
15:17:28:4593 Rx 1 0x702 s 8 62 00 00 00 00 00 00 B0 
15:17:28:4595 Rx 1 0x703 s 8 37 70 E0 10 00 00 7D 00 
15:17:28:4597 Rx 1 0x704 s 7 95 82 D8 98 83 22 22 
15:17:28:4600 Rx 1 0x705 s 8 88 A3 38 88 03 7D 00 00 
15:17:28:4602 Rx 1 0x706 s 8 1A C0 01 1A 00 7D 00 00 
15:17:28:4692 Rx 1 0x703 s 8 38 70 E0 18 00 00 72 79 
15:17:28:4695 Rx 1 0x702 s 8 62 00 00 00 00 00 00 B0 
15:17:28:4697 Rx 1 0x704 s 7 95 82 D8 98 83 22 22 
15:17:28:4699 Rx 1 0x705 s 8 88 A3 38 88 03 7D 00 00 
15:17:28:4702 Rx 1 0x706 s 8 1A C0 01 1A 00 7D 00 00 
15:17:28:4792 Rx 1 0x703 s 8 38 70 E0 20 36 33 89 30 
15:17:28:4795 Rx 1 0x702 s 8 62 00 00 00 00 00 00 B0 
15:17:28:4797 Rx 1 0x704 s 7 95 82 D8 98 83 22 22 
15:17:28:4799 Rx 1 0x705 s 8 86 A3 38 88 03 7D 00 00 
15:17:28:4801 Rx 1 0x706 s 8 1A C0 01 1A 00 7D 00 00 
15:17:28:4892 Rx 1 0x702 s 8 62 00 00 00 00 00 00 B0 
15:17:28:4895 Rx 1 0x703 s 8 38 70 E0 28 A5 71 5D 05 
15:17:28:4897 Rx 1 0x704 s 7 95 82 D9 98 82 22 22 
15:17:28:4899 Rx 1 0x705 s 8 88 A3 38 88 03 7D 00 00 
15:17:28:4902 Rx 1 0x706 s 8 1A C0 01 1A 00 7D 00 00 
15:17:28:4993 Rx 1 0x702 s 8 62 00 00 00 00 00 00 B0 
15:17:28:4995 Rx 1 0x703 s 8 38 72 E4 30 D0 07 E5 DF 
15:17:28:4997 Rx 1 0x704 s 7 95 82 D9 98 83 22 22 
15:17:28:4999 Rx 1 0x705 s 8 88 A3 38 88 03 7D 00 00 
15:17:28:5002 Rx 1 0x706 s 8 1A C0 01 1A 00 7D 00 00 
15:17:28:5092 Rx 1 0x702 s 8 62 00 00 00 00 00 00 B0 
15:17:28:5095 Rx 1 0x703 s 8 39 72 E4 38 DA 07 13 38 
15:17:28:5097 Rx 1 0x704 s 7 95 82 D9 98 82 22 22 
15:17:28:5099 Rx 1 0x705 s 8 88 A3 38 88 03 7D 00 00 
15:17:28:5102 Rx 1 0x706 s 8 1A C0 01 1A 00 7D 00 00 
15:17:28:5193 Rx 1 0x702 s 8 62 00 00 00 00 00 00 B0 
15:17:28:5195 Rx 1 0x703 s 8 39 72 E4 00 2D 2C 2D 2D 
15:17:28:5197 Rx 1 0x704 s 7 95 82 D9 98 83 22 22 
15:17:28:5200 Rx 1 0x705 s 8 88 A3 38 88 03 7D 00 00 
15:17:28:5202 Rx 1 0x706 s 8 1A C0 01 1A 00 7D 00 00 
15:17:28:5292 Rx 1 0x703 s 8 39 72 E4 08 2D 2D 00 40 
15:17:28:5295 Rx 1 0x702 s 8 62 00 00 00 00 00 00 B0 
15:17:28:5297 Rx 1 0x704 s 7 95 82 D9 98 83 22 22 
15:17:28:5299 Rx 1 0x705 s 8 88 A3 38 88 03 7D 00 00 
15:17:28:5302 Rx 1 0x706 s 8 1A C0 01 1A 00 7D 00 00 
15:17:28:5392 Rx 1 0x702 s 8 62 00 00 00 00 00 00 B0 
15:17:28:5395 Rx 1 0x703 s 8 39 74 E4 10 00 00 7D 00 
15:17:28:5397 Rx 1 0x704 s 7 95 82 D9 98 82 22 22 
15:17:28:5399 Rx 1 0x705 s 8 86 A3 38 88 03 7D 00 00 
15:17:28:5402 Rx 1 0x706 s 8 1A C0 01 1A 00 7D 00 00 
15:17:28:5421 Rx 1 0x1003 x 8 0F 3E 00 20 5F 00 00 00 
15:17:28:5424 Rx 1 0x1002 x 8 0F 3E 00 80 5F 00 00 00 
15:17:28:5427 Rx 1 0x1042 x 7 02 28 28 26 26 2B 2B 
15:17:28:5429 Rx 1 0x1043 x 7 02 25 25 26 26 2A 2A 
15:17:28:5432 Rx 1 0x1083 x 7 01 40 00 02 00 7D 00 
15:17:28:5435 Rx 1 0x10C3 x 7 00 10 00 00 00 7D 00 
15:17:28:5437 Rx 1 0x1103 x 7 01 40 00 03 00 7D 00 
15:17:28:5440 Rx 1 0x1142 x 7 03 40 00 04 00 7D 00 
15:17:28:5443 Rx 1 0x1182 x 7 00 10 00 00 00 7D 00 
15:17:28:5445 Rx 1 0x11C2 x 7 01 30 00 02 00 7D 00 
15:17:28:5448 Rx 1 0x1403 x 7 00 80 00 05 00 7D 00 
15:17:28:5451 Rx 1 0x1442 x 7 00 80 00 05 00 7D 00 
15:17:28:5493 Rx 1 0x702 s 8 62 00 00 00 00 00 00 B0 
15:17:28:5495 Rx 1 0x703 s 8 39 74 E8 18 00 00 72 79 
15:17:28:5497 Rx 1 0x704 s 7 95 82 D9 98 83 22 22 
15:17:28:5500 Rx 1 0x705 s 8 88 A3 38 88 03 7D 00 00 
15:17:28:5502 Rx 1 0x706 s 8 1A C0 01 1A 00 7D 00 00 
15:17:28:5592 Rx 1 0x703 s 8 3A 74 E8 20 36 33 89 30 
15:17:28:5595 Rx 1 0x702 s 8 62 00 00 00 00 00 00 B0 
15:17:28:5597 Rx 1 0x704 s 7 95 82 D9 98 83 22 22 
15:17:28:5599 Rx 1 0x705 s 8 86 A3 38 88 03 7D 00 00 
15:17:28:5601 Rx 1 0x706 s 8 1A C0 01 1A 00 7D 00 00 
15:17:28:5692 Rx 1 0x703 s 8 3A 74 E8 28 A5 71 5D 05 
15:17:28:5695 Rx 1 0x702 s 8 62 00 00 00 00 00 00 B0 
15:17:28:5697 Rx 1 0x704 s 7 95 82 D8 98 83 22 22 
15:17:28:5699 Rx 1 0x705 s 8 88 A3 38 88 03 7D 00 00 
15:17:28:5702 Rx 1 0x706 s 8 1A C0 01 1A 00 7D 00 00 
15:17:28:5793 Rx 1 0x702 s 8 62 00 00 00 00 00 00 B0 
15:17:28:5795 Rx 1 0x703 s 8 3A 76 E8 30 D0 07 E5 DF 
15:17:28:5797 Rx 1 0x704 s 7 95 82 D8 98 82 22 22 
15:17:28:5799 Rx 1 0x705 s 8 88 A3 38 88 03 7D 00 00 
15:17:28:5802 Rx 1 0x706 s 8 1A C0 01 1A 00 7D 00 00 
15:17:28:5893 Rx 1 0x702 s 8 62 00 00 00 00 00 00 B0 
15:17:28:5895 Rx 1 0x703 s 8 3A 76 EC 38 DA 07 13 38 
15:17:28:5897 Rx 1 0x704 s 7 95 82 D9 98 83 22 22 
15:17:28:5899 Rx 1 0x705 s 8 86 A3 38 88 03 7D 00 00 
15:17:28:5902 Rx 1 0x706 s 8 1A C0 01 1A 00 7D 00 00 
15:17:28:5993 Rx 1 0x702 s 8 62 00 00 00 00 00 00 B0 
15:17:28:5995 Rx 1 0x703 s 8 3B 76 EC 00 2D 2C 2D 2D 
15:17:28:5997 Rx 1 0x704 s 7 95 82 D9 98 82 22 22 
15:17:28:6000 Rx 1 0x705 s 8 88 A3 38 88 03 7D 00 00 
15:17:28:6002 Rx 1 0x706 s 8 1A C0 01 1A 00 7D 00 00 
15:17:28:6093 Rx 1 0x702 s 8 62 00 00 00 00 00 00 B0 
15:17:28:6095 Rx 1 0x703 s 8 3B 76 EC 08 2D 2D 00 40 
15:17:28:6097 Rx 1 0x704 s 7 95 82 D9 98 82 22 22 
15:17:28:6099 Rx 1 0x705 s 8 88 A3 38 88 03 7D 00 00 
15:17:28:6102 Rx 1 0x706 s 8 1A C0 01 1A 00 7D 00 00 
15:17:28:6193 Rx 1 0x702 s 8 62 00 00 00 00 00 00 B0 
15:17:28:6195 Rx 1 0x703 s 8 3B 76 EC 10 00 00 7D 00 
15:17:28:6197 Rx 1 0x704 s 7 95 82 D9 98 82 22 22 
15:17:28:6200 Rx 1 0x705 s 8 88 A3 38 88 03 7D 00 00 
15:17:28:6202 Rx 1 0x706 s 8 1A C0 01 1A 00 7D 00 00 
15:17:28:6292 Rx 1 0x703 s 8 3B 78 EC 18 00 00 72 79 
15:17:28:6295 Rx 1 0x702 s 8 62 00 00 00 00 00 00 B0 
15:17:28:6297 Rx 1 0x704 s 7 95 82 D9 98 82 22 22 
15:17:28:6299 Rx 1 0x705 s 8 88 A3 38 88 03 7D 00 00 
15:17:28:6302 Rx 1 0x706 s 8 1A C0 01 1A 00 7D 00 00 
15:17:28:6392 Rx 1 0x703 s 8 3B 78 F0 20 36 33 89 30 
15:17:28:6395 Rx 1 0x702 s 8 62 00 00 00 00 00 00 B0 
15:17:28:6397 Rx 1 0x704 s 7 95 82 D8 98 82 22 22 
15:17:28:6399 Rx 1 0x705 s 8 88 A3 38 88 03 7D 00 00 
15:17:28:6402 Rx 1 0x706 s 8 1A C0 01 1A 00 7D 00 00 
15:17:28:6421 Rx 1 0x1003 x 8 0F 3E 00 40 6F 00 00 00 
15:17:28:6424 Rx 1 0x1002 x 8 0F 3E 00 A0 6F 00 00 00 
15:17:28:6427 Rx 1 0x1042 x 7 03 28 28 26 26 2F 00 
15:17:28:6429 Rx 1 0x1043 x 7 03 2A 2A 28 28 2F 00 
15:17:28:6432 Rx 1 0x1083 x 7 01 40 00 02 00 7D 00 
15:17:28:6435 Rx 1 0x10C3 x 7 00 10 00 00 00 7D 00 
15:17:28:6437 Rx 1 0x1103 x 7 01 40 00 03 00 7D 00 
15:17:28:6440 Rx 1 0x1142 x 7 03 40 00 04 00 7D 00 
15:17:28:6443 Rx 1 0x1182 x 7 00 10 00 00 00 7D 00 
15:17:28:6445 Rx 1 0x11C2 x 7 01 30 00 02 00 7D 00 
15:17:28:6448 Rx 1 0x1403 x 7 00 80 00 05 00 7D 00 
15:17:28:6451 Rx 1 0x1442 x 7 00 80 00 05 00 7D 00 
15:17:28:6492 Rx 1 0x702 s 8 62 00 00 00 00 00 00 B0 
15:17:28:6495 Rx 1 0x703 s 8 3C 78 F0 28 A5 71 5D 05 
15:17:28:6497 Rx 1 0x704 s 7 95 82 D8 98 83 22 22 
15:17:28:6499 Rx 1 0x705 s 8 86 A3 38 88 03 7D 00 00 
15:17:28:6502 Rx 1 0x706 s 8 1A C0 01 1A 00 7D 00 00 
15:17:28:6593 Rx 1 0x702 s 8 62 00 00 00 00 00 00 B0 
15:17:28:6595 Rx 1 0x703 s 8 3C 78 F0 30 D0 07 E5 DF 
15:17:28:6597 Rx 1 0x704 s 7 95 82 D9 98 82 22 22 
15:17:28:6599 Rx 1 0x705 s 8 86 A3 38 88 03 7D 00 00 
15:17:28:6602 Rx 1 0x706 s 8 1A C0 01 1A 00 7D 00 00 
15:17:28:6693 Rx 1 0x702 s 8 62 00 00 00 00 00 00 B0 
15:17:28:6695 Rx 1 0x703 s 8 3C 78 F0 38 DA 07 13 38 
15:17:28:6697 Rx 1 0x704 s 7 95 82 D9 98 83 22 22 
15:17:28:6700 Rx 1 0x705 s 8 88 A3 38 88 03 7D 00 00 
15:17:28:6702 Rx 1 0x706 s 8 1A C0 01 1A 00 7D 00 00 
15:17:28:6793 Rx 1 0x702 s 8 62 00 00 00 00 00 00 B0 
15:17:28:6795 Rx 1 0x703 s 8 3C 7A F0 00 2D 2C 2D 2D 
15:17:28:6797 Rx 1 0x704 s 7 95 82 D9 98 83 22 22 
15:17:28:6800 Rx 1 0x705 s 8 88 A3 38 88 03 7D 00 00 
15:17:28:6802 Rx 1 0x706 s 8 1A C0 01 1A 00 7D 00 00 
15:17:28:6893 Rx 1 0x703 s 8 3C 7A F4 08 2D 2D 00 40 
15:17:28:6895 Rx 1 0x702 s 8 62 00 00 00 00 00 00 B0 
15:17:28:6897 Rx 1 0x704 s 7 95 82 D9 98 82 22 22 
15:17:28:6899 Rx 1 0x705 s 8 88 A3 38 88 03 7D 00 00 
15:17:28:6902 Rx 1 0x706 s 8 1A C0 01 1A 00 7D 00 00 
15:17:28:6992 Rx 1 0x702 s 8 62 00 00 00 00 00 00 B0 
15:17:28:6995 Rx 1 0x703 s 8 3D 7A F4 10 00 00 7D 00 
15:17:28:6997 Rx 1 0x704 s 7 95 82 D9 98 82 22 22 
15:17:28:7000 Rx 1 0x705 s 8 88 A3 38 88 03 7D 00 00 
15:17:28:7002 Rx 1 0x706 s 8 1A C0 01 1A 00 7D 00 00 
15:17:28:7093 Rx 1 0x702 s 8 62 00 00 00 00 00 00 B0 
15:17:28:7095 Rx 1 0x703 s 8 3D 7A F4 18 00 00 72 79 
15:17:28:7097 Rx 1 0x704 s 7 95 82 D9 98 83 22 22 
15:17:28:7100 Rx 1 0x705 s 8 88 A3 38 88 03 7D 00 00 
15:17:28:7102 Rx 1 0x706 s 8 1A C0 01 1A 00 7D 00 00 
15:17:28:7193 Rx 1 0x703 s 8 3D 7A F4 20 36 33 89 30 
15:17:28:7195 Rx 1 0x702 s 8 62 00 00 00 00 00 00 B0 
15:17:28:7197 Rx 1 0x704 s 7 95 82 D8 98 82 22 22 
15:17:28:7199 Rx 1 0x705 s 8 88 A3 38 88 03 7D 00 00 
15:17:28:7202 Rx 1 0x706 s 8 1A C0 01 1A 00 7D 00 00 
15:17:28:7292 Rx 1 0x703 s 8 3D 7C F4 28 A5 71 5D 05 
15:17:28:7295 Rx 1 0x702 s 8 62 00 00 00 00 00 00 B0 
15:17:28:7297 Rx 1 0x704 s 7 95 82 D9 98 82 22 22 
15:17:28:7299 Rx 1 0x705 s 8 86 A3 38 88 03 7D 00 00 
15:17:28:7302 Rx 1 0x706 s 8 1A C0 01 1A 00 7D 00 00 
15:17:28:7393 Rx 1 0x702 s 8 62 00 00 00 00 00 00 B0 
15:17:28:7395 Rx 1 0x703 s 8 3D 7C F4 30 D0 07 E5 DF 
15:17:28:7397 Rx 1 0x704 s 7 95 82 D9 98 83 22 22 
15:17:28:7399 Rx 1 0x705 s 8 88 A3 38 88 03 7D 00 00 
15:17:28:7402 Rx 1 0x706 s 8 1A C0 01 1A 00 7D 00 00 
15:17:28:7421 Rx 1 0x1003 x 8 0F 3E 00 00 6F 00 00 00 
15:17:28:7424 Rx 1 0x1002 x 8 0F 3E 00 60 6F 00 00 00 
15:17:28:7426 Rx 1 0x1042 x 7 04 E8 03 5C 76 BE 32 
15:17:28:7429 Rx 1 0x1043 x 7 04 E8 03 86 96 BE 32 
15:17:28:7432 Rx 1 0x1083 x 7 01 40 00 02 00 7D 00 
15:17:28:7434 Rx 1 0x10C3 x 7 00 10 00 00 00 7D 00 
15:17:28:7437 Rx 1 0x1103 x 7 01 40 00 03 00 7D 00 
15:17:28:7440 Rx 1 0x1142 x 7 03 40 00 04 00 7D 00 
15:17:28:7443 Rx 1 0x1182 x 7 00 10 00 00 00 7D 00 
15:17:28:7446 Rx 1 0x11C2 x 7 01 40 00 02 00 7D 00 
15:17:28:7448 Rx 1 0x1403 x 7 00 80 00 05 00 7D 00 
15:17:28:7451 Rx 1 0x1442 x 7 00 80 00 05 00 7D 00 
15:17:28:7492 Rx 1 0x702 s 8 62 00 00 00 00 00 00 B0 
15:17:28:7495 Rx 1 0x703 s 8 3D 7C F8 38 DA 07 13 38 
15:17:28:7497 Rx 1 0x704 s 7 95 82 D9 98 82 22 22 
15:17:28:7499 Rx 1 0x705 s 8 88 A3 38 88 03 7D 00 00 
15:17:28:7502 Rx 1 0x706 s 8 1A C0 01 1A 00 7D 00 00 
15:17:28:7593 Rx 1 0x702 s 8 62 00 00 00 00 00 00 B0 
15:17:28:7595 Rx 1 0x703 s 8 3E 7C F8 00 2D 2C 2D 2D 
15:17:28:7597 Rx 1 0x704 s 7 95 82 D9 98 83 22 22 
15:17:28:7600 Rx 1 0x705 s 8 88 A3 38 88 03 7D 00 00 
15:17:28:7602 Rx 1 0x706 s 8 1A C0 01 1A 00 7D 00 00 
15:17:28:7693 Rx 1 0x703 s 8 3E 7C F8 08 2D 2D 00 40 
15:17:28:7695 Rx 1 0x702 s 8 62 00 00 00 00 00 00 B0 
15:17:28:7697 Rx 1 0x704 s 7 95 82 D8 98 83 22 22 
15:17:28:7699 Rx 1 0x705 s 8 86 A3 38 88 03 7D 00 00 
15:17:28:7702 Rx 1 0x706 s 8 1A C0 01 1A 00 7D 00 00 
15:17:28:7792 Rx 1 0x702 s 8 62 00 00 00 00 00 00 B0 
15:17:28:7795 Rx 1 0x703 s 8 3E 7C F8 10 00 00 7D 00 
15:17:28:7797 Rx 1 0x704 s 7 95 82 D9 98 82 22 22 
15:17:28:7800 Rx 1 0x705 s 8 88 A3 38 88 03 7D 00 00 
15:17:28:7802 Rx 1 0x706 s 8 1A C0 01 1A 00 7D 00 00 
15:17:28:7893 Rx 1 0x702 s 8 62 00 00 00 00 00 00 B0 
15:17:28:7895 Rx 1 0x703 s 8 3E 7C F8 18 00 00 72 79 
15:17:28:7897 Rx 1 0x704 s 7 95 82 D8 98 83 22 22 
15:17:28:7900 Rx 1 0x705 s 8 88 A3 38 88 03 7D 00 00 
15:17:28:7902 Rx 1 0x706 s 8 1A C0 01 1A 00 7D 00 00 
15:17:28:7993 Rx 1 0x703 s 8 3E 7C F8 20 36 33 89 30 
15:17:28:7995 Rx 1 0x702 s 8 62 00 00 00 00 00 00 B0 
15:17:28:7997 Rx 1 0x704 s 7 95 82 D9 98 83 22 22 
15:17:28:7999 Rx 1 0x705 s 8 88 A3 38 88 03 7D 00 00 
15:17:28:8002 Rx 1 0x706 s 8 1A C0 01 1A 00 7D 00 00 
15:17:28:8092 Rx 1 0x703 s 8 3E 7E F8 28 A5 71 5D 05 
15:17:28:8095 Rx 1 0x702 s 8 62 00 00 00 00 00 00 B0 
15:17:28:8097 Rx 1 0x704 s 7 95 82 D9 98 83 22 22 
15:17:28:8099 Rx 1 0x705 s 8 88 A3 38 88 03 7D 00 00 
15:17:28:8102 Rx 1 0x706 s 8 1A C0 01 1A 00 7D 00 00 
15:17:28:8193 Rx 1 0x702 s 8 62 00 00 00 00 00 00 B0 
15:17:28:8195 Rx 1 0x703 s 8 3E 7E FC 30 D0 07 E5 DF 
15:17:28:8197 Rx 1 0x704 s 7 95 82 D9 98 83 22 22 
15:17:28:8199 Rx 1 0x705 s 8 86 A3 38 88 03 7D 00 00 
15:17:28:8202 Rx 1 0x706 s 8 1A C0 01 1A 00 7D 00 00 
15:17:28:8293 Rx 1 0x702 s 8 62 00 00 00 00 00 00 B0 
15:17:28:8295 Rx 1 0x703 s 8 3F 7E FC 38 DA 07 13 38 
15:17:28:8297 Rx 1 0x704 s 7 95 82 D8 98 83 22 22 
15:17:28:8299 Rx 1 0x705 s 8 86 A3 38 88 03 7D 00 00 
15:17:28:8302 Rx 1 0x706 s 8 1A C0 01 1A 00 7D 00 00 
15:17:28:8393 Rx 1 0x702 s 8 62 00 00 00 00 00 00 B0 
15:17:28:8395 Rx 1 0x703 s 8 3F 7E FC 00 2D 2C 2D 2D 
15:17:28:8397 Rx 1 0x704 s 7 95 82 D9 98 82 22 22 
15:17:28:8400 Rx 1 0x705 s 8 86 A3 38 88 03 7D 00 00 
15:17:28:8402 Rx 1 0x706 s 8 1A C0 01 1A 00 7D 00 00 
15:17:28:8421 Rx 1 0x1003 x 8 0F 3E 00 20 5F 00 00 00 
15:17:28:8424 Rx 1 0x1002 x 8 0F 3E 00 80 5F 00 00 00 
15:17:28:8426 Rx 1 0x1042 x 7 05 E9 03 D5 28 85 34 
15:17:28:8429 Rx 1 0x1043 x 7 05 E9 03 D5 28 85 34 
15:17:28:8432 Rx 1 0x1083 x 7 01 40 00 02 00 7D 00 
15:17:28:8435 Rx 1 0x10C3 x 7 00 10 00 00 00 7D 00 
15:17:28:8438 Rx 1 0x1103 x 7 02 40 00 03 00 7D 00 
15:17:28:8440 Rx 1 0x1142 x 7 03 40 00 04 00 7D 00 
15:17:28:8443 Rx 1 0x1182 x 7 00 10 00 00 00 7D 00 
15:17:28:8446 Rx 1 0x11C2 x 7 01 40 00 03 00 7D 00 
15:17:28:8448 Rx 1 0x1403 x 7 00 80 00 05 00 7D 00 
15:17:28:8451 Rx 1 0x1442 x 7 00 80 00 05 00 7D 00 
15:17:28:8493 Rx 1 0x703 s 8 3F 7E FC 08 2D 2D 00 40 
15:17:28:8495 Rx 1 0x702 s 8 62 00 00 00 00 00 00 B0 
15:17:28:8497 Rx 1 0x704 s 7 95 82 D9 98 82 22 22 
15:17:28:8499 Rx 1 0x705 s 8 86 A3 38 88 03 7D 00 00 
15:17:28:8502 Rx 1 0x706 s 8 1A C0 01 1A 00 7D 00 00 
15:17:28:8592 Rx 1 0x702 s 8 62 00 00 00 00 00 00 B0 
15:17:28:8595 Rx 1 0x703 s 8 3F 7E FC 10 00 00 7D 00 
15:17:28:8597 Rx 1 0x704 s 7 95 82 D9 98 83 22 22 
15:17:28:8600 Rx 1 0x705 s 8 86 A3 38 88 03 7D 00 00 
15:17:28:8602 Rx 1 0x706 s 8 1A C0 01 1A 00 7D 00 00 
15:17:28:8693 Rx 1 0x702 s 8 62 00 00 00 00 00 00 B0 
15:17:28:8695 Rx 1 0x703 s 8 3F 7E FC 18 00 00 72 79 
15:17:28:8697 Rx 1 0x704 s 7 95 82 D8 98 82 22 22 
15:17:28:8700 Rx 1 0x705 s 8 86 A3 38 88 03 7D 00 00 
15:17:28:8702 Rx 1 0x706 s 8 1A C0 01 1A 00 7D 00 00 
15:17:28:8793 Rx 1 0x702 s 8 62 00 00 00 00 00 00 B0 
15:17:28:8795 Rx 1 0x703 s 8 3F 80 FC 20 36 33 89 30 
15:17:28:8797 Rx 1 0x704 s 7 95 82 D9 98 83 22 22 
15:17:28:8800 Rx 1 0x705 s 8 88 A3 38 88 03 7D 00 00 
15:17:28:8802 Rx 1 0x706 s 8 1A C0 01 1A 00 7D 00 00 
15:17:28:8892 Rx 1 0x703 s 8 3F 80 FC 28 A5 71 5D 05 
15:17:28:8895 Rx 1 0x702 s 8 62 00 00 00 00 00 00 B0 
15:17:28:8897 Rx 1 0x704 s 7 95 82 D9 98 83 22 22 
15:17:28:8899 Rx 1 0x705 s 8 88 A3 38 88 03 7D 00 00 
15:17:28:8902 Rx 1 0x706 s 8 1A C0 01 1A 00 7D 00 00 
15:17:28:8993 Rx 1 0x703 s 8 3F 80 00 31 D0 07 E5 DF 
15:17:28:8995 Rx 1 0x702 s 8 62 00 00 00 00 00 00 B0 
15:17:28:8997 Rx 1 0x704 s 7 95 82 D9 98 83 22 22 
15:17:28:8999 Rx 1 0x705 s 8 86 A3 38 88 03 7D 00 00 
15:17:28:9002 Rx 1 0x706 s 8 1A C0 01 1A 00 7D 00 00 
15:17:28:9093 Rx 1 0x702 s 8 62 00 00 00 00 00 00 B0 
15:17:28:9095 Rx 1 0x703 s 8 40 80 00 39 DA 07 13 38 
15:17:28:9097 Rx 1 0x704 s 7 95 82 D9 98 83 22 22 
15:17:28:9099 Rx 1 0x705 s 8 86 A3 38 88 03 7D 00 00 
15:17:28:9102 Rx 1 0x706 s 8 1A C0 01 1A 00 7D 00 00 
15:17:28:9193 Rx 1 0x702 s 8 62 00 00 00 00 00 00 B0 
15:17:28:9195 Rx 1 0x703 s 8 40 80 00 01 2D 2C 2D 2D 
15:17:28:9197 Rx 1 0x704 s 7 95 82 D8 98 83 22 22 
15:17:28:9200 Rx 1 0x705 s 8 88 A3 38 88 03 7D 00 00 
15:17:28:9202 Rx 1 0x706 s 8 1A C0 01 1A 00 7D 00 00 
15:17:28:9293 Rx 1 0x703 s 8 40 80 00 09 2D 2D 00 40 
15:17:28:9295 Rx 1 0x702 s 8 62 00 00 00 00 00 00 B0 
15:17:28:9297 Rx 1 0x704 s 7 95 82 D9 98 83 22 22 
15:17:28:9299 Rx 1 0x705 s 8 86 A3 38 88 03 7D 00 00 
15:17:28:9302 Rx 1 0x706 s 8 1A C0 01 1A 00 7D 00 00 
15:17:28:9392 Rx 1 0x702 s 8 62 00 00 00 00 00 00 B0 
15:17:28:9395 Rx 1 0x703 s 8 40 80 00 11 00 00 7D 00 
15:17:28:9397 Rx 1 0x704 s 7 95 82 D9 98 83 22 22 
15:17:28:9400 Rx 1 0x705 s 8 86 A3 38 88 03 7D 00 00 
15:17:28:9402 Rx 1 0x706 s 8 1A C0 01 1A 00 7D 00 00 
15:17:28:9421 Rx 1 0x1043 x 7 06 31 7E FF FF FF FF 
15:17:28:9424 Rx 1 0x1002 x 8 0F 3E 00 A0 6F 00 00 00 
15:17:28:9427 Rx 1 0x1003 x 8 0F 3E 00 40 6F 00 00 00 
15:17:28:9429 Rx 1 0x1042 x 7 06 31 7E C1 64 25 0B 
15:17:28:9432 Rx 1 0x1083 x 7 01 40 00 02 00 7D 00 
15:17:28:9435 Rx 1 0x10C3 x 7 00 10 00 00 00 7D 00 
15:17:28:9437 Rx 1 0x1103 x 7 01 40 00 03 00 7D 00 
15:17:28:9440 Rx 1 0x1142 x 7 03 40 00 04 00 7D 00 
15:17:28:9443 Rx 1 0x1182 x 7 00 10 00 00 00 7D 00 
15:17:28:9446 Rx 1 0x11C2 x 7 01 40 00 03 00 7D 00 
15:17:28:9448 Rx 1 0x1403 x 7 00 80 00 05 00 7D 00 
15:17:28:9451 Rx 1 0x1442 x 7 00 80 00 05 00 7D 00 
15:17:28:9493 Rx 1 0x702 s 8 62 00 00 00 00 00 00 B0 
15:17:28:9495 Rx 1 0x703 s 8 40 80 00 19 00 00 72 79 
15:17:28:9497 Rx 1 0x704 s 7 95 82 D9 98 82 22 22 
15:17:28:9500 Rx 1 0x705 s 8 88 A3 38 88 03 7D 00 00 
15:17:28:9502 Rx 1 0x706 s 8 1A C0 01 1A 00 7D 00 00 
15:17:28:9593 Rx 1 0x702 s 8 62 00 00 00 00 00 00 B0 
15:17:28:9595 Rx 1 0x703 s 8 40 82 00 21 36 33 89 30 
15:17:28:9597 Rx 1 0x704 s 7 95 82 D9 98 82 22 22 
15:17:28:9600 Rx 1 0x705 s 8 86 A3 38 88 03 7D 00 00 
15:17:28:9602 Rx 1 0x706 s 8 1A C0 01 1A 00 7D 00 00 
15:17:28:9692 Rx 1 0x703 s 8 40 82 04 29 A5 71 5D 05 
15:17:28:9695 Rx 1 0x702 s 8 62 00 00 00 00 00 00 B0 
15:17:28:9697 Rx 1 0x704 s 7 95 82 D8 98 82 22 22 
15:17:28:9699 Rx 1 0x705 s 8 88 A3 38 88 03 7D 00 00 
15:17:28:9702 Rx 1 0x706 s 8 1A C0 01 1A 00 7D 00 00 
15:17:28:9793 Rx 1 0x703 s 8 40 82 04 31 D0 07 E5 DF 
15:17:28:9795 Rx 1 0x702 s 8 62 00 00 00 00 00 00 B0 
15:17:28:9797 Rx 1 0x704 s 7 95 82 D8 98 83 22 22 
15:17:28:9800 Rx 1 0x705 s 8 86 A3 38 88 03 7D 00 00 
15:17:28:9802 Rx 1 0x706 s 8 1A C0 01 1A 00 7D 00 00 
15:17:28:9893 Rx 1 0x702 s 8 62 00 00 00 00 00 00 B0 
15:17:28:9895 Rx 1 0x703 s 8 41 82 04 39 DA 07 13 38 
15:17:28:9897 Rx 1 0x704 s 7 95 82 D9 98 82 22 22 
15:17:28:9899 Rx 1 0x705 s 8 88 A3 38 88 03 7D 00 00 
15:17:28:9902 Rx 1 0x706 s 8 1A C0 01 1A 00 7D 00 00 
15:17:28:9993 Rx 1 0x702 s 8 62 00 00 00 00 00 00 B0 
15:17:28:9995 Rx 1 0x703 s 8 41 82 04 01 2D 2C 2D 2D 
15:17:28:9997 Rx 1 0x704 s 7 95 82 D9 98 83 22 22 
15:17:29:0000 Rx 1 0x705 s 8 88 A3 38 88 03 7D 00 00 
15:17:29:0002 Rx 1 0x706 s 8 1A C0 01 1A 00 7D 00 00 
15:17:29:0093 Rx 1 0x702 s 8 62 00 00 00 00 00 00 B0 
15:17:29:0095 Rx 1 0x703 s 8 41 82 04 09 2D 2D 00 40 
15:17:29:0097 Rx 1 0x704 s 7 95 82 D8 98 83 22 22 
15:17:29:0100 Rx 1 0x705 s 8 88 A3 38 88 03 7D 00 00 
15:17:29:0102 Rx 1 0x706 s 8 1A C0 01 1A 00 7D 00 00 
15:17:29:0192 Rx 1 0x702 s 8 62 00 00 00 00 00 00 B0 
15:17:29:0195 Rx 1 0x703 s 8 41 82 04 11 00 00 7D 00 
15:17:29:0197 Rx 1 0x704 s 7 95 82 D8 98 82 22 22 
15:17:29:0200 Rx 1 0x705 s 8 88 A3 38 88 03 7D 00 00 
15:17:29:0202 Rx 1 0x706 s 8 18 C0 01 1A 00 7D 00 00 
15:17:29:0293 Rx 1 0x702 s 8 62 00 00 00 00 00 00 B0 
15:17:29:0296 Rx 1 0x703 s 8 41 82 04 19 00 00 72 79 
15:17:29:0298 Rx 1 0x704 s 7 95 82 D8 98 83 22 22 
15:17:29:0300 Rx 1 0x705 s 8 88 A3 38 88 03 7D 00 00 
15:17:29:0302 Rx 1 0x706 s 8 1A C0 01 1A 00 7D 00 00 
15:17:29:0393 Rx 1 0x702 s 8 62 00 00 00 00 00 00 B0 
15:17:29:0395 Rx 1 0x703 s 8 41 84 04 21 36 33 89 30 
15:17:29:0398 Rx 1 0x704 s 7 95 82 D8 98 82 22 22 
15:17:29:0400 Rx 1 0x705 s 8 86 A3 38 88 03 7D 00 00 
15:17:29:0402 Rx 1 0x706 s 8 1A C0 01 1A 00 7D 00 00 
15:17:29:0421 Rx 1 0x1043 x 7 07 00 00 00 00 00 00 
15:17:29:0424 Rx 1 0x1002 x 8 0F 3E 00 60 6F 00 00 00 
15:17:29:0427 Rx 1 0x1003 x 8 0F 3E 00 00 6F 00 00 00 
15:17:29:0430 Rx 1 0x1042 x 7 07 00 00 00 00 00 00 
15:17:29:0433 Rx 1 0x1083 x 7 01 30 00 02 00 7D 00 
15:17:29:0435 Rx 1 0x10C3 x 7 00 10 00 00 00 7D 00 
15:17:29:0438 Rx 1 0x1103 x 7 01 40 00 03 00 7D 00 
15:17:29:0441 Rx 1 0x1142 x 7 03 40 00 04 00 7D 00 
15:17:29:0443 Rx 1 0x1182 x 7 00 10 00 00 00 7D 00 
15:17:29:0446 Rx 1 0x11C2 x 7 01 40 00 02 00 7D 00 
15:17:29:0449 Rx 1 0x1403 x 7 00 80 00 05 00 7D 00 
15:17:29:0451 Rx 1 0x1442 x 7 00 80 00 05 00 7D 00 
15:17:29:0493 Rx 1 0x703 s 8 41 84 04 29 A5 71 5D 05 
15:17:29:0495 Rx 1 0x702 s 8 62 00 00 00 00 00 00 B0 
15:17:29:0497 Rx 1 0x704 s 7 95 82 D8 98 82 22 22 
15:17:29:0500 Rx 1 0x705 s 8 86 A3 38 88 03 7D 00 00 
15:17:29:0502 Rx 1 0x706 s 8 1A C0 01 1A 00 7D 00 00 
15:17:29:0593 Rx 1 0x703 s 8 41 84 08 31 D0 07 E5 DF 
15:17:29:0595 Rx 1 0x702 s 8 62 00 00 00 00 00 00 B0 
15:17:29:0597 Rx 1 0x704 s 7 95 82 D8 98 82 22 22 
15:17:29:0600 Rx 1 0x705 s 8 86 A3 38 88 03 7D 00 00 
15:17:29:0602 Rx 1 0x706 s 8 1A C0 01 1A 00 7D 00 00 
15:17:29:0693 Rx 1 0x702 s 8 62 00 00 00 00 00 00 B0 
15:17:29:0695 Rx 1 0x703 s 8 42 84 08 39 DA 07 13 38 
15:17:29:0698 Rx 1 0x704 s 7 95 82 D9 98 83 22 22 
15:17:29:0700 Rx 1 0x705 s 8 88 A3 38 88 03 7D 00 00 
15:17:29:0702 Rx 1 0x706 s 8 1A C0 01 1A 00 7D 00 00 
15:17:29:0793 Rx 1 0x702 s 8 62 00 00 00 00 00 00 B0 
15:17:29:0795 Rx 1 0x703 s 8 42 84 08 01 2D 2C 2D 2D 
15:17:29:0797 Rx 1 0x704 s 7 95 82 D9 98 82 22 22 
15:17:29:0800 Rx 1 0x705 s 8 86 A3 38 88 03 7D 00 00 
15:17:29:0802 Rx 1 0x706 s 8 1A C0 01 1A 00 7D 00 00 
15:17:29:0893 Rx 1 0x702 s 8 62 00 00 00 00 00 00 B0 
15:17:29:0895 Rx 1 0x703 s 8 42 84 08 09 2D 2D 00 40 
15:17:29:0898 Rx 1 0x704 s 7 95 82 D9 98 83 22 22 
15:17:29:0900 Rx 1 0x705 s 8 86 A3 38 88 03 7D 00 00 
15:17:29:0902 Rx 1 0x706 s 8 1A C0 01 1A 00 7D 00 00 
15:17:29:0993 Rx 1 0x703 s 8 42 84 08 11 00 00 7D 00 
15:17:29:0995 Rx 1 0x702 s 8 62 00 00 00 00 00 00 B0 
15:17:29:0997 Rx 1 0x704 s 7 95 82 D9 98 83 22 22 
15:17:29:1000 Rx 1 0x705 s 8 88 A3 38 88 03 7D 00 00 
15:17:29:1002 Rx 1 0x706 s 8 1A C0 01 1A 00 7D 00 00 
15:17:29:1093 Rx 1 0x702 s 8 62 00 00 00 00 00 00 B0 
15:17:29:1095 Rx 1 0x703 s 8 42 84 08 19 00 00 72 79 
15:17:29:1097 Rx 1 0x704 s 7 95 82 D8 98 82 22 22 
15:17:29:1100 Rx 1 0x705 s 8 88 A3 38 88 03 7D 00 00 
15:17:29:1102 Rx 1 0x706 s 8 1A C0 01 1A 00 7D 00 00 
15:17:29:1193 Rx 1 0x702 s 8 62 00 00 00 00 00 00 B0 
15:17:29:1195 Rx 1 0x703 s 8 42 84 08 21 36 33 89 30 
15:17:29:1198 Rx 1 0x704 s 7 95 82 D8 98 83 22 22 
15:17:29:1200 Rx 1 0x705 s 8 88 A3 38 88 03 7D 00 00 
15:17:29:1202 Rx 1 0x706 s 8 1A C0 01 1A 00 7D 00 00 
15:17:29:1293 Rx 1 0x702 s 8 62 00 00 00 00 00 00 B0 
15:17:29:1295 Rx 1 0x703 s 8 42 86 08 29 A5 71 5D 05 
15:17:29:1297 Rx 1 0x704 s 7 95 82 D9 98 83 22 22 
15:17:29:1300 Rx 1 0x705 s 8 86 A3 38 88 03 7D 00 00 
15:17:29:1303 Rx 1 0x706 s 8 1A C0 01 1A 00 7D 00 00 
15:17:29:1393 Rx 1 0x703 s 8 42 86 0C 31 D0 07 E5 DF 
15:17:29:1395 Rx 1 0x702 s 8 62 00 00 00 00 00 00 B0 
15:17:29:1397 Rx 1 0x704 s 7 95 82 D9 98 83 22 22 
15:17:29:1400 Rx 1 0x705 s 8 88 A3 38 88 03 7D 00 00 
15:17:29:1402 Rx 1 0x706 s 8 1A C0 01 1A 00 7D 00 00 
15:17:29:1422 Rx 1 0x1003 x 8 0F 3E 00 20 5F 00 00 00 
15:17:29:1425 Rx 1 0x1002 x 8 0F 3E 00 80 5F 00 00 00 
15:17:29:1427 Rx 1 0x1042 x 7 08 65 64 63 63 64 64 
15:17:29:1430 Rx 1 0x1043 x 7 08 65 64 63 63 64 64 
15:17:29:1432 Rx 1 0x1083 x 7 00 30 00 02 00 7D 00 
15:17:29:1435 Rx 1 0x10C3 x 7 00 10 00 00 00 7D 00 
15:17:29:1438 Rx 1 0x1103 x 7 01 40 00 02 00 7D 00 
15:17:29:1440 Rx 1 0x1142 x 7 03 40 00 04 00 7D 00 
15:17:29:1443 Rx 1 0x1182 x 7 00 10 00 00 00 7D 00 
15:17:29:1446 Rx 1 0x11C2 x 7 01 40 00 02 00 7D 00 
15:17:29:1448 Rx 1 0x1403 x 7 00 80 00 05 00 7D 00 
15:17:29:1451 Rx 1 0x1442 x 7 00 80 00 05 00 7D 00 
15:17:29:1493 Rx 1 0x703 s 8 43 86 0C 39 DA 07 13 38 
15:17:29:1495 Rx 1 0x702 s 8 62 00 00 00 00 00 00 B0 
15:17:29:1498 Rx 1 0x704 s 7 95 82 D8 98 83 22 22 
15:17:29:1500 Rx 1 0x705 s 8 88 A3 38 88 03 7D 00 00 
15:17:29:1502 Rx 1 0x706 s 8 1A C0 01 1A 00 7D 00 00 
15:17:29:1593 Rx 1 0x702 s 8 62 00 00 00 00 00 00 B0 
15:17:29:1595 Rx 1 0x703 s 8 43 86 0C 01 2D 2C 2D 2D 
15:17:29:1597 Rx 1 0x704 s 7 95 82 D8 98 83 22 22 
15:17:29:1600 Rx 1 0x705 s 8 86 A3 38 88 03 7D 00 00 
15:17:29:1602 Rx 1 0x706 s 8 1A C0 01 1A 00 7D 00 00 
15:17:29:1693 Rx 1 0x702 s 8 62 00 00 00 00 00 00 B0 
15:17:29:1695 Rx 1 0x703 s 8 43 86 0C 09 2D 2D 00 40 
15:17:29:1698 Rx 1 0x704 s 7 95 82 D8 98 82 22 22 
15:17:29:1700 Rx 1 0x705 s 8 88 A3 38 88 03 7D 00 00 
15:17:29:1702 Rx 1 0x706 s 8 1A C0 01 1A 00 7D 00 00 
15:17:29:1793 Rx 1 0x703 s 8 43 86 0C 11 00 00 7D 00 
15:17:29:1795 Rx 1 0x702 s 8 62 00 00 00 00 00 00 B0 
15:17:29:1797 Rx 1 0x704 s 7 95 82 D9 98 83 22 22 
15:17:29:1800 Rx 1 0x705 s 8 86 A3 38 88 03 7D 00 00 
15:17:29:1802 Rx 1 0x706 s 8 1A C0 01 1A 00 7D 00 00 
15:17:29:1893 Rx 1 0x702 s 8 62 00 00 00 00 00 00 B0 
15:17:29:1895 Rx 1 0x703 s 8 43 86 0C 19 00 00 72 79 
15:17:29:1897 Rx 1 0x704 s 7 95 82 D9 98 83 22 22 
15:17:29:1900 Rx 1 0x705 s 8 88 A3 38 88 03 7D 00 00 
15:17:29:1902 Rx 1 0x706 s 8 1A C0 01 1A 00 7D 00 00 
15:17:29:1993 Rx 1 0x702 s 8 62 00 00 00 00 00 00 B0 
15:17:29:1995 Rx 1 0x703 s 8 43 86 0C 21 36 33 89 30 
15:17:29:1998 Rx 1 0x704 s 7 95 82 D8 98 83 22 22 
15:17:29:2000 Rx 1 0x705 s 8 86 A3 38 88 03 7D 00 00 
15:17:29:2002 Rx 1 0x706 s 8 1A C0 01 1A 00 7D 00 00 
15:17:29:2093 Rx 1 0x702 s 8 62 00 00 00 00 00 00 B0 
15:17:29:2095 Rx 1 0x703 s 8 43 88 0C 29 A5 71 5D 05 
15:17:29:2097 Rx 1 0x704 s 7 95 82 D8 98 83 22 22 
15:17:29:2100 Rx 1 0x705 s 8 88 A3 38 88 03 7D 00 00 
15:17:29:2103 Rx 1 0x706 s 8 1A C0 01 1A 00 7D 00 00 
15:17:29:2193 Rx 1 0x703 s 8 43 88 0C 31 D0 07 E5 DF 
15:17:29:2195 Rx 1 0x702 s 8 62 00 00 00 00 00 00 B0 
15:17:29:2197 Rx 1 0x704 s 7 95 82 D9 98 83 22 22 
15:17:29:2200 Rx 1 0x705 s 8 86 A3 38 88 03 7D 00 00 
15:17:29:2202 Rx 1 0x706 s 8 1A C0 01 1A 00 7D 00 00 
15:17:29:2293 Rx 1 0x703 s 8 43 88 10 39 DA 07 13 38 
15:17:29:2295 Rx 1 0x702 s 8 62 00 00 00 00 00 00 B0 
15:17:29:2298 Rx 1 0x704 s 7 95 82 D9 98 82 22 22 
15:17:29:2300 Rx 1 0x705 s 8 86 A3 38 88 03 7D 00 00 
15:17:29:2302 Rx 1 0x706 s 8 1A C0 01 1A 00 7D 00 00 
15:17:29:2357 Rx 1 0x687 x 8 01 00 00 00 00 00 00 01 
15:17:29:2393 Rx 1 0x702 s 8 62 00 00 00 00 00 00 B0 
15:17:29:2395 Rx 1 0x703 s 8 44 88 10 01 2D 2C 2D 2D 
15:17:29:2397 Rx 1 0x704 s 7 95 82 D9 98 83 22 22 
15:17:29:2400 Rx 1 0x705 s 8 86 A3 38 88 03 7D 00 00 
15:17:29:2402 Rx 1 0x706 s 8 18 C0 01 1A 00 7D 00 00 
15:17:29:2421 Rx 1 0x1003 x 8 0F 3E 00 40 6F 00 00 00 
15:17:29:2424 Rx 1 0x1002 x 8 0F 3E 00 A0 6F 00 00 00 
15:17:29:2427 Rx 1 0x1042 x 7 09 65 64 00 00 00 00 
15:17:29:2430 Rx 1 0x1043 x 7 09 64 64 00 00 00 00 
15:17:29:2432 Rx 1 0x1083 x 7 01 40 00 02 00 7D 00 
15:17:29:2435 Rx 1 0x10C3 x 7 00 10 00 00 00 7D 00 
15:17:29:2438 Rx 1 0x1103 x 7 01 40 00 02 00 7D 00 
15:17:29:2440 Rx 1 0x1142 x 7 03 40 00 04 00 7D 00 
15:17:29:2443 Rx 1 0x1182 x 7 00 10 00 00 00 7D 00 
15:17:29:2446 Rx 1 0x11C2 x 7 01 40 00 02 00 7D 00 
15:17:29:2449 Rx 1 0x1403 x 7 00 80 00 05 00 7D 00 
15:17:29:2452 Rx 1 0x1442 x 7 00 80 00 05 00 7D 00 
15:17:29:2493 Rx 1 0x702 s 8 62 00 00 00 00 00 00 B0 
15:17:29:2496 Rx 1 0x703 s 8 44 88 10 09 2D 2D 00 40 
15:17:29:2498 Rx 1 0x704 s 7 95 82 D9 98 82 22 22 
15:17:29:2500 Rx 1 0x705 s 8 86 A3 38 88 03 7D 00 00 
15:17:29:2502 Rx 1 0x706 s 8 1A C0 01 1A 00 7D 00 00 
15:17:29:2593 Rx 1 0x703 s 8 44 88 10 11 00 00 7D 00 
15:17:29:2595 Rx 1 0x702 s 8 62 00 00 00 00 00 00 B0 
15:17:29:2597 Rx 1 0x704 s 7 95 82 D9 98 83 22 22 
15:17:29:2600 Rx 1 0x705 s 8 86 A3 38 88 03 7D 00 00 
15:17:29:2602 Rx 1 0x706 s 8 1A C0 01 1A 00 7D 00 00 
15:17:29:2688 Rx 1 0x687 x 8 02 00 00 00 00 00 00 00 
15:17:29:2693 Rx 1 0x702 s 8 62 00 00 00 00 00 00 B0 
15:17:29:2695 Rx 1 0x703 s 8 44 88 10 19 00 00 72 79 
15:17:29:2697 Rx 1 0x704 s 7 95 82 D9 98 83 22 22 
15:17:29:2700 Rx 1 0x705 s 8 88 A3 38 88 03 7D 00 00 
15:17:29:2702 Rx 1 0x706 s 8 1A C0 01 1A 00 7D 00 00 
15:17:29:2793 Rx 1 0x702 s 8 62 00 00 00 00 00 00 B0 
15:17:29:2795 Rx 1 0x703 s 8 44 88 10 21 36 33 89 30 
15:17:29:2798 Rx 1 0x704 s 7 95 82 D8 98 82 22 22 
15:17:29:2800 Rx 1 0x705 s 8 88 A3 38 88 03 7D 00 00 
15:17:29:2802 Rx 1 0x706 s 8 1A C0 01 1A 00 7D 00 00 
15:17:29:2893 Rx 1 0x702 s 8 62 00 00 00 00 00 00 B0 
15:17:29:2896 Rx 1 0x703 s 8 44 88 10 29 A5 71 5D 05 
15:17:29:2898 Rx 1 0x704 s 7 95 82 D9 98 82 22 22 
15:17:29:2900 Rx 1 0x705 s 8 86 A3 38 88 03 7D 00 00 
15:17:29:2903 Rx 1 0x706 s 8 1A C0 01 1A 00 7D 00 00 
15:17:29:2993 Rx 1 0x703 s 8 44 88 10 31 D0 07 E5 DF 
15:17:29:2995 Rx 1 0x702 s 8 62 00 00 00 00 00 00 B0 
15:17:29:2997 Rx 1 0x704 s 7 95 82 D9 98 83 22 22 
15:17:29:3000 Rx 1 0x705 s 8 88 A3 38 88 03 7D 00 00 
15:17:29:3002 Rx 1 0x706 s 8 1A C0 01 1A 00 7D 00 00 
15:17:29:3017 Rx 1 0x687 x 8 03 74 94 2E 94 4A 2D 2D 
15:17:29:3093 Rx 1 0x703 s 8 44 8A 10 39 DA 07 13 38 
15:17:29:3095 Rx 1 0x702 s 8 62 00 00 00 00 00 00 B0 
15:17:29:3098 Rx 1 0x704 s 7 95 82 D9 98 83 22 22 
15:17:29:3100 Rx 1 0x705 s 8 86 A3 38 88 03 7D 00 00 
15:17:29:3102 Rx 1 0x706 s 8 1A C0 01 1A 00 7D 00 00 
15:17:29:3193 Rx 1 0x702 s 8 62 00 00 00 00 00 00 B0 
15:17:29:3195 Rx 1 0x703 s 8 44 8A 14 01 2D 2C 2D 2D 
15:17:29:3197 Rx 1 0x704 s 7 95 82 D9 98 82 22 22 
15:17:29:3200 Rx 1 0x705 s 8 86 A3 38 88 03 7D 00 00 
15:17:29:3202 Rx 1 0x706 s 8 1A C0 01 1A 00 7D 00 00 
15:17:29:3293 Rx 1 0x702 s 8 62 00 00 00 00 00 00 B0 
15:17:29:3296 Rx 1 0x703 s 8 44 8A 14 09 2D 2D 00 40 
15:17:29:3298 Rx 1 0x704 s 7 95 82 D9 98 83 22 22 
15:17:29:3300 Rx 1 0x705 s 8 86 A3 38 88 03 7D 00 00 
15:17:29:3302 Rx 1 0x706 s 8 1A C0 01 1A 00 7D 00 00 
15:17:29:3348 Rx 1 0x687 x 8 04 00 10 36 9B 00 00 00 
15:17:29:3393 Rx 1 0x703 s 8 45 8A 14 11 00 00 7D 00 
15:17:29:3395 Rx 1 0x702 s 8 62 00 00 00 00 00 00 B0 
15:17:29:3397 Rx 1 0x704 s 7 95 82 D8 98 83 22 22 
15:17:29:3400 Rx 1 0x705 s 8 88 A3 38 88 03 7D 00 00 
15:17:29:3402 Rx 1 0x706 s 8 1A C0 01 1A 00 7D 00 00 
15:17:29:3421 Rx 1 0x1003 x 8 0F 3E 00 00 6F 00 00 00 
15:17:29:3424 Rx 1 0x1002 x 8 0F 3E 00 60 6F 00 00 00 
15:17:29:3427 Rx 1 0x1042 x 7 00 59 A4 A5 83 00 00 
15:17:29:3429 Rx 1 0x1043 x 7 00 58 A3 A5 83 00 00 
15:17:29:3432 Rx 1 0x1083 x 7 00 30 00 02 00 7D 00 
15:17:29:3435 Rx 1 0x10C3 x 7 00 10 00 00 00 7D 00 
15:17:29:3438 Rx 1 0x1103 x 7 01 30 00 02 00 7D 00 
15:17:29:3441 Rx 1 0x1142 x 7 03 40 00 04 00 7D 00 
15:17:29:3443 Rx 1 0x1182 x 7 00 10 00 00 00 7D 00 
15:17:29:3446 Rx 1 0x11C2 x 7 01 40 00 02 00 7D 00 
15:17:29:3449 Rx 1 0x1403 x 7 00 80 00 05 00 7D 00 
15:17:29:3451 Rx 1 0x1442 x 7 00 80 00 05 00 7D 00 
15:17:29:3493 Rx 1 0x702 s 8 62 00 00 00 00 00 00 B0 
15:17:29:3495 Rx 1 0x703 s 8 45 8A 14 19 00 00 72 79 
15:17:29:3497 Rx 1 0x704 s 7 95 82 D8 98 82 22 22 
15:17:29:3500 Rx 1 0x705 s 8 88 A3 38 88 03 7D 00 00 
15:17:29:3502 Rx 1 0x706 s 8 1A C0 01 1A 00 7D 00 00 
15:17:29:3593 Rx 1 0x702 s 8 62 00 00 00 00 00 00 B0 
15:17:29:3595 Rx 1 0x703 s 8 45 8A 14 21 36 33 89 30 
15:17:29:3598 Rx 1 0x704 s 7 95 82 D9 98 82 22 22 
15:17:29:3600 Rx 1 0x705 s 8 86 A3 38 88 03 7D 00 00 
15:17:29:3602 Rx 1 0x706 s 8 1A C0 01 1A 00 7D 00 00 
15:17:29:3678 Rx 1 0x687 x 8 05 00 00 00 1C 00 00 00 
15:17:29:3693 Rx 1 0x702 s 8 62 00 00 00 00 00 00 B0 
15:17:29:3695 Rx 1 0x703 s 8 45 8A 14 29 A5 71 5D 05 
15:17:29:3697 Rx 1 0x704 s 7 95 82 D9 98 83 22 22 
15:17:29:3700 Rx 1 0x705 s 8 86 A3 38 88 03 7D 00 00 
15:17:29:3703 Rx 1 0x706 s 8 1A C0 01 1A 00 7D 00 00 
15:17:29:3793 Rx 1 0x703 s 8 45 8A 14 31 D0 07 E5 DF 
15:17:29:3795 Rx 1 0x702 s 8 62 00 00 00 00 00 00 B0 
15:17:29:3797 Rx 1 0x704 s 7 95 82 D9 98 82 22 22 
15:17:29:3800 Rx 1 0x705 s 8 88 A3 38 88 03 7D 00 00 
15:17:29:3802 Rx 1 0x706 s 8 1A C0 01 1A 00 7D 00 00 
15:17:29:3893 Rx 1 0x703 s 8 45 8A 14 39 DA 07 13 38 
15:17:29:3895 Rx 1 0x702 s 8 62 00 00 00 00 00 00 B0 
15:17:29:3898 Rx 1 0x704 s 7 95 82 D8 98 83 22 22 
15:17:29:3900 Rx 1 0x705 s 8 86 A3 38 88 03 7D 00 00 
15:17:29:3902 Rx 1 0x706 s 8 1A C0 01 1A 00 7D 00 00 
15:17:29:3993 Rx 1 0x702 s 8 62 00 00 00 00 00 00 B0 
15:17:29:3995 Rx 1 0x703 s 8 45 8C 14 01 2D 2C 2D 2D 
15:17:29:3997 Rx 1 0x704 s 7 95 82 D9 98 83 22 22 
15:17:29:4000 Rx 1 0x705 s 8 86 A3 38 88 03 7D 00 00 
15:17:29:4002 Rx 1 0x706 s 8 1A C0 01 1A 00 7D 00 00 
15:17:29:4093 Rx 1 0x702 s 8 62 00 00 00 00 00 00 B0 
15:17:29:4096 Rx 1 0x703 s 8 45 8C 14 09 2D 2D 00 40 
15:17:29:4098 Rx 1 0x704 s 7 95 82 D9 98 83 22 22 
15:17:29:4100 Rx 1 0x705 s 8 86 A3 38 88 03 7D 00 00 
15:17:29:4102 Rx 1 0x706 s 8 1A C0 01 1A 00 7D 00 00 
15:17:29:4193 Rx 1 0x702 s 8 62 00 00 00 00 00 00 B0 
15:17:29:4195 Rx 1 0x703 s 8 45 8C 18 11 00 00 7D 00 
15:17:29:4197 Rx 1 0x704 s 7 95 82 D8 98 83 22 22 
15:17:29:4200 Rx 1 0x705 s 8 86 A3 38 88 03 7D 00 00 
15:17:29:4202 Rx 1 0x706 s 8 1A C0 01 1A 00 7D 00 00 
15:17:29:4293 Rx 1 0x702 s 8 62 00 00 00 00 00 00 B0 
15:17:29:4296 Rx 1 0x703 s 8 46 8C 18 19 00 00 72 79 
15:17:29:4298 Rx 1 0x704 s 7 95 82 D8 98 83 22 22 
15:17:29:4300 Rx 1 0x705 s 8 86 A3 38 88 03 7D 00 00 
15:17:29:4302 Rx 1 0x706 s 8 1A C0 01 1A 00 7D 00 00 
15:17:29:4393 Rx 1 0x702 s 8 62 00 00 00 00 00 00 B0 
15:17:29:4395 Rx 1 0x703 s 8 46 8C 18 21 36 33 89 30 
15:17:29:4398 Rx 1 0x704 s 7 95 82 D9 98 83 22 22 
15:17:29:4400 Rx 1 0x705 s 8 86 A3 38 88 03 7D 00 00 
15:17:29:4402 Rx 1 0x706 s 8 1A C0 01 1A 00 7D 00 00 
15:17:29:4421 Rx 1 0x1003 x 8 0F 3E 00 20 5F 00 00 00 
15:17:29:4424 Rx 1 0x1002 x 8 0F 3E 00 80 5F 00 00 00 
15:17:29:4427 Rx 1 0x1042 x 7 01 29 29 2A 2A 2A 2A 
15:17:29:4430 Rx 1 0x1043 x 7 01 2C 2C 2B 2B 28 28 
15:17:29:4432 Rx 1 0x1083 x 7 00 40 00 02 00 7D 00 
15:17:29:4435 Rx 1 0x10C3 x 7 00 10 00 00 00 7D 00 
15:17:29:4438 Rx 1 0x1103 x 7 01 30 00 01 00 7D 00 
15:17:29:4440 Rx 1 0x1142 x 7 03 40 00 04 00 7D 00 
15:17:29:4443 Rx 1 0x1182 x 7 00 10 00 00 00 7D 00 
15:17:29:4446 Rx 1 0x11C2 x 7 01 40 00 02 00 7D 00 
15:17:29:4449 Rx 1 0x1403 x 7 00 80 00 05 00 7D 00 
15:17:29:4451 Rx 1 0x1442 x 7 00 80 00 05 00 7D 00 
15:17:29:4493 Rx 1 0x703 s 8 46 8C 18 29 A5 71 5D 05 
15:17:29:4495 Rx 1 0x702 s 8 62 00 00 00 00 00 00 B0 
15:17:29:4497 Rx 1 0x704 s 7 95 82 D9 98 82 22 22 
15:17:29:4500 Rx 1 0x705 s 8 86 A3 38 88 03 7D 00 00 
15:17:29:4502 Rx 1 0x706 s 8 1A C0 01 1A 00 7D 00 00 
15:17:29:4593 Rx 1 0x703 s 8 46 8C 18 31 D0 07 E5 DF 
15:17:29:4595 Rx 1 0x702 s 8 62 00 00 00 00 00 00 B0 
15:17:29:4597 Rx 1 0x704 s 7 95 82 D9 98 83 22 22 
15:17:29:4600 Rx 1 0x705 s 8 86 A3 38 88 03 7D 00 00 
15:17:29:4602 Rx 1 0x706 s 8 1A C0 01 1A 00 7D 00 00 
15:17:29:4693 Rx 1 0x703 s 8 46 8C 18 39 DA 07 13 38 
15:17:29:4695 Rx 1 0x702 s 8 62 00 00 00 00 00 00 B0 
15:17:29:4698 Rx 1 0x704 s 7 95 82 D8 98 83 22 22 
15:17:29:4700 Rx 1 0x705 s 8 86 A3 38 88 03 7D 00 00 
15:17:29:4702 Rx 1 0x706 s 8 1A C0 01 1A 00 7D 00 00 
15:17:29:4793 Rx 1 0x702 s 8 62 00 00 00 00 00 00 B0 
15:17:29:4795 Rx 1 0x703 s 8 46 8C 18 01 2D 2C 2D 2D 
15:17:29:4797 Rx 1 0x704 s 7 95 82 D9 98 82 22 22 
15:17:29:4800 Rx 1 0x705 s 8 86 A3 38 88 03 7D 00 00 
15:17:29:4803 Rx 1 0x706 s 8 1A C0 01 1A 00 7D 00 00 
15:17:29:4893 Rx 1 0x702 s 8 62 00 00 00 00 00 00 B0 
15:17:29:4896 Rx 1 0x703 s 8 46 8C 18 09 2D 2D 00 40 
15:17:29:4898 Rx 1 0x704 s 7 95 82 D8 98 82 22 22 
15:17:29:4900 Rx 1 0x705 s 8 86 A3 38 88 03 7D 00 00 
15:17:29:4902 Rx 1 0x706 s 8 1A C0 01 1A 00 7D 00 00 
15:17:29:4993 Rx 1 0x703 s 8 46 8C 18 11 00 00 7D 00 
15:17:29:4995 Rx 1 0x702 s 8 62 00 00 00 00 00 00 B0 
15:17:29:4997 Rx 1 0x704 s 7 95 82 D8 98 83 22 22 
15:17:29:5000 Rx 1 0x705 s 8 86 A3 38 88 03 7D 00 00 
15:17:29:5002 Rx 1 0x706 s 8 1A C0 01 1A 00 7D 00 00 
15:17:29:5093 Rx 1 0x702 s 8 62 00 00 00 00 00 00 B0 
15:17:29:5095 Rx 1 0x703 s 8 46 8E 18 19 00 00 72 79 
15:17:29:5097 Rx 1 0x704 s 7 95 82 D9 98 83 22 22 
15:17:29:5100 Rx 1 0x705 s 8 88 A3 38 88 03 7D 00 00 
15:17:29:5102 Rx 1 0x706 s 8 1A C0 01 1A 00 7D 00 00 
15:17:29:5193 Rx 1 0x702 s 8 62 00 00 00 00 00 00 B0 
15:17:29:5195 Rx 1 0x703 s 8 46 8E 18 21 36 33 89 30 
15:17:29:5198 Rx 1 0x704 s 7 95 82 D8 98 83 22 22 
15:17:29:5200 Rx 1 0x705 s 8 88 A3 38 88 03 7D 00 00 
15:17:29:5202 Rx 1 0x706 s 8 1A C0 01 1A 00 7D 00 00 
15:17:29:5293 Rx 1 0x702 s 8 62 00 00 00 00 00 00 B0 
15:17:29:5295 Rx 1 0x703 s 8 46 8E 1C 29 A5 71 5D 05 
15:17:29:5297 Rx 1 0x704 s 7 95 82 D8 98 82 22 22 
15:17:29:5300 Rx 1 0x705 s 8 86 A3 38 88 03 7D 00 00 
15:17:29:5303 Rx 1 0x706 s 8 1A C0 01 1A 00 7D 00 00 
15:17:29:5393 Rx 1 0x702 s 8 62 00 00 00 00 00 00 B0 
15:17:29:5396 Rx 1 0x703 s 8 47 8E 1C 31 D0 07 E5 DF 
15:17:29:5398 Rx 1 0x704 s 7 95 82 D9 98 83 22 22 
15:17:29:5400 Rx 1 0x705 s 8 86 A3 38 88 03 7D 00 00 
15:17:29:5402 Rx 1 0x706 s 8 1A C0 01 1A 00 7D 00 00 
15:17:29:5421 Rx 1 0x1043 x 7 02 25 25 26 26 2A 2A 
15:17:29:5424 Rx 1 0x1002 x 8 0F 3E 00 A0 6F 00 00 00 
15:17:29:5427 Rx 1 0x1003 x 8 0F 3E 00 40 6F 00 00 00 
15:17:29:5430 Rx 1 0x1042 x 7 02 28 28 26 26 2B 2B 
15:17:29:5432 Rx 1 0x1083 x 7 00 30 00 02 00 7D 00 
15:17:29:5435 Rx 1 0x10C3 x 7 00 10 00 00 00 7D 00 
15:17:29:5438 Rx 1 0x1103 x 7 01 30 00 01 00 7D 00 
15:17:29:5440 Rx 1 0x1142 x 7 03 40 00 03 00 7D 00 
15:17:29:5443 Rx 1 0x1182 x 7 00 10 00 00 00 7D 00 
15:17:29:5446 Rx 1 0x11C2 x 7 01 30 00 02 00 7D 00 
15:17:29:5448 Rx 1 0x1403 x 7 00 80 00 05 00 7D 00 
15:17:29:5451 Rx 1 0x1442 x 7 00 80 00 05 00 7D 00 
15:17:29:5493 Rx 1 0x703 s 8 47 8E 1C 39 DA 07 13 38 
15:17:29:5495 Rx 1 0x702 s 8 62 00 00 00 00 00 00 B0 
15:17:29:5498 Rx 1 0x704 s 7 95 82 D9 98 83 22 22 
15:17:29:5500 Rx 1 0x705 s 8 86 A3 38 88 03 7D 00 00 
15:17:29:5502 Rx 1 0x706 s 8 1A C0 01 1A 00 7D 00 00 
15:17:29:5593 Rx 1 0x703 s 8 47 8E 1C 01 2D 2C 2D 2D 
15:17:29:5595 Rx 1 0x702 s 8 62 00 00 00 00 00 00 B0 
15:17:29:5597 Rx 1 0x704 s 7 95 82 D9 98 83 22 22 
15:17:29:5600 Rx 1 0x705 s 8 86 A3 38 88 03 7D 00 00 
15:17:29:5602 Rx 1 0x706 s 8 1A C0 01 1A 00 7D 00 00 
15:17:29:5693 Rx 1 0x702 s 8 62 00 00 00 00 00 00 B0 
15:17:29:5696 Rx 1 0x703 s 8 47 8E 1C 09 2D 2D 00 40 
15:17:29:5698 Rx 1 0x704 s 7 95 82 D9 98 83 22 22 
15:17:29:5700 Rx 1 0x705 s 8 86 A3 38 88 03 7D 00 00 
15:17:29:5702 Rx 1 0x706 s 8 1A C0 01 1A 00 7D 00 00 
15:17:29:5793 Rx 1 0x702 s 8 62 00 00 00 00 00 00 B0 
15:17:29:5796 Rx 1 0x703 s 8 47 8E 1C 11 00 00 7D 00 
15:17:29:5798 Rx 1 0x704 s 7 95 82 D9 98 82 22 22 
15:17:29:5800 Rx 1 0x705 s 8 86 A3 38 88 03 7D 00 00 
15:17:29:5803 Rx 1 0x706 s 8 1A C0 01 1A 00 7D 00 00 
15:17:29:5893 Rx 1 0x703 s 8 47 8E 1C 19 00 00 72 79 
15:17:29:5895 Rx 1 0x702 s 8 62 00 00 00 00 00 00 B0 
15:17:29:5897 Rx 1 0x704 s 7 95 82 D9 98 83 22 22 
15:17:29:5900 Rx 1 0x705 s 8 88 A3 38 88 03 7D 00 00 
15:17:29:5902 Rx 1 0x706 s 8 1A C0 01 1A 00 7D 00 00 
15:17:29:5993 Rx 1 0x702 s 8 62 00 00 00 00 00 00 B0 
15:17:29:5995 Rx 1 0x703 s 8 47 8E 1C 21 36 33 89 30 
15:17:29:5998 Rx 1 0x704 s 7 95 82 D9 98 83 22 22 
15:17:29:6000 Rx 1 0x705 s 8 88 A3 38 88 03 7D 00 00 
15:17:29:6002 Rx 1 0x706 s 8 1A C0 01 1A 00 7D 00 00 
15:17:29:6093 Rx 1 0x702 s 8 62 00 00 00 00 00 00 B0 
15:17:29:6095 Rx 1 0x703 s 8 47 8E 1C 29 A5 71 5D 05 
15:17:29:6097 Rx 1 0x704 s 7 95 82 D9 98 82 22 22 
15:17:29:6100 Rx 1 0x705 s 8 86 A3 38 88 03 7D 00 00 
15:17:29:6103 Rx 1 0x706 s 8 1A C0 01 1A 00 7D 00 00 
15:17:29:6193 Rx 1 0x702 s 8 62 00 00 00 00 00 00 B0 
15:17:29:6196 Rx 1 0x703 s 8 47 90 1C 31 D0 07 E5 DF 
15:17:29:6198 Rx 1 0x704 s 7 95 82 D9 98 83 22 22 
15:17:29:6200 Rx 1 0x705 s 8 86 A3 38 88 03 7D 00 00 
15:17:29:6202 Rx 1 0x706 s 8 1A C0 01 1A 00 7D 00 00 
15:17:29:6293 Rx 1 0x703 s 8 47 90 1C 39 DA 07 13 38 
15:17:29:6295 Rx 1 0x702 s 8 62 00 00 00 00 00 00 B0 
15:17:29:6298 Rx 1 0x704 s 7 95 82 D8 98 82 22 22 
15:17:29:6300 Rx 1 0x705 s 8 88 A3 38 88 03 7D 00 00 
15:17:29:6302 Rx 1 0x706 s 8 1A C0 01 1A 00 7D 00 00 
15:17:29:6393 Rx 1 0x703 s 8 47 90 20 01 2D 2C 2D 2D 
15:17:29:6395 Rx 1 0x702 s 8 62 00 00 00 00 00 00 B0 
15:17:29:6397 Rx 1 0x704 s 7 95 82 D8 98 83 22 22 
15:17:29:6400 Rx 1 0x705 s 8 86 A3 38 88 03 7D 00 00 
15:17:29:6402 Rx 1 0x706 s 8 1A C0 01 1A 00 7D 00 00 
15:17:29:6421 Rx 1 0x1043 x 7 03 2A 2A 28 28 2F 00 
15:17:29:6424 Rx 1 0x1002 x 8 0F 3E 00 60 6F 00 00 00 
15:17:29:6427 Rx 1 0x1003 x 8 0F 3E 00 00 6F 00 00 00 
15:17:29:6429 Rx 1 0x1042 x 7 03 28 28 26 26 2F 00 
15:17:29:6432 Rx 1 0x1083 x 7 00 40 00 02 00 7D 00 
15:17:29:6435 Rx 1 0x10C3 x 7 00 10 00 00 00 7D 00 
15:17:29:6438 Rx 1 0x1103 x 7 01 30 00 01 00 7D 00 
15:17:29:6440 Rx 1 0x1142 x 7 03 40 00 03 00 7D 00 
15:17:29:6443 Rx 1 0x1182 x 7 00 10 00 00 00 7D 00 
15:17:29:6446 Rx 1 0x11C2 x 7 01 30 00 02 00 7D 00 
15:17:29:6449 Rx 1 0x1403 x 7 00 80 00 05 00 7D 00 
15:17:29:6451 Rx 1 0x1442 x 7 00 80 00 05 00 7D 00 
15:17:29:6493 Rx 1 0x702 s 8 62 00 00 00 00 00 00 B0 
15:17:29:6496 Rx 1 0x703 s 8 48 90 20 09 2D 2D 00 40 
15:17:29:6498 Rx 1 0x704 s 7 95 82 D9 98 82 22 22 
15:17:29:6500 Rx 1 0x705 s 8 86 A3 38 88 03 7D 00 00 
15:17:29:6502 Rx 1 0x706 s 8 1A C0 01 1A 00 7D 00 00 
15:17:29:6593 Rx 1 0x702 s 8 62 00 00 00 00 00 00 B0 
15:17:29:6596 Rx 1 0x703 s 8 48 90 20 11 00 00 7D 00 
15:17:29:6598 Rx 1 0x704 s 7 95 82 D9 98 83 22 22 
15:17:29:6600 Rx 1 0x705 s 8 88 A3 38 88 03 7D 00 00 
15:17:29:6603 Rx 1 0x706 s 8 1A C0 01 1A 00 7D 00 00 
15:17:29:6693 Rx 1 0x703 s 8 48 90 20 19 00 00 72 79 
15:17:29:6695 Rx 1 0x702 s 8 62 00 00 00 00 00 00 B0 
15:17:29:6697 Rx 1 0x704 s 7 95 82 D8 98 83 22 22 
15:17:29:6700 Rx 1 0x705 s 8 86 A3 38 88 03 7D 00 00 
15:17:29:6702 Rx 1 0x706 s 8 1A C0 01 1A 00 7D 00 00 
15:17:29:6793 Rx 1 0x702 s 8 62 00 00 00 00 00 00 B0 
15:17:29:6795 Rx 1 0x703 s 8 48 90 20 21 36 33 89 30 
15:17:29:6798 Rx 1 0x704 s 7 95 82 D8 98 83 22 22 
15:17:29:6800 Rx 1 0x705 s 8 86 A3 38 88 03 7D 00 00 
15:17:29:6802 Rx 1 0x706 s 8 1A C0 01 1A 00 7D 00 00 
15:17:29:6893 Rx 1 0x702 s 8 62 00 00 00 00 00 00 B0 
15:17:29:6895 Rx 1 0x703 s 8 48 90 20 29 A5 71 5D 05 
15:17:29:6897 Rx 1 0x704 s 7 95 82 D9 98 82 22 22 
15:17:29:6900 Rx 1 0x705 s 8 86 A3 38 88 03 7D 00 00 
15:17:29:6902 Rx 1 0x706 s 8 1A C0 01 1A 00 7D 00 00 
15:17:29:6993 Rx 1 0x702 s 8 62 00 00 00 00 00 00 B0 
15:17:29:6996 Rx 1 0x703 s 8 48 90 20 31 D0 07 E5 DF 
15:17:29:6998 Rx 1 0x704 s 7 95 82 D9 98 83 22 22 
15:17:29:7000 Rx 1 0x705 s 8 88 A3 38 88 03 7D 00 00 
15:17:29:7002 Rx 1 0x706 s 8 1A C0 01 1A 00 7D 00 00 
15:17:29:7093 Rx 1 0x702 s 8 62 00 00 00 00 00 00 B0 
15:17:29:7095 Rx 1 0x703 s 8 48 90 20 39 DA 07 13 38 
15:17:29:7098 Rx 1 0x704 s 7 95 82 D8 98 82 22 22 
15:17:29:7100 Rx 1 0x705 s 8 86 A3 38 88 03 7D 00 00 
15:17:29:7103 Rx 1 0x706 s 8 1A C0 01 1A 00 7D 00 00 
15:17:29:7193 Rx 1 0x702 s 8 62 00 00 00 00 00 00 B0 
15:17:29:7196 Rx 1 0x703 s 8 48 90 20 01 2D 2C 2D 2D 
15:17:29:7198 Rx 1 0x704 s 7 95 82 D9 98 83 22 22 
15:17:29:7200 Rx 1 0x705 s 8 86 A3 38 88 03 7D 00 00 
15:17:29:7203 Rx 1 0x706 s 8 1A C0 01 1A 00 7D 00 00 
15:17:29:7293 Rx 1 0x703 s 8 48 90 20 09 2D 2D 00 40 
15:17:29:7296 Rx 1 0x702 s 8 62 00 00 00 00 00 00 B0 
15:17:29:7298 Rx 1 0x704 s 7 95 82 D9 98 83 22 22 
15:17:29:7300 Rx 1 0x705 s 8 86 A3 38 88 03 7D 00 00 
15:17:29:7302 Rx 1 0x706 s 8 1A C0 01 1A 00 7D 00 00 
15:17:29:7393 Rx 1 0x702 s 8 62 00 00 00 00 00 00 B0 
15:17:29:7396 Rx 1 0x703 s 8 48 92 20 11 00 00 7D 00 
15:17:29:7398 Rx 1 0x704 s 7 95 82 D9 98 83 22 22 
15:17:29:7400 Rx 1 0x705 s 8 86 A3 38 88 03 7D 00 00 
15:17:29:7403 Rx 1 0x706 s 8 1A C0 01 1A 00 7D 00 00 
15:17:29:7421 Rx 1 0x1043 x 7 04 E8 03 86 96 BE 32 
15:17:29:7424 Rx 1 0x1002 x 8 0F 3E 00 80 5F 00 00 00 
15:17:29:7427 Rx 1 0x1003 x 8 0F 3E 00 20 5F 00 00 00 
15:17:29:7430 Rx 1 0x1042 x 7 04 E8 03 5C 76 BE 32 
15:17:29:7433 Rx 1 0x1083 x 7 00 40 00 02 00 7D 00 
15:17:29:7435 Rx 1 0x10C3 x 7 00 10 00 00 00 7D 00 
15:17:29:7438 Rx 1 0x1103 x 7 01 30 00 01 00 7D 00 
15:17:29:7441 Rx 1 0x1142 x 7 03 40 00 03 00 7D 00 
15:17:29:7443 Rx 1 0x1182 x 7 00 10 00 00 00 7D 00 
15:17:29:7446 Rx 1 0x11C2 x 7 01 40 00 02 00 7D 00 
15:17:29:7449 Rx 1 0x1403 x 7 00 80 00 05 00 7D 00 
15:17:29:7451 Rx 1 0x1442 x 7 00 80 00 05 00 7D 00 
15:17:29:7494 Rx 1 0x702 s 8 62 00 00 00 00 00 00 B0 
15:17:29:7496 Rx 1 0x703 s 8 48 92 20 19 00 00 72 79 
15:17:29:7498 Rx 1 0x704 s 7 95 82 D8 98 83 22 22 
15:17:29:7500 Rx 1 0x705 s 8 86 A3 38 88 03 7D 00 00 
15:17:29:7502 Rx 1 0x706 s 8 1A C0 01 1A 00 7D 00 00 
15:17:29:7593 Rx 1 0x703 s 8 48 92 24 21 36 33 89 30 
15:17:29:7595 Rx 1 0x702 s 8 62 00 00 00 00 00 00 B0 
15:17:29:7598 Rx 1 0x704 s 7 95 82 D9 98 83 22 22 
15:17:29:7600 Rx 1 0x705 s 8 86 A3 38 88 03 7D 00 00 
15:17:29:7602 Rx 1 0x706 s 8 1A C0 01 1A 00 7D 00 00 
15:17:29:7693 Rx 1 0x703 s 8 49 92 24 29 A5 71 5D 05 
15:17:29:7695 Rx 1 0x702 s 8 62 00 00 00 00 00 00 B0 
15:17:29:7697 Rx 1 0x704 s 7 95 82 D9 98 83 22 22 
15:17:29:7700 Rx 1 0x705 s 8 86 A3 38 88 03 7D 00 00 
15:17:29:7702 Rx 1 0x706 s 8 1A C0 01 1A 00 7D 00 00 
15:17:29:7793 Rx 1 0x702 s 8 62 00 00 00 00 00 00 B0 
15:17:29:7796 Rx 1 0x703 s 8 49 92 24 31 D0 07 E5 DF 
15:17:29:7798 Rx 1 0x704 s 7 95 82 D8 98 83 22 22 
15:17:29:7800 Rx 1 0x705 s 8 86 A3 38 88 03 7D 00 00 
15:17:29:7802 Rx 1 0x706 s 8 1A C0 01 1A 00 7D 00 00 
15:17:29:7893 Rx 1 0x702 s 8 62 00 00 00 00 00 00 B0 
15:17:29:7895 Rx 1 0x703 s 8 49 92 24 39 DA 07 13 38 
15:17:29:7898 Rx 1 0x704 s 7 95 82 D8 98 83 22 22 
15:17:29:7900 Rx 1 0x705 s 8 86 A3 38 88 03 7D 00 00 
15:17:29:7903 Rx 1 0x706 s 8 1A C0 01 1A 00 7D 00 00 
15:17:29:7993 Rx 1 0x702 s 8 62 00 00 00 00 00 00 B0 
15:17:29:7996 Rx 1 0x703 s 8 49 92 24 01 2D 2C 2D 2D 
15:17:29:7998 Rx 1 0x704 s 7 95 82 D8 98 83 22 22 
15:17:29:8000 Rx 1 0x705 s 8 86 A3 38 88 03 7D 00 00 
15:17:29:8003 Rx 1 0x706 s 8 1A C0 01 1A 00 7D 00 00 
15:17:29:8093 Rx 1 0x702 s 8 62 00 00 00 00 00 00 B0 
15:17:29:8096 Rx 1 0x703 s 8 49 92 24 09 2D 2D 00 40 
15:17:29:8098 Rx 1 0x704 s 7 95 82 D9 98 82 22 22 
15:17:29:8100 Rx 1 0x705 s 8 86 A3 38 88 03 7D 00 00 
15:17:29:8102 Rx 1 0x706 s 8 1A C0 01 1A 00 7D 00 00 
15:17:29:8193 Rx 1 0x702 s 8 62 00 00 00 00 00 00 B0 
15:17:29:8196 Rx 1 0x703 s 8 49 92 24 11 00 00 7D 00 
15:17:29:8198 Rx 1 0x704 s 7 95 82 D9 98 83 22 22 
15:17:29:8200 Rx 1 0x705 s 8 88 A3 38 88 03 7D 00 00 
15:17:29:8203 Rx 1 0x706 s 8 1A C0 01 1A 00 7D 00 00 
15:17:29:8293 Rx 1 0x703 s 8 49 92 24 19 00 00 72 79 
15:17:29:8295 Rx 1 0x702 s 8 62 00 00 00 00 00 00 B0 
15:17:29:8297 Rx 1 0x704 s 7 95 82 D8 98 82 22 22 
15:17:29:8300 Rx 1 0x705 s 8 88 A3 38 88 03 7D 00 00 
15:17:29:8302 Rx 1 0x706 s 8 1A C0 01 1A 00 7D 00 00 
15:17:29:8393 Rx 1 0x703 s 8 49 92 24 21 36 33 89 30 
15:17:29:8395 Rx 1 0x702 s 8 62 00 00 00 00 00 00 B0 
15:17:29:8398 Rx 1 0x704 s 7 95 82 D9 98 82 22 22 
15:17:29:8400 Rx 1 0x705 s 8 86 A3 38 88 03 7D 00 00 
15:17:29:8402 Rx 1 0x706 s 8 1A C0 01 1A 00 7D 00 00 
15:17:29:8421 Rx 1 0x1043 x 7 05 E9 03 D5 28 85 34 
15:17:29:8424 Rx 1 0x1002 x 8 0F 3E 00 A0 6F 00 00 00 
15:17:29:8427 Rx 1 0x1003 x 8 0F 3E 00 40 6F 00 00 00 
15:17:29:8430 Rx 1 0x1042 x 7 05 E9 03 D5 28 85 34 
15:17:29:8432 Rx 1 0x1083 x 7 00 40 00 02 00 7D 00 
15:17:29:8435 Rx 1 0x10C3 x 7 00 10 00 00 00 7D 00 
15:17:29:8438 Rx 1 0x1103 x 7 01 30 00 02 00 7D 00 
15:17:29:8440 Rx 1 0x1142 x 7 03 40 00 03 00 7D 00 
15:17:29:8443 Rx 1 0x1182 x 7 00 10 00 00 00 7D 00 
15:17:29:8446 Rx 1 0x11C2 x 7 01 40 00 02 00 7D 00 
15:17:29:8448 Rx 1 0x1403 x 7 00 80 00 05 00 7D 00 
15:17:29:8451 Rx 1 0x1442 x 7 00 80 00 05 00 7D 00 
