***BUSMASTER Ver 3.2.2***
***PROTOCOL CAN***
***NOTE: PLEASE DO NOT EDIT THIS DOCUMENT***
***[START LOGGING SESSION]***
***START DATE AND TIME 14:2:2026 13:24:8:341***
***HEX***
***SYSTEM MODE***
***START CHANNEL BAUD RATE***
***CHANNEL 1 - PCAN-USB Driver Id 16 - 500000 bps***
***END CHANNEL BAUD RATE***
***START DATABASE FILES***
***C:\Users\andre\OneDrive - Delft University of Technology\AeroDelft\GitHub\DICON\assets\dbc_files\BLS_046_00_MSG_00.dbf***
***C:\Users\andre\OneDrive - Delft University of Technology\AeroDelft\GitHub\DICON\assets\dbc_files\BLS_102_00_MSG_00.dbf***
***C:\Users\andre\OneDrive - Delft University of Technology\AeroDelft\GitHub\DICON\assets\dbc_files\External_Coms.dbf***
***END DATABASE FILES***
***<Time><Tx/Rx><Channel><CAN ID><Type><DLC><DataBytes>***
15:25:41:3166 Rx 1 0x781 s 3 08 00 00 
15:25:41:3166 Rx 1 0xFF07 s 3 08 00 00 
15:25:41:3170 Rx 1 0x789 s 3 08 00 00 
15:25:41:3170 Rx 1 0x701 s 3 08 00 00 
15:25:41:3303 Rx 1 0xFFFF103 x 3 08 00 00 
15:25:41:3303 Rx 1 0xFFFF101 x 3 08 00 00 
15:25:41:3305 Rx 1 0xFFFF102 x 3 08 00 00 
15:25:41:3305 Rx 1 0xFFFF101 x 3 08 00 00 
15:25:41:3310 Rx 1 0xFFFF143 x 3 08 00 00 
15:25:41:3310 Rx 1 0xFFFF101 x 3 08 00 00 
15:25:41:3312 Rx 1 0xFFFF142 x 3 08 00 00 
15:25:41:3312 Rx 1 0xFFFF101 x 3 08 00 00 
15:25:41:3564 Rx 1 0x781 s 3 08 00 00 
15:25:41:3564 Rx 1 0x701 s 3 08 00 00 
15:25:41:3570 Rx 1 0x789 s 3 08 00 00 
15:25:41:3570 Rx 1 0x701 s 3 08 00 00 
15:25:41:3703 Rx 1 0xFFFF103 x 3 08 00 00 
15:25:41:3703 Rx 1 0xFFFF101 x 3 08 00 00 
15:25:41:3704 Rx 1 0xFFFF102 x 3 08 00 00 
15:25:41:3704 Rx 1 0xFFFF101 x 3 08 00 00 
15:25:41:3710 Rx 1 0xFFFF143 x 3 08 00 00 
15:25:41:3710 Rx 1 0xFFFF101 x 3 08 00 00 
15:25:41:3712 Rx 1 0xFFFF142 x 3 08 00 00 
15:25:41:3712 Rx 1 0xFFFF101 x 3 08 00 00 
15:25:41:3964 Rx 1 0x781 s 3 08 00 00 
15:25:41:3964 Rx 1 0x701 s 3 08 00 00 
15:25:41:3970 Rx 1 0x789 s 3 08 00 00 
15:25:41:3970 Rx 1 0x701 s 3 08 00 00 
15:25:41:4102 Rx 1 0xFFFF103 x 3 08 00 00 
15:25:41:4102 Rx 1 0xFFFF101 x 3 08 00 00 
15:25:41:4105 Rx 1 0xFFFF102 x 3 08 00 00 
15:25:41:4105 Rx 1 0xFFFF101 x 3 08 00 00 
15:25:41:4110 Rx 1 0xFFFF143 x 3 08 00 00 
15:25:41:4110 Rx 1 0xFFFF101 x 3 08 00 00 
15:25:41:4112 Rx 1 0xFFFF142 x 3 08 00 00 
15:25:41:4112 Rx 1 0xFFFF101 x 3 08 00 00 
15:25:41:4364 Rx 1 0x781 s 3 08 00 00 
15:25:41:4364 Rx 1 0x701 s 3 08 00 00 
15:25:41:4370 Rx 1 0x789 s 3 08 00 00 
15:25:41:4370 Rx 1 0x701 s 3 08 00 00 
15:25:41:4503 Rx 1 0xFFFF103 x 3 08 00 00 
15:25:41:4503 Rx 1 0xFFFF101 x 3 08 00 00 
15:25:41:4504 Rx 1 0xFFFF102 x 3 08 00 00 
15:25:41:4504 Rx 1 0xFFFF101 x 3 08 00 00 
15:25:41:4510 Rx 1 0xFFFF143 x 3 08 00 00 
15:25:41:4510 Rx 1 0xFFFF101 x 3 08 00 00 
15:25:41:4512 Rx 1 0xFFFF142 x 3 08 00 00 
15:25:41:4512 Rx 1 0xFFFF101 x 3 08 00 00 
15:25:41:4764 Rx 1 0x781 s 3 08 00 00 
15:25:41:4764 Rx 1 0x701 s 3 08 00 00 
15:25:41:4770 Rx 1 0x789 s 3 08 00 00 
15:25:41:4770 Rx 1 0x701 s 3 08 00 00 
15:25:41:4902 Rx 1 0xFFFF103 x 3 08 00 00 
15:25:41:4902 Rx 1 0xFFFF101 x 3 08 00 00 
15:25:41:4905 Rx 1 0xFFFF102 x 3 08 00 00 
15:25:41:4905 Rx 1 0xFFFF101 x 3 08 00 00 
15:25:41:4910 Rx 1 0xFFFF143 x 3 08 00 00 
15:25:41:4910 Rx 1 0xFFFF101 x 3 08 00 00 
15:25:41:4912 Rx 1 0xFFFF142 x 3 08 00 00 
15:25:41:4912 Rx 1 0xFFFF101 x 3 08 00 00 
15:25:41:5164 Rx 1 0x781 s 3 08 00 00 
15:25:41:5164 Rx 1 0x701 s 3 08 00 00 
15:25:41:5170 Rx 1 0x789 s 3 08 00 00 
15:25:41:5170 Rx 1 0x704 s 3 08 00 00 
15:25:41:5175 Rx 1 0x781 s 3 0B 00 00 
15:25:41:5175 Rx 1 0x704 s 3 0B 00 00 
15:25:41:5231 Rx 1 0x781 s 3 0B 00 00 
15:25:41:5231 Rx 1 0x701 s 3 0B 00 00 
15:25:41:5233 Rx 1 0x789 s 3 0B 00 00 
15:25:41:5233 Rx 1 0x701 s 3 0B 00 00 
15:25:41:5236 Rx 1 0x5E00A001 x 0 
15:25:41:5303 Rx 1 0xFFFF103 x 3 08 00 00 
15:25:41:5303 Rx 1 0xFFFF101 x 3 08 00 00 
15:25:41:5304 Rx 1 0xFFFF102 x 3 08 00 00 
15:25:41:5304 Rx 1 0xFFFF101 x 3 08 00 00 
15:25:41:5310 Rx 1 0xFFFF143 x 3 08 00 00 
15:25:41:5310 Rx 1 0xFFFF101 x 3 08 00 00 
15:25:41:5312 Rx 1 0xFFFF142 x 3 08 00 00 
15:25:41:5312 Rx 1 0xFFFF101 x 3 08 00 00 
15:25:41:5314 Rx 1 0xFFFF103 x 3 0B 00 00 
15:25:41:5314 Rx 1 0xFFFF101 x 3 0B 00 00 
15:25:41:5316 Rx 1 0xFFFF102 x 3 0B 00 00 
15:25:41:5316 Rx 1 0xFFFF101 x 3 0B 00 00 
15:25:41:5361 Rx 1 0x5900A001 x 0 
15:25:41:5362 Rx 1 0x5A00A001 x 0 
15:25:41:5561 Rx 1 0x702 s 8 22 00 00 00 00 00 00 30 
15:25:41:5561 Rx 1 0x701 s 8 22 00 00 00 00 00 00 30 
15:25:41:5564 Rx 1 0x703 s 8 12 26 4C 00 30 2E 2F 2F 
15:25:41:5564 Rx 1 0x701 s 8 12 26 4C 00 30 2E 2F 2F 
15:25:41:5566 Rx 1 0x704 s 7 95 82 D8 98 82 22 22 
15:25:41:5566 Rx 1 0x701 s 7 95 82 D8 98 82 22 22 
15:25:41:5568 Rx 1 0x705 s 8 86 A3 38 88 03 7D 00 00 
15:25:41:5568 Rx 1 0x701 s 8 86 A3 38 88 03 7D 00 00 
15:25:41:5571 Rx 1 0x706 s 8 20 20 02 20 00 7D 00 00 
15:25:41:5571 Rx 1 0x701 s 8 20 20 02 20 00 7D 00 00 
15:25:41:5661 Rx 1 0x702 s 8 22 00 00 00 00 00 00 30 
15:25:41:5661 Rx 1 0x701 s 8 22 00 00 00 00 00 00 30 
15:25:41:5664 Rx 1 0x703 s 8 13 26 4C 08 2F 2F 00 20 
15:25:41:5664 Rx 1 0x701 s 8 13 26 4C 08 2F 2F 00 20 
15:25:41:5666 Rx 1 0x704 s 7 95 82 D9 98 82 22 22 
15:25:41:5666 Rx 1 0x701 s 7 95 82 D9 98 82 22 22 
15:25:41:5668 Rx 1 0x705 s 8 86 A3 38 88 03 7D 00 00 
15:25:41:5668 Rx 1 0x701 s 8 86 A3 38 88 03 7D 00 00 
15:25:41:5671 Rx 1 0x706 s 8 20 20 02 20 00 7D 00 00 
15:25:41:5671 Rx 1 0x701 s 8 20 20 02 20 00 7D 00 00 
15:25:41:5761 Rx 1 0x702 s 8 22 00 00 00 00 00 00 B0 
15:25:41:5761 Rx 1 0x701 s 8 22 00 00 00 00 00 00 B0 
15:25:41:5764 Rx 1 0x703 s 8 13 26 4C 10 00 00 7D 00 
15:25:41:5764 Rx 1 0x701 s 8 13 26 4C 10 00 00 7D 00 
15:25:41:5766 Rx 1 0x704 s 7 95 82 D8 98 82 22 22 
15:25:41:5766 Rx 1 0x701 s 7 95 82 D8 98 82 22 22 
15:25:41:5768 Rx 1 0x705 s 8 86 A3 38 88 03 7D 00 00 
15:25:41:5768 Rx 1 0x701 s 8 86 A3 38 88 03 7D 00 00 
15:25:41:5771 Rx 1 0x706 s 8 20 20 02 20 00 7D 00 00 
15:25:41:5771 Rx 1 0x701 s 8 20 20 02 20 00 7D 00 00 
15:25:41:5862 Rx 1 0x702 s 8 22 00 00 00 00 00 00 B0 
15:25:41:5862 Rx 1 0x701 s 8 22 00 00 00 00 00 00 B0 
15:25:41:5864 Rx 1 0x703 s 8 13 28 50 18 00 00 72 79 
15:25:41:5864 Rx 1 0x701 s 8 13 28 50 18 00 00 72 79 
15:25:41:5866 Rx 1 0x704 s 7 95 82 D8 98 82 22 22 
15:25:41:5866 Rx 1 0x701 s 7 95 82 D8 98 82 22 22 
15:25:41:5868 Rx 1 0x705 s 8 86 A3 38 88 03 7D 00 00 
15:25:41:5868 Rx 1 0x701 s 8 86 A3 38 88 03 7D 00 00 
15:25:41:5870 Rx 1 0x706 s 8 1E 00 02 20 00 7D 00 00 
15:25:41:5870 Rx 1 0x701 s 8 1E 00 02 20 00 7D 00 00 
15:25:41:5961 Rx 1 0x702 s 8 22 00 00 00 00 00 00 B0 
15:25:41:5961 Rx 1 0x701 s 8 22 00 00 00 00 00 00 B0 
15:25:41:5964 Rx 1 0x703 s 8 14 28 50 20 36 33 89 30 
15:25:41:5964 Rx 1 0x701 s 8 14 28 50 20 36 33 89 30 
15:25:41:5966 Rx 1 0x704 s 7 95 82 D8 98 82 22 22 
15:25:41:5966 Rx 1 0x701 s 7 95 82 D8 98 82 22 22 
15:25:41:5968 Rx 1 0x705 s 8 86 A3 38 88 03 7D 00 00 
15:25:41:5968 Rx 1 0x701 s 8 86 A3 38 88 03 7D 00 00 
15:25:41:5971 Rx 1 0x706 s 8 1E 00 02 1E 00 7D 00 00 
15:25:41:5971 Rx 1 0x701 s 8 1E 00 02 1E 00 7D 00 00 
15:25:41:6061 Rx 1 0x702 s 8 22 00 00 00 00 00 00 B0 
15:25:41:6061 Rx 1 0x701 s 8 22 00 00 00 00 00 00 B0 
15:25:41:6064 Rx 1 0x703 s 8 14 2A 50 28 A5 71 5D 05 
15:25:41:6064 Rx 1 0x701 s 8 14 2A 50 28 A5 71 5D 05 
15:25:41:6066 Rx 1 0x704 s 7 95 82 D8 98 82 22 22 
15:25:41:6066 Rx 1 0x701 s 7 95 82 D8 98 82 22 22 
15:25:41:6068 Rx 1 0x705 s 8 86 A3 38 88 03 7D 00 00 
15:25:41:6068 Rx 1 0x701 s 8 86 A3 38 88 03 7D 00 00 
15:25:41:6071 Rx 1 0x706 s 8 1E 00 02 1E 00 7D 00 00 
15:25:41:6071 Rx 1 0x701 s 8 1E 00 02 1E 00 7D 00 00 
15:25:41:6161 Rx 1 0x702 s 8 22 00 00 00 00 00 00 B0 
15:25:41:6161 Rx 1 0x701 s 8 22 00 00 00 00 00 00 B0 
15:25:41:6164 Rx 1 0x703 s 8 14 2A 54 30 D0 07 E5 DF 
15:25:41:6164 Rx 1 0x701 s 8 14 2A 54 30 D0 07 E5 DF 
15:25:41:6166 Rx 1 0x704 s 7 95 82 D8 98 82 22 22 
15:25:41:6166 Rx 1 0x701 s 7 95 82 D8 98 82 22 22 
15:25:41:6168 Rx 1 0x705 s 8 86 A3 38 88 03 7D 00 00 
15:25:41:6168 Rx 1 0x701 s 8 86 A3 38 88 03 7D 00 00 
15:25:41:6170 Rx 1 0x706 s 8 1E 00 02 1E 00 7D 00 00 
15:25:41:6170 Rx 1 0x701 s 8 1E 00 02 1E 00 7D 00 00 
15:25:41:6261 Rx 1 0x702 s 8 22 00 00 00 00 00 00 B0 
15:25:41:6261 Rx 1 0x701 s 8 22 00 00 00 00 00 00 B0 
15:25:41:6263 Rx 1 0x703 s 8 15 2A 54 38 DA 07 13 38 
15:25:41:6263 Rx 1 0x701 s 8 15 2A 54 38 DA 07 13 38 
15:25:41:6266 Rx 1 0x704 s 7 95 82 D8 98 83 22 22 
15:25:41:6266 Rx 1 0x701 s 7 95 82 D8 98 83 22 22 
15:25:41:6268 Rx 1 0x705 s 8 86 A3 38 88 03 7D 00 00 
15:25:41:6268 Rx 1 0x701 s 8 86 A3 38 88 03 7D 00 00 
15:25:41:6271 Rx 1 0x706 s 8 1E 00 02 1E 00 7D 00 00 
15:25:41:6271 Rx 1 0x701 s 8 1E 00 02 1E 00 7D 00 00 
15:25:41:6361 Rx 1 0x702 s 8 22 00 00 00 00 00 00 B0 
15:25:41:6361 Rx 1 0x701 s 8 22 00 00 00 00 00 00 B0 
15:25:41:6364 Rx 1 0x703 s 8 15 2C 54 00 30 2E 2F 2F 
15:25:41:6364 Rx 1 0x701 s 8 15 2C 54 00 30 2E 2F 2F 
15:25:41:6366 Rx 1 0x704 s 7 95 82 D8 98 82 22 22 
15:25:41:6366 Rx 1 0x701 s 7 95 82 D8 98 82 22 22 
15:25:41:6368 Rx 1 0x705 s 8 86 A3 38 88 03 7D 00 00 
15:25:41:6368 Rx 1 0x701 s 8 86 A3 38 88 03 7D 00 00 
15:25:41:6371 Rx 1 0x706 s 8 1E 00 02 1E 00 7D 00 00 
15:25:41:6371 Rx 1 0x701 s 8 1E 00 02 1E 00 7D 00 00 
15:25:41:6393 Rx 1 0x1003 x 8 02 12 04 00 64 00 00 00 
15:25:41:6393 Rx 1 0x1001 x 8 02 12 04 00 64 00 00 00 
15:25:41:6396 Rx 1 0x1002 x 8 02 12 04 60 64 00 00 00 
15:25:41:6396 Rx 1 0x1001 x 8 02 12 04 60 64 00 00 00 
15:25:41:6461 Rx 1 0x703 s 8 15 2C 58 08 2F 2F 00 40 
15:25:41:6461 Rx 1 0x701 s 8 15 2C 58 08 2F 2F 00 40 
15:25:41:6464 Rx 1 0x702 s 8 22 00 00 00 00 00 00 B0 
15:25:41:6464 Rx 1 0x701 s 8 22 00 00 00 00 00 00 B0 
15:25:41:6466 Rx 1 0x704 s 7 95 82 D8 98 82 22 22 
15:25:41:6466 Rx 1 0x701 s 7 95 82 D8 98 82 22 22 
15:25:41:6468 Rx 1 0x705 s 8 86 A3 38 88 03 7D 00 00 
15:25:41:6468 Rx 1 0x701 s 8 86 A3 38 88 03 7D 00 00 
15:25:41:6470 Rx 1 0x706 s 8 1E 00 02 1E 00 7D 00 00 
15:25:41:6470 Rx 1 0x701 s 8 1E 00 02 1E 00 7D 00 00 
15:25:41:6561 Rx 1 0x702 s 8 22 00 00 00 00 00 00 B0 
15:25:41:6561 Rx 1 0x701 s 8 22 00 00 00 00 00 00 B0 
15:25:41:6563 Rx 1 0x703 s 8 16 2C 58 10 00 00 7D 00 
15:25:41:6563 Rx 1 0x701 s 8 16 2C 58 10 00 00 7D 00 
15:25:41:6566 Rx 1 0x704 s 7 95 82 D8 98 83 22 22 
15:25:41:6566 Rx 1 0x701 s 7 95 82 D8 98 83 22 22 
15:25:41:6568 Rx 1 0x705 s 8 86 A3 38 88 03 7D 00 00 
15:25:41:6568 Rx 1 0x701 s 8 86 A3 38 88 03 7D 00 00 
15:25:41:6571 Rx 1 0x706 s 8 1C E0 01 1E 00 7D 00 00 
15:25:41:6571 Rx 1 0x701 s 8 1C E0 01 1E 00 7D 00 00 
15:25:41:6661 Rx 1 0x702 s 8 22 00 00 00 00 00 00 B0 
15:25:41:6661 Rx 1 0x701 s 8 22 00 00 00 00 00 00 B0 
15:25:41:6664 Rx 1 0x703 s 8 16 2E 58 18 00 00 72 79 
15:25:41:6664 Rx 1 0x701 s 8 16 2E 58 18 00 00 72 79 
15:25:41:6666 Rx 1 0x704 s 7 95 82 D8 98 83 22 22 
15:25:41:6666 Rx 1 0x701 s 7 95 82 D8 98 83 22 22 
15:25:41:6668 Rx 1 0x705 s 8 86 A3 38 88 03 7D 00 00 
15:25:41:6668 Rx 1 0x701 s 8 86 A3 38 88 03 7D 00 00 
15:25:41:6671 Rx 1 0x706 s 8 1C E0 01 1E 00 7D 00 00 
15:25:41:6671 Rx 1 0x701 s 8 1C E0 01 1E 00 7D 00 00 
15:25:41:6761 Rx 1 0x702 s 8 22 00 00 00 00 00 00 B0 
15:25:41:6761 Rx 1 0x701 s 8 22 00 00 00 00 00 00 B0 
15:25:41:6764 Rx 1 0x703 s 8 17 2E 5C 20 36 33 89 30 
15:25:41:6764 Rx 1 0x701 s 8 17 2E 5C 20 36 33 89 30 
15:25:41:6766 Rx 1 0x704 s 7 95 82 D8 98 82 22 22 
15:25:41:6766 Rx 1 0x701 s 7 95 82 D8 98 82 22 22 
15:25:41:6768 Rx 1 0x705 s 8 86 A3 38 88 03 7D 00 00 
15:25:41:6768 Rx 1 0x701 s 8 86 A3 38 88 03 7D 00 00 
15:25:41:6770 Rx 1 0x706 s 8 1C E0 01 1C 00 7D 00 00 
15:25:41:6770 Rx 1 0x701 s 8 1C E0 01 1C 00 7D 00 00 
15:25:41:6861 Rx 1 0x702 s 8 22 00 00 00 00 00 00 B0 
15:25:41:6861 Rx 1 0x701 s 8 22 00 00 00 00 00 00 B0 
15:25:41:6863 Rx 1 0x703 s 8 17 2E 5C 28 A5 71 5D 05 
15:25:41:6863 Rx 1 0x701 s 8 17 2E 5C 28 A5 71 5D 05 
15:25:41:6865 Rx 1 0x704 s 7 95 82 D8 98 82 22 22 
15:25:41:6865 Rx 1 0x701 s 7 95 82 D8 98 82 22 22 
15:25:41:6868 Rx 1 0x705 s 8 86 A3 38 88 03 7D 00 00 
15:25:41:6868 Rx 1 0x701 s 8 86 A3 38 88 03 7D 00 00 
15:25:41:6870 Rx 1 0x706 s 8 1C E0 01 1C 00 7D 00 00 
15:25:41:6870 Rx 1 0x701 s 8 1C E0 01 1C 00 7D 00 00 
15:25:41:6961 Rx 1 0x702 s 8 22 00 00 00 00 00 00 B0 
15:25:41:6961 Rx 1 0x701 s 8 22 00 00 00 00 00 00 B0 
15:25:41:6964 Rx 1 0x703 s 8 17 30 60 30 D0 07 E5 DF 
15:25:41:6964 Rx 1 0x701 s 8 17 30 60 30 D0 07 E5 DF 
15:25:41:6966 Rx 1 0x704 s 7 95 82 D8 98 82 22 22 
15:25:41:6966 Rx 1 0x701 s 7 95 82 D8 98 82 22 22 
15:25:41:6968 Rx 1 0x705 s 8 86 A3 38 88 03 7D 00 00 
15:25:41:6968 Rx 1 0x701 s 8 86 A3 38 88 03 7D 00 00 
15:25:41:6970 Rx 1 0x706 s 8 1C E0 01 1C 00 7D 00 00 
15:25:41:6970 Rx 1 0x701 s 8 1C E0 01 1C 00 7D 00 00 
15:25:41:7061 Rx 1 0x702 s 8 22 00 00 00 00 00 00 B0 
15:25:41:7061 Rx 1 0x701 s 8 22 00 00 00 00 00 00 B0 
15:25:41:7063 Rx 1 0x703 s 8 18 30 60 38 DA 07 13 38 
15:25:41:7063 Rx 1 0x701 s 8 18 30 60 38 DA 07 13 38 
15:25:41:7066 Rx 1 0x704 s 7 95 82 D9 98 82 22 22 
15:25:41:7066 Rx 1 0x701 s 7 95 82 D9 98 82 22 22 
15:25:41:7068 Rx 1 0x705 s 8 86 A3 38 88 03 7D 00 00 
15:25:41:7068 Rx 1 0x701 s 8 86 A3 38 88 03 7D 00 00 
15:25:41:7070 Rx 1 0x706 s 8 1C E0 01 1C 00 7D 00 00 
15:25:41:7070 Rx 1 0x701 s 8 1C E0 01 1C 00 7D 00 00 
15:25:41:7161 Rx 1 0x702 s 8 22 00 00 00 00 00 00 B0 
15:25:41:7161 Rx 1 0x701 s 8 22 00 00 00 00 00 00 B0 
15:25:41:7164 Rx 1 0x703 s 8 18 30 60 00 30 2E 2F 2F 
15:25:41:7164 Rx 1 0x701 s 8 18 30 60 00 30 2E 2F 2F 
15:25:41:7166 Rx 1 0x704 s 7 95 82 D8 98 82 22 22 
15:25:41:7166 Rx 1 0x701 s 7 95 82 D8 98 82 22 22 
15:25:41:7168 Rx 1 0x705 s 8 86 A3 38 88 03 7D 00 00 
15:25:41:7168 Rx 1 0x701 s 8 86 A3 38 88 03 7D 00 00 
15:25:41:7171 Rx 1 0x706 s 8 1C E0 01 1C 00 7D 00 00 
15:25:41:7171 Rx 1 0x701 s 8 1C E0 01 1C 00 7D 00 00 
15:25:41:7261 Rx 1 0x702 s 8 22 00 00 00 00 00 00 B0 
15:25:41:7261 Rx 1 0x701 s 8 22 00 00 00 00 00 00 B0 
15:25:41:7264 Rx 1 0x703 s 8 18 32 64 08 2F 2E 00 40 
15:25:41:7264 Rx 1 0x701 s 8 18 32 64 08 2F 2E 00 40 
15:25:41:7266 Rx 1 0x704 s 7 95 82 D8 98 82 22 22 
15:25:41:7266 Rx 1 0x701 s 7 95 82 D8 98 82 22 22 
15:25:41:7268 Rx 1 0x705 s 8 86 A3 38 88 03 7D 00 00 
15:25:41:7271 Rx 1 0x706 s 8 1C E0 01 1C 00 7D 00 00 
15:25:41:7361 Rx 1 0x702 s 8 22 00 00 00 00 00 00 B0 
15:25:41:7364 Rx 1 0x703 s 8 19 32 64 10 00 00 7D 00 
15:25:41:7366 Rx 1 0x704 s 7 95 82 D8 98 82 22 22 
15:25:41:7368 Rx 1 0x705 s 8 86 A3 38 88 03 7D 00 00 
15:25:41:7371 Rx 1 0x706 s 8 1C E0 01 1C 00 7D 00 00 
15:25:41:7393 Rx 1 0x1003 x 8 04 12 00 20 54 00 00 00 
15:25:41:7395 Rx 1 0x1002 x 8 04 12 00 80 54 00 00 00 
15:25:41:7398 Rx 1 0x1042 x 7 00 59 A4 A5 83 00 00 
15:25:41:7401 Rx 1 0x1043 x 7 00 58 A4 A5 83 00 00 
15:25:41:7404 Rx 1 0x1083 x 7 00 30 00 01 00 7D 00 
15:25:41:7407 Rx 1 0x10C3 x 7 00 10 00 00 00 7D 00 
15:25:41:7409 Rx 1 0x1103 x 7 00 20 00 00 00 7D 00 
15:25:41:7412 Rx 1 0x1142 x 7 00 30 00 02 00 7D 00 
15:25:41:7415 Rx 1 0x1182 x 7 00 10 00 00 00 7D 00 
15:25:41:7417 Rx 1 0x11C2 x 7 00 30 00 01 00 7D 00 
15:25:41:7420 Rx 1 0x1403 x 7 00 60 00 03 00 7D 00 
15:25:41:7423 Rx 1 0x1442 x 7 00 60 00 03 00 7D 00 
15:25:41:7462 Rx 1 0x702 s 8 22 00 00 00 00 00 00 B0 
15:25:41:7464 Rx 1 0x703 s 8 19 32 64 18 00 00 72 79 
15:25:41:7466 Rx 1 0x704 s 7 95 82 D8 98 83 22 22 
15:25:41:7468 Rx 1 0x705 s 8 86 A3 38 88 03 7D 00 00 
15:25:41:7471 Rx 1 0x706 s 8 1C E0 01 1C 00 7D 00 00 
15:25:41:7561 Rx 1 0x702 s 8 22 00 00 00 00 00 00 B0 
15:25:41:7564 Rx 1 0x703 s 8 19 34 68 20 36 33 89 30 
15:25:41:7566 Rx 1 0x704 s 7 95 82 D8 98 82 22 22 
15:25:41:7568 Rx 1 0x705 s 8 86 A3 38 88 03 7D 00 00 
15:25:41:7571 Rx 1 0x706 s 8 1C E0 01 1C 00 7D 00 00 
15:25:41:7661 Rx 1 0x702 s 8 22 00 00 00 00 00 00 B0 
15:25:41:7664 Rx 1 0x703 s 8 1A 34 68 28 A5 71 5D 05 
15:25:41:7666 Rx 1 0x704 s 7 95 82 D8 98 82 22 22 
15:25:41:7668 Rx 1 0x705 s 8 86 A3 38 88 03 7D 00 00 
15:25:41:7671 Rx 1 0x706 s 8 1A E0 01 1C 00 7D 00 00 
15:25:41:7761 Rx 1 0x702 s 8 22 00 00 00 00 00 00 B0 
15:25:41:7764 Rx 1 0x703 s 8 1A 36 68 30 D0 07 E5 DF 
15:25:41:7766 Rx 1 0x704 s 7 95 82 D8 98 83 22 22 
15:25:41:7768 Rx 1 0x705 s 8 86 A3 38 88 03 7D 00 00 
15:25:41:7770 Rx 1 0x706 s 8 1A C0 01 1C 00 7D 00 00 
15:25:41:7861 Rx 1 0x702 s 8 22 00 00 00 00 00 00 B0 
15:25:41:7864 Rx 1 0x703 s 8 1A 36 6C 38 DA 07 13 38 
15:25:41:7866 Rx 1 0x704 s 7 95 82 D8 98 82 22 22 
15:25:41:7868 Rx 1 0x705 s 8 86 A3 38 88 03 7D 00 00 
15:25:41:7871 Rx 1 0x706 s 8 1A C0 01 1C 00 7D 00 00 
15:25:41:7962 Rx 1 0x702 s 8 22 00 00 00 00 00 00 B0 
15:25:41:7964 Rx 1 0x703 s 8 1B 36 6C 00 30 2E 2F 2F 
15:25:41:7966 Rx 1 0x704 s 7 95 82 D8 98 82 22 22 
15:25:41:7968 Rx 1 0x705 s 8 86 A3 38 88 03 7D 00 00 
15:25:41:7971 Rx 1 0x706 s 8 1A C0 01 1A 00 7D 00 00 
15:25:41:8061 Rx 1 0x703 s 8 1B 38 6C 08 2F 2E 00 40 
15:25:41:8064 Rx 1 0x702 s 8 22 00 00 00 00 00 00 B0 
15:25:41:8066 Rx 1 0x704 s 7 95 82 D8 98 82 22 22 
15:25:41:8068 Rx 1 0x705 s 8 86 A3 38 88 03 7D 00 00 
15:25:41:8070 Rx 1 0x706 s 8 1A C0 01 1A 00 7D 00 00 
15:25:41:8161 Rx 1 0x702 s 8 22 00 00 00 00 00 00 B0 
15:25:41:8164 Rx 1 0x703 s 8 1B 38 70 10 00 00 7D 00 
15:25:41:8166 Rx 1 0x704 s 7 95 82 D8 98 83 22 22 
15:25:41:8168 Rx 1 0x705 s 8 86 A3 38 88 03 7D 00 00 
15:25:41:8171 Rx 1 0x706 s 8 1A C0 01 1A 00 7D 00 00 
15:25:41:8261 Rx 1 0x702 s 8 22 00 00 00 00 00 00 B0 
15:25:41:8264 Rx 1 0x703 s 8 1C 38 70 18 00 00 72 79 
15:25:41:8266 Rx 1 0x704 s 7 95 82 D8 98 82 22 22 
15:25:41:8268 Rx 1 0x705 s 8 86 A3 38 88 03 7D 00 00 
15:25:41:8271 Rx 1 0x706 s 8 1A C0 01 1A 00 7D 00 00 
15:25:41:8361 Rx 1 0x702 s 8 22 00 00 00 00 00 00 B0 
15:25:41:8364 Rx 1 0x703 s 8 1C 3A 70 20 36 33 89 30 
15:25:41:8366 Rx 1 0x704 s 7 95 82 D8 98 82 22 22 
15:25:41:8368 Rx 1 0x705 s 8 86 A3 38 88 03 7D 00 00 
15:25:41:8370 Rx 1 0x706 s 8 1A C0 01 1A 00 7D 00 00 
15:25:41:8393 Rx 1 0x1003 x 8 04 12 00 40 64 00 00 00 
15:25:41:8396 Rx 1 0x1002 x 8 04 12 00 A0 64 00 00 00 
15:25:41:8398 Rx 1 0x1042 x 7 01 2B 2B 2D 2D 2E 2E 
15:25:41:8401 Rx 1 0x1043 x 7 01 2E 2E 2E 2E 2C 2C 
15:25:41:8404 Rx 1 0x1083 x 7 00 30 00 01 00 7D 00 
15:25:41:8406 Rx 1 0x10C3 x 7 00 10 00 00 00 7D 00 
15:25:41:8409 Rx 1 0x1103 x 7 00 20 00 01 00 7D 00 
15:25:41:8412 Rx 1 0x1142 x 7 02 30 00 03 00 7D 00 
15:25:41:8414 Rx 1 0x1182 x 7 00 10 00 00 00 7D 00 
15:25:41:8417 Rx 1 0x11C2 x 7 00 30 00 02 00 7D 00 
15:25:41:8420 Rx 1 0x1403 x 7 00 70 00 04 00 7D 00 
15:25:41:8422 Rx 1 0x1442 x 7 00 70 00 04 00 7D 00 
15:25:41:8461 Rx 1 0x702 s 8 22 00 00 00 00 00 00 B0 
15:25:41:8463 Rx 1 0x703 s 8 1C 3A 74 28 A5 71 5D 05 
15:25:41:8466 Rx 1 0x704 s 7 95 82 D8 98 83 22 22 
15:25:41:8468 Rx 1 0x705 s 8 86 A3 38 88 03 7D 00 00 
15:25:41:8471 Rx 1 0x706 s 8 1A C0 01 1A 00 7D 00 00 
15:25:41:8561 Rx 1 0x702 s 8 22 00 00 00 00 00 00 B0 
15:25:41:8564 Rx 1 0x703 s 8 1D 3A 74 30 D0 07 E5 DF 
15:25:41:8566 Rx 1 0x704 s 7 95 82 D9 98 82 22 22 
15:25:41:8568 Rx 1 0x705 s 8 86 A3 38 88 03 7D 00 00 
15:25:41:8570 Rx 1 0x706 s 8 1A C0 01 1A 00 7D 00 00 
15:25:41:8661 Rx 1 0x702 s 8 22 00 00 00 00 00 00 B0 
15:25:41:8663 Rx 1 0x703 s 8 1D 3C 74 38 DA 07 13 38 
15:25:41:8666 Rx 1 0x704 s 7 95 82 D8 98 82 22 22 
15:25:41:8668 Rx 1 0x705 s 8 86 A3 38 88 03 7D 00 00 
15:25:41:8670 Rx 1 0x706 s 8 1A C0 01 1A 00 7D 00 00 
15:25:41:8761 Rx 1 0x702 s 8 22 00 00 00 00 00 00 B0 
15:25:41:8764 Rx 1 0x703 s 8 1D 3C 78 00 30 2E 2F 2F 
15:25:41:8766 Rx 1 0x704 s 7 95 82 D8 98 83 22 22 
15:25:41:8768 Rx 1 0x705 s 8 86 A3 38 88 03 7D 00 00 
15:25:41:8771 Rx 1 0x706 s 8 1A C0 01 1A 00 7D 00 00 
15:25:41:8861 Rx 1 0x702 s 8 22 00 00 00 00 00 00 B0 
15:25:41:8864 Rx 1 0x703 s 8 1E 3C 78 08 2F 2F 00 40 
15:25:41:8866 Rx 1 0x704 s 7 95 82 D8 98 82 22 22 
15:25:41:8868 Rx 1 0x705 s 8 86 A3 38 88 03 7D 00 00 
15:25:41:8871 Rx 1 0x706 s 8 1A C0 01 1A 00 7D 00 00 
15:25:41:8961 Rx 1 0x702 s 8 22 00 00 00 00 00 00 B0 
15:25:41:8964 Rx 1 0x703 s 8 1E 3E 78 10 00 00 7D 00 
15:25:41:8966 Rx 1 0x704 s 7 95 82 D8 98 83 22 22 
15:25:41:8969 Rx 1 0x705 s 8 86 A3 38 88 03 7D 00 00 
15:25:41:8971 Rx 1 0x706 s 8 18 C0 01 1A 00 7D 00 00 
15:25:41:9061 Rx 1 0x703 s 8 1E 3E 7C 18 00 00 72 79 
15:25:41:9064 Rx 1 0x702 s 8 22 00 00 00 00 00 00 B0 
15:25:41:9066 Rx 1 0x704 s 7 95 82 D8 98 83 22 22 
15:25:41:9068 Rx 1 0x705 s 8 86 A3 38 88 03 7D 00 00 
15:25:41:9071 Rx 1 0x706 s 8 18 A0 01 1A 00 7D 00 00 
15:25:41:9161 Rx 1 0x703 s 8 1F 3E 7C 20 36 33 89 30 
15:25:41:9164 Rx 1 0x702 s 8 22 00 00 00 00 00 00 B0 
15:25:41:9166 Rx 1 0x704 s 7 95 82 D8 98 83 22 22 
15:25:41:9168 Rx 1 0x705 s 8 86 A3 38 88 03 7D 00 00 
15:25:41:9170 Rx 1 0x706 s 8 18 A0 01 1A 00 7D 00 00 
15:25:41:9261 Rx 1 0x703 s 8 1F 3E 7C 28 A5 71 5D 05 
15:25:41:9263 Rx 1 0x702 s 8 22 00 00 00 00 00 00 B0 
15:25:41:9266 Rx 1 0x704 s 7 95 82 D8 98 82 22 22 
15:25:41:9268 Rx 1 0x705 s 8 88 A3 38 88 03 7D 00 00 
15:25:41:9271 Rx 1 0x706 s 8 18 A0 01 1A 00 7D 00 00 
15:25:41:9361 Rx 1 0x703 s 8 1F 40 80 30 D0 07 E5 DF 
15:25:41:9364 Rx 1 0x702 s 8 22 00 00 00 00 00 00 B0 
15:25:41:9366 Rx 1 0x704 s 7 95 82 D8 98 83 22 22 
15:25:41:9368 Rx 1 0x705 s 8 86 A3 38 88 03 7D 00 00 
15:25:41:9370 Rx 1 0x706 s 8 18 C0 01 1A 00 7D 00 00 
15:25:41:9393 Rx 1 0x1003 x 8 04 12 00 00 64 00 00 00 
15:25:41:9396 Rx 1 0x1002 x 8 04 12 00 60 64 00 00 00 
15:25:41:9398 Rx 1 0x1042 x 7 02 2D 2D 2A 2A 2E 2E 
15:25:41:9401 Rx 1 0x1043 x 7 02 29 29 2A 2A 2D 2D 
15:25:41:9403 Rx 1 0x1083 x 7 00 30 00 02 00 7D 00 
15:25:41:9406 Rx 1 0x10C3 x 7 00 10 00 00 00 7D 00 
15:25:41:9409 Rx 1 0x1103 x 7 00 20 00 01 00 7D 00 
15:25:41:9412 Rx 1 0x1142 x 7 03 30 00 03 00 7D 00 
15:25:41:9414 Rx 1 0x1182 x 7 00 10 00 00 00 7D 00 
15:25:41:9417 Rx 1 0x11C2 x 7 01 30 00 02 00 7D 00 
15:25:41:9420 Rx 1 0x1403 x 7 00 70 00 04 00 7D 00 
15:25:41:9423 Rx 1 0x1442 x 7 00 80 00 04 00 7D 00 
15:25:41:9461 Rx 1 0x703 s 8 20 40 80 38 DA 07 13 38 
15:25:41:9463 Rx 1 0x702 s 8 22 00 00 00 00 00 00 B0 
15:25:41:9466 Rx 1 0x704 s 7 95 82 D8 98 82 22 22 
15:25:41:9468 Rx 1 0x705 s 8 86 A3 38 88 03 7D 00 00 
15:25:41:9470 Rx 1 0x706 s 8 18 A0 01 18 00 7D 00 00 
15:25:41:9561 Rx 1 0x702 s 8 22 00 00 00 00 00 00 B0 
15:25:41:9564 Rx 1 0x703 s 8 20 40 80 00 30 2E 2F 2F 
15:25:41:9566 Rx 1 0x704 s 7 95 82 D8 98 83 22 22 
15:25:41:9568 Rx 1 0x705 s 8 86 A3 38 88 03 7D 00 00 
15:25:41:9571 Rx 1 0x706 s 8 18 A0 01 18 00 7D 00 00 
15:25:41:9661 Rx 1 0x702 s 8 22 00 00 00 00 00 00 B0 
15:25:41:9664 Rx 1 0x703 s 8 20 42 84 08 2F 2E 00 40 
15:25:41:9666 Rx 1 0x704 s 7 95 82 D8 98 83 22 22 
15:25:41:9668 Rx 1 0x705 s 8 86 A3 38 88 03 7D 00 00 
15:25:41:9670 Rx 1 0x706 s 8 18 A0 01 18 00 7D 00 00 
15:25:41:9761 Rx 1 0x702 s 8 22 00 00 00 00 00 00 B0 
15:25:41:9764 Rx 1 0x703 s 8 21 42 84 10 00 00 7D 00 
15:25:41:9766 Rx 1 0x704 s 7 95 82 D8 98 83 22 22 
15:25:41:9769 Rx 1 0x705 s 8 86 A3 38 88 03 7D 00 00 
15:25:41:9771 Rx 1 0x706 s 8 18 A0 01 18 00 7D 00 00 
15:25:41:9862 Rx 1 0x702 s 8 22 00 00 00 00 00 00 B0 
15:25:41:9864 Rx 1 0x703 s 8 21 42 84 18 00 00 72 79 
15:25:41:9866 Rx 1 0x704 s 7 95 82 D8 98 83 22 22 
15:25:41:9868 Rx 1 0x705 s 8 86 A3 38 88 03 7D 00 00 
15:25:41:9871 Rx 1 0x706 s 8 18 A0 01 18 00 7D 00 00 
15:25:41:9961 Rx 1 0x702 s 8 22 00 00 00 00 00 00 B0 
15:25:41:9964 Rx 1 0x703 s 8 21 44 88 20 36 33 89 30 
15:25:41:9966 Rx 1 0x704 s 7 95 82 D8 98 82 22 22 
15:25:41:9968 Rx 1 0x705 s 8 86 A3 38 88 03 7D 00 00 
15:25:41:9971 Rx 1 0x706 s 8 18 A0 01 18 00 7D 00 00 
15:25:42:0061 Rx 1 0x702 s 8 22 00 00 00 00 00 00 B0 
15:25:42:0064 Rx 1 0x703 s 8 22 44 88 28 A5 71 5D 05 
15:25:42:0066 Rx 1 0x704 s 7 95 82 D8 98 83 22 22 
15:25:42:0068 Rx 1 0x705 s 8 86 A3 38 88 03 7D 00 00 
15:25:42:0071 Rx 1 0x706 s 8 18 A0 01 18 00 7D 00 00 
15:25:42:0162 Rx 1 0x702 s 8 22 00 00 00 00 00 00 B0 
15:25:42:0164 Rx 1 0x703 s 8 22 44 88 30 D0 07 E5 DF 
15:25:42:0166 Rx 1 0x704 s 7 95 82 D8 98 83 22 22 
15:25:42:0168 Rx 1 0x705 s 8 86 A3 38 88 03 7D 00 00 
15:25:42:0171 Rx 1 0x706 s 8 18 A0 01 18 00 7D 00 00 
15:25:42:0261 Rx 1 0x702 s 8 22 00 00 00 00 00 00 B0 
15:25:42:0264 Rx 1 0x703 s 8 22 46 8C 38 DA 07 13 38 
15:25:42:0266 Rx 1 0x704 s 7 95 82 D8 98 83 22 22 
15:25:42:0268 Rx 1 0x705 s 8 86 A3 38 88 03 7D 00 00 
15:25:42:0271 Rx 1 0x706 s 8 18 A0 01 18 00 7D 00 00 
15:25:42:0362 Rx 1 0x702 s 8 22 00 00 00 00 00 00 B0 
15:25:42:0364 Rx 1 0x703 s 8 23 46 8C 00 30 2E 2F 2F 
15:25:42:0366 Rx 1 0x704 s 7 95 82 D8 98 82 22 22 
15:25:42:0369 Rx 1 0x705 s 8 86 A3 38 88 03 7D 00 00 
15:25:42:0371 Rx 1 0x706 s 8 18 A0 01 18 00 7D 00 00 
15:25:42:0392 Rx 1 0x1043 x 7 03 2D 2D 2B 2B 31 00 
15:25:42:0395 Rx 1 0x1002 x 8 04 12 00 80 54 00 00 00 
15:25:42:0398 Rx 1 0x1003 x 8 04 12 00 20 54 00 00 00 
15:25:42:0401 Rx 1 0x1042 x 7 03 2B 2B 28 28 30 00 
15:25:42:0404 Rx 1 0x1083 x 7 00 30 00 02 00 7D 00 
15:25:42:0406 Rx 1 0x10C3 x 7 00 10 00 00 00 7D 00 
15:25:42:0409 Rx 1 0x1103 x 7 00 30 00 01 00 7D 00 
15:25:42:0412 Rx 1 0x1142 x 7 03 40 00 03 00 7D 00 
15:25:42:0415 Rx 1 0x1182 x 7 00 10 00 00 00 7D 00 
15:25:42:0417 Rx 1 0x11C2 x 7 01 30 00 02 00 7D 00 
15:25:42:0420 Rx 1 0x1403 x 7 00 80 00 05 00 7D 00 
15:25:42:0423 Rx 1 0x1442 x 7 00 80 00 05 00 7D 00 
15:25:42:0461 Rx 1 0x703 s 8 23 46 8C 08 2F 2E 00 40 
15:25:42:0464 Rx 1 0x702 s 8 22 00 00 00 00 00 00 B0 
15:25:42:0466 Rx 1 0x704 s 7 95 82 D8 98 82 22 22 
15:25:42:0468 Rx 1 0x705 s 8 86 A3 38 88 03 7D 00 00 
15:25:42:0471 Rx 1 0x706 s 8 18 A0 01 18 00 7D 00 00 
15:25:42:0561 Rx 1 0x703 s 8 23 48 8C 10 00 00 7D 00 
15:25:42:0564 Rx 1 0x702 s 8 22 00 00 00 00 00 00 B0 
15:25:42:0566 Rx 1 0x704 s 7 95 82 D8 98 83 22 22 
15:25:42:0568 Rx 1 0x705 s 8 86 A3 38 88 03 7D 00 00 
15:25:42:0571 Rx 1 0x706 s 8 18 A0 01 18 00 7D 00 00 
15:25:42:0661 Rx 1 0x702 s 8 22 00 00 00 00 00 00 B0 
15:25:42:0664 Rx 1 0x703 s 8 24 48 90 18 00 00 72 79 
15:25:42:0666 Rx 1 0x704 s 7 95 82 D8 98 82 22 22 
15:25:42:0668 Rx 1 0x705 s 8 86 A3 38 88 03 7D 00 00 
15:25:42:0671 Rx 1 0x706 s 8 18 A0 01 18 00 7D 00 00 
15:25:42:0762 Rx 1 0x702 s 8 22 00 00 00 00 00 00 B0 
15:25:42:0764 Rx 1 0x703 s 8 24 48 90 20 36 33 89 30 
15:25:42:0766 Rx 1 0x704 s 7 95 82 D9 98 83 22 22 
15:25:42:0768 Rx 1 0x705 s 8 86 A3 38 88 03 7D 00 00 
15:25:42:0770 Rx 1 0x706 s 8 16 80 01 18 00 7D 00 00 
15:25:42:0861 Rx 1 0x702 s 8 22 00 00 00 00 00 00 B0 
15:25:42:0863 Rx 1 0x703 s 8 24 4A 90 28 A5 71 5D 05 
15:25:42:0866 Rx 1 0x704 s 7 95 82 D8 98 83 22 22 
15:25:42:0868 Rx 1 0x705 s 8 86 A3 38 88 03 7D 00 00 
15:25:42:0871 Rx 1 0x706 s 8 16 80 01 18 00 7D 00 00 
15:25:42:0961 Rx 1 0x702 s 8 22 00 00 00 00 00 00 B0 
15:25:42:0964 Rx 1 0x703 s 8 24 4A 94 30 D0 07 E5 DF 
15:25:42:0966 Rx 1 0x704 s 7 95 82 D9 98 82 22 22 
15:25:42:0968 Rx 1 0x705 s 8 86 A3 38 88 03 7D 00 00 
15:25:42:0971 Rx 1 0x706 s 8 16 80 01 18 00 7D 00 00 
15:25:42:1061 Rx 1 0x702 s 8 22 00 00 00 00 00 00 B0 
15:25:42:1064 Rx 1 0x703 s 8 25 4A 94 38 DA 07 13 38 
15:25:42:1066 Rx 1 0x704 s 7 95 82 D8 98 83 22 22 
15:25:42:1068 Rx 1 0x705 s 8 86 A3 38 88 03 7D 00 00 
15:25:42:1070 Rx 1 0x706 s 8 16 80 01 18 00 7D 00 00 
15:25:42:1161 Rx 1 0x702 s 8 22 00 00 00 00 00 00 B0 
15:25:42:1164 Rx 1 0x703 s 8 25 4C 94 00 30 2E 2F 2F 
15:25:42:1166 Rx 1 0x704 s 7 95 82 D8 98 83 22 22 
15:25:42:1168 Rx 1 0x705 s 8 86 A3 38 88 03 7D 00 00 
15:25:42:1171 Rx 1 0x706 s 8 16 80 01 16 00 7D 00 00 
15:25:42:1262 Rx 1 0x702 s 8 22 00 00 00 00 00 00 B0 
15:25:42:1264 Rx 1 0x703 s 8 25 4C 98 08 2F 2E 00 40 
15:25:42:1266 Rx 1 0x704 s 7 95 82 D8 98 82 22 22 
15:25:42:1268 Rx 1 0x705 s 8 86 A3 38 88 03 7D 00 00 
15:25:42:1271 Rx 1 0x706 s 8 16 A0 01 1A 00 7D 00 00 
15:25:42:1361 Rx 1 0x702 s 8 22 00 00 00 00 00 00 B0 
15:25:42:1364 Rx 1 0x703 s 8 26 4C 98 10 00 00 7D 00 
15:25:42:1366 Rx 1 0x704 s 7 95 82 D9 98 83 22 22 
15:25:42:1369 Rx 1 0x705 s 8 86 A3 38 88 03 7D 00 00 
15:25:42:1371 Rx 1 0x706 s 8 1A C0 01 1A 00 7D 00 00 
15:25:42:1393 Rx 1 0x1043 x 7 04 E8 03 86 96 BE 32 
15:25:42:1396 Rx 1 0x1002 x 8 04 12 00 A0 64 00 00 00 
15:25:42:1399 Rx 1 0x1003 x 8 04 12 00 40 64 00 00 00 
15:25:42:1401 Rx 1 0x1042 x 7 04 E8 03 5C 76 BE 32 
15:25:42:1404 Rx 1 0x1083 x 7 00 30 00 02 00 7D 00 
15:25:42:1407 Rx 1 0x10C3 x 7 00 10 00 00 00 7D 00 
15:25:42:1409 Rx 1 0x1103 x 7 00 30 00 02 00 7D 00 
15:25:42:1412 Rx 1 0x1142 x 7 03 40 00 04 00 7D 00 
15:25:42:1415 Rx 1 0x1182 x 7 00 10 00 00 00 7D 00 
15:25:42:1417 Rx 1 0x11C2 x 7 02 40 00 03 00 7D 00 
15:25:42:1420 Rx 1 0x1403 x 7 00 90 00 05 00 7D 00 
15:25:42:1423 Rx 1 0x1442 x 7 00 90 00 05 00 7D 00 
15:25:42:1461 Rx 1 0x703 s 8 26 4C 98 18 00 00 72 79 
15:25:42:1464 Rx 1 0x702 s 8 22 00 00 00 00 00 00 B0 
15:25:42:1466 Rx 1 0x704 s 7 95 82 D8 98 83 22 22 
15:25:42:1468 Rx 1 0x705 s 8 86 A3 38 88 03 7D 00 00 
15:25:42:1471 Rx 1 0x706 s 8 18 A0 01 1A 00 7D 00 00 
15:25:42:1561 Rx 1 0x703 s 8 26 4E 9C 20 36 33 89 30 
15:25:42:1564 Rx 1 0x702 s 8 22 00 00 00 00 00 00 B0 
15:25:42:1566 Rx 1 0x704 s 7 95 82 D8 98 82 22 22 
15:25:42:1568 Rx 1 0x705 s 8 86 A3 38 88 03 7D 00 00 
15:25:42:1570 Rx 1 0x706 s 8 18 C0 01 1A 00 7D 00 00 
15:25:42:1661 Rx 1 0x703 s 8 27 4E 9C 28 A5 71 5D 05 
15:25:42:1663 Rx 1 0x702 s 8 22 00 00 00 00 00 00 B0 
15:25:42:1666 Rx 1 0x704 s 7 95 82 D8 98 83 22 22 
15:25:42:1668 Rx 1 0x705 s 8 86 A3 38 88 03 7D 00 00 
15:25:42:1671 Rx 1 0x706 s 8 18 C0 01 1A 00 7D 00 00 
15:25:42:1761 Rx 1 0x703 s 8 27 4E 9C 30 D0 07 E5 DF 
15:25:42:1764 Rx 1 0x702 s 8 22 00 00 00 00 00 00 B0 
15:25:42:1766 Rx 1 0x704 s 7 95 82 D8 98 83 22 22 
15:25:42:1768 Rx 1 0x705 s 8 86 A3 38 88 03 7D 00 00 
15:25:42:1771 Rx 1 0x706 s 8 18 C0 01 1A 00 7D 00 00 
15:25:42:1861 Rx 1 0x703 s 8 27 50 A0 38 DA 07 13 38 
15:25:42:1864 Rx 1 0x702 s 8 22 00 00 00 00 00 00 B0 
15:25:42:1866 Rx 1 0x704 s 7 95 82 D8 98 82 22 22 
15:25:42:1868 Rx 1 0x705 s 8 86 A3 38 88 03 7D 00 00 
15:25:42:1870 Rx 1 0x706 s 8 18 C0 01 1A 00 7D 00 00 
15:25:42:1961 Rx 1 0x703 s 8 28 50 A0 00 30 2E 2F 2F 
15:25:42:1964 Rx 1 0x702 s 8 22 00 00 00 00 00 00 B0 
15:25:42:1966 Rx 1 0x704 s 7 95 82 D8 98 83 22 22 
15:25:42:1968 Rx 1 0x705 s 8 86 A3 38 88 03 7D 00 00 
15:25:42:1971 Rx 1 0x706 s 8 18 C0 01 1A 00 7D 00 00 
15:25:42:2062 Rx 1 0x702 s 8 22 00 00 00 00 00 00 B0 
15:25:42:2064 Rx 1 0x703 s 8 28 50 A0 08 2F 2F 00 40 
15:25:42:2066 Rx 1 0x704 s 7 95 82 D8 98 83 22 22 
15:25:42:2068 Rx 1 0x705 s 8 86 A3 38 88 03 7D 00 00 
15:25:42:2071 Rx 1 0x706 s 8 18 C0 01 1A 00 7D 00 00 
15:25:42:2161 Rx 1 0x702 s 8 22 00 00 00 00 00 00 B0 
15:25:42:2164 Rx 1 0x703 s 8 28 52 A0 10 00 00 7D 00 
15:25:42:2166 Rx 1 0x704 s 7 95 82 D8 98 82 22 22 
15:25:42:2169 Rx 1 0x705 s 8 86 A3 38 88 03 7D 00 00 
15:25:42:2171 Rx 1 0x706 s 8 1A C0 01 1A 00 7D 00 00 
15:25:42:2262 Rx 1 0x702 s 8 22 00 00 00 00 00 00 B0 
15:25:42:2264 Rx 1 0x703 s 8 28 52 A4 18 00 00 72 79 
15:25:42:2266 Rx 1 0x704 s 7 95 82 D8 98 83 22 22 
15:25:42:2269 Rx 1 0x705 s 8 86 A3 38 88 03 7D 00 00 
15:25:42:2271 Rx 1 0x706 s 8 18 A0 01 1A 00 7D 00 00 
15:25:42:2362 Rx 1 0x702 s 8 22 00 00 00 00 00 00 B0 
15:25:42:2364 Rx 1 0x703 s 8 29 52 A4 20 36 33 89 30 
15:25:42:2366 Rx 1 0x704 s 7 95 82 D8 98 82 22 22 
15:25:42:2368 Rx 1 0x705 s 8 86 A3 38 88 03 7D 00 00 
15:25:42:2371 Rx 1 0x706 s 8 1A C0 01 1A 00 7D 00 00 
15:25:42:2393 Rx 1 0x1003 x 8 04 12 00 00 64 00 00 00 
15:25:42:2396 Rx 1 0x1002 x 8 04 12 00 60 64 00 00 00 
15:25:42:2398 Rx 1 0x1042 x 7 05 E9 03 D5 28 85 34 
15:25:42:2401 Rx 1 0x1043 x 7 05 E9 03 D5 28 85 34 
15:25:42:2403 Rx 1 0x1083 x 7 01 40 00 03 00 7D 00 
15:25:42:2406 Rx 1 0x10C3 x 7 00 10 00 00 00 7D 00 
15:25:42:2409 Rx 1 0x1103 x 7 01 40 00 02 00 7D 00 
15:25:42:2412 Rx 1 0x1142 x 7 03 40 00 04 00 7D 00 
15:25:42:2414 Rx 1 0x1182 x 7 00 10 00 00 00 7D 00 
15:25:42:2417 Rx 1 0x11C2 x 7 02 40 00 03 00 7D 00 
15:25:42:2420 Rx 1 0x1403 x 7 01 90 00 06 00 7D 00 
15:25:42:2423 Rx 1 0x1442 x 7 01 90 00 06 00 7D 00 
15:25:42:2462 Rx 1 0x702 s 8 22 00 00 00 00 00 00 B0 
15:25:42:2464 Rx 1 0x703 s 8 29 54 A4 28 A5 71 5D 05 
15:25:42:2466 Rx 1 0x704 s 7 95 82 D8 98 83 22 22 
15:25:42:2469 Rx 1 0x705 s 8 86 A3 38 88 03 7D 00 00 
15:25:42:2471 Rx 1 0x706 s 8 1A C0 01 1A 00 7D 00 00 
15:25:42:2562 Rx 1 0x702 s 8 22 00 00 00 00 00 00 B0 
15:25:42:2564 Rx 1 0x703 s 8 29 54 A8 30 D0 07 E5 DF 
15:25:42:2566 Rx 1 0x704 s 7 95 82 D8 98 83 22 22 
15:25:42:2568 Rx 1 0x705 s 8 86 A3 38 88 03 7D 00 00 
15:25:42:2571 Rx 1 0x706 s 8 18 C0 01 1A 00 7D 00 00 
15:25:42:2661 Rx 1 0x702 s 8 22 00 00 00 00 00 00 B0 
15:25:42:2664 Rx 1 0x703 s 8 2A 54 A8 38 DA 07 13 38 
15:25:42:2666 Rx 1 0x704 s 7 95 82 D8 98 83 22 22 
15:25:42:2668 Rx 1 0x705 s 8 86 A3 38 88 03 7D 00 00 
15:25:42:2671 Rx 1 0x706 s 8 18 C0 01 1A 00 7D 00 00 
15:25:42:2762 Rx 1 0x702 s 8 22 00 00 00 00 00 00 B0 
15:25:42:2764 Rx 1 0x703 s 8 2A 56 A8 00 30 2E 2F 2F 
15:25:42:2766 Rx 1 0x704 s 7 95 82 D8 98 82 22 22 
15:25:42:2769 Rx 1 0x705 s 8 86 A3 38 88 03 7D 00 00 
15:25:42:2771 Rx 1 0x706 s 8 1A C0 01 1A 00 7D 00 00 
15:25:42:2861 Rx 1 0x703 s 8 2A 56 AC 08 2F 2E 00 40 
15:25:42:2864 Rx 1 0x702 s 8 22 00 00 00 00 00 00 B0 
15:25:42:2866 Rx 1 0x704 s 7 95 82 D8 98 83 22 22 
15:25:42:2868 Rx 1 0x705 s 8 86 A3 38 88 03 7D 00 00 
15:25:42:2871 Rx 1 0x706 s 8 1A C0 01 1A 00 7D 00 00 
15:25:42:2961 Rx 1 0x703 s 8 2B 56 AC 10 00 00 7D 00 
15:25:42:2964 Rx 1 0x702 s 8 22 00 00 00 00 00 00 B0 
15:25:42:2966 Rx 1 0x704 s 7 95 82 D8 98 83 22 22 
15:25:42:2968 Rx 1 0x705 s 8 86 A3 38 88 03 7D 00 00 
15:25:42:2971 Rx 1 0x706 s 8 1A C0 01 1A 00 7D 00 00 
15:25:42:3061 Rx 1 0x702 s 8 22 00 00 00 00 00 00 B0 
15:25:42:3064 Rx 1 0x703 s 8 2B 58 AC 18 00 00 72 79 
15:25:42:3066 Rx 1 0x704 s 7 95 82 D8 98 83 22 22 
15:25:42:3068 Rx 1 0x705 s 8 86 A3 38 88 03 7D 00 00 
15:25:42:3071 Rx 1 0x706 s 8 18 C0 01 1A 00 7D 00 00 
15:25:42:3162 Rx 1 0x702 s 8 22 00 00 00 00 00 00 B0 
15:25:42:3164 Rx 1 0x703 s 8 2B 58 B0 20 36 33 89 30 
15:25:42:3166 Rx 1 0x704 s 7 95 82 D8 98 82 22 22 
15:25:42:3168 Rx 1 0x705 s 8 86 A3 38 88 03 7D 00 00 
15:25:42:3171 Rx 1 0x706 s 8 1A C0 01 1A 00 7D 00 00 
15:25:42:3261 Rx 1 0x702 s 8 22 00 00 00 00 00 00 B0 
15:25:42:3264 Rx 1 0x703 s 8 2C 58 B0 28 A5 71 5D 05 
15:25:42:3266 Rx 1 0x704 s 7 95 82 D8 98 83 22 22 
15:25:42:3268 Rx 1 0x705 s 8 86 A3 38 88 03 7D 00 00 
15:25:42:3271 Rx 1 0x706 s 8 1A C0 01 1A 00 7D 00 00 
15:25:42:3362 Rx 1 0x702 s 8 22 00 00 00 00 00 00 B0 
15:25:42:3364 Rx 1 0x703 s 8 2C 5A B0 30 D0 07 E5 DF 
15:25:42:3366 Rx 1 0x704 s 7 95 82 D8 98 83 22 22 
15:25:42:3368 Rx 1 0x705 s 8 86 A3 38 88 03 7D 00 00 
15:25:42:3371 Rx 1 0x706 s 8 1A C0 01 1A 00 7D 00 00 
15:25:42:3393 Rx 1 0x1043 x 7 06 31 7E FF FF FF FF 
15:25:42:3396 Rx 1 0x1002 x 8 04 12 00 80 54 00 00 00 
15:25:42:3399 Rx 1 0x1003 x 8 04 12 00 20 54 00 00 00 
15:25:42:3401 Rx 1 0x1042 x 7 06 31 7E C1 64 25 0B 
15:25:42:3404 Rx 1 0x1083 x 7 01 40 00 03 00 7D 00 
15:25:42:3407 Rx 1 0x10C3 x 7 00 10 00 00 00 7D 00 
15:25:42:3409 Rx 1 0x1103 x 7 01 40 00 03 00 7D 00 
15:25:42:3412 Rx 1 0x1142 x 7 03 50 00 04 00 7D 00 
15:25:42:3415 Rx 1 0x1182 x 7 00 10 00 00 00 7D 00 
15:25:42:3418 Rx 1 0x11C2 x 7 02 40 00 03 00 7D 00 
15:25:42:3420 Rx 1 0x1403 x 7 01 90 00 06 00 7D 00 
15:25:42:3423 Rx 1 0x1442 x 7 01 90 00 06 00 7D 00 
15:25:42:3461 Rx 1 0x702 s 8 22 00 00 00 00 00 00 B0 
15:25:42:3464 Rx 1 0x703 s 8 2C 5A B4 38 DA 07 13 38 
15:25:42:3466 Rx 1 0x704 s 7 95 82 D8 98 83 22 22 
15:25:42:3468 Rx 1 0x705 s 8 86 A3 38 88 03 7D 00 00 
15:25:42:3471 Rx 1 0x706 s 8 1A C0 01 1A 00 7D 00 00 
15:25:42:3561 Rx 1 0x702 s 8 22 00 00 00 00 00 00 B0 
15:25:42:3564 Rx 1 0x703 s 8 2D 5A B4 00 30 2E 2F 2F 
15:25:42:3566 Rx 1 0x704 s 7 95 82 D8 98 83 22 22 
15:25:42:3568 Rx 1 0x705 s 8 86 A3 38 88 03 7D 00 00 
15:25:42:3571 Rx 1 0x706 s 8 1A C0 01 1A 00 7D 00 00 
15:25:42:3662 Rx 1 0x702 s 8 22 00 00 00 00 00 00 B0 
15:25:42:3664 Rx 1 0x703 s 8 2D 5A B4 08 2F 2E 00 40 
15:25:42:3666 Rx 1 0x704 s 7 95 82 D8 98 82 22 22 
15:25:42:3668 Rx 1 0x705 s 8 86 A3 38 88 03 7D 00 00 
15:25:42:3671 Rx 1 0x706 s 8 1A C0 01 1A 00 7D 00 00 
15:25:42:3762 Rx 1 0x702 s 8 22 00 00 00 00 00 00 B0 
15:25:42:3764 Rx 1 0x703 s 8 2D 5C B8 10 00 00 7D 00 
15:25:42:3766 Rx 1 0x704 s 7 95 82 D8 98 83 22 22 
15:25:42:3769 Rx 1 0x705 s 8 86 A3 38 88 03 7D 00 00 
15:25:42:3771 Rx 1 0x706 s 8 1A C0 01 1A 00 7D 00 00 
15:25:42:3862 Rx 1 0x702 s 8 22 00 00 00 00 00 00 B0 
15:25:42:3864 Rx 1 0x703 s 8 2E 5C B8 18 00 00 72 79 
15:25:42:3866 Rx 1 0x704 s 7 95 82 D8 98 82 22 22 
15:25:42:3869 Rx 1 0x705 s 8 86 A3 38 88 03 7D 00 00 
15:25:42:3871 Rx 1 0x706 s 8 1A C0 01 1A 00 7D 00 00 
15:25:42:3962 Rx 1 0x702 s 8 22 00 00 00 00 00 00 B0 
15:25:42:3964 Rx 1 0x703 s 8 2E 5C B8 20 36 33 89 30 
15:25:42:3966 Rx 1 0x704 s 7 95 82 D8 98 82 22 22 
15:25:42:3968 Rx 1 0x705 s 8 88 A3 38 88 03 7D 00 00 
15:25:42:3971 Rx 1 0x706 s 8 18 C0 01 1A 00 7D 00 00 
15:25:42:4062 Rx 1 0x702 s 8 22 00 00 00 00 00 00 B0 
15:25:42:4064 Rx 1 0x703 s 8 2E 5E BC 28 A5 71 5D 05 
15:25:42:4066 Rx 1 0x704 s 7 95 82 D8 98 83 22 22 
15:25:42:4069 Rx 1 0x705 s 8 86 A3 38 88 03 7D 00 00 
15:25:42:4071 Rx 1 0x706 s 8 18 C0 01 1A 00 7D 00 00 
15:25:42:4162 Rx 1 0x702 s 8 22 00 00 00 00 00 00 B0 
15:25:42:4164 Rx 1 0x703 s 8 2F 5E BC 30 D0 07 E5 DF 
15:25:42:4166 Rx 1 0x704 s 7 95 82 D8 98 82 22 22 
15:25:42:4168 Rx 1 0x705 s 8 86 A3 38 88 03 7D 00 00 
15:25:42:4171 Rx 1 0x706 s 8 1A C0 01 1A 00 7D 00 00 
15:25:42:4261 Rx 1 0x702 s 8 22 00 00 00 00 00 00 B0 
15:25:42:4264 Rx 1 0x703 s 8 2F 5E BC 38 DA 07 13 38 
15:25:42:4266 Rx 1 0x704 s 7 95 82 D8 98 82 22 22 
15:25:42:4268 Rx 1 0x705 s 8 86 A3 38 88 03 7D 00 00 
15:25:42:4271 Rx 1 0x706 s 8 1A C0 01 1A 00 7D 00 00 
15:25:42:4362 Rx 1 0x702 s 8 22 00 00 00 00 00 00 B0 
15:25:42:4364 Rx 1 0x703 s 8 2F 60 BC 00 30 2E 2F 2F 
15:25:42:4366 Rx 1 0x704 s 7 95 82 D8 98 83 22 22 
15:25:42:4369 Rx 1 0x705 s 8 86 A3 38 88 03 7D 00 00 
15:25:42:4371 Rx 1 0x706 s 8 1A C0 01 1A 00 7D 00 00 
15:25:42:4393 Rx 1 0x1003 x 8 04 12 00 40 64 00 00 00 
15:25:42:4395 Rx 1 0x1002 x 8 04 12 00 A0 64 00 00 00 
15:25:42:4398 Rx 1 0x1042 x 7 07 00 00 00 00 00 00 
15:25:42:4401 Rx 1 0x1043 x 7 07 00 00 00 00 00 00 
15:25:42:4404 Rx 1 0x1083 x 7 01 50 00 03 00 7D 00 
15:25:42:4407 Rx 1 0x10C3 x 7 00 10 00 00 00 7D 00 
15:25:42:4409 Rx 1 0x1103 x 7 02 50 00 04 00 7D 00 
15:25:42:4412 Rx 1 0x1142 x 7 03 50 00 04 00 7D 00 
15:25:42:4415 Rx 1 0x1182 x 7 00 10 00 00 00 7D 00 
15:25:42:4417 Rx 1 0x11C2 x 7 02 40 00 03 00 7D 00 
15:25:42:4420 Rx 1 0x1403 x 7 02 90 00 06 00 7D 00 
15:25:42:4423 Rx 1 0x1442 x 7 02 A0 00 06 00 7D 00 
15:25:42:4461 Rx 1 0x703 s 8 2F 60 C0 08 2F 2E 00 40 
15:25:42:4464 Rx 1 0x702 s 8 22 00 00 00 00 00 00 B0 
15:25:42:4466 Rx 1 0x704 s 7 95 82 D8 98 83 22 22 
15:25:42:4468 Rx 1 0x705 s 8 86 A3 38 88 03 7D 00 00 
15:25:42:4471 Rx 1 0x706 s 8 1A C0 01 1A 00 7D 00 00 
15:25:42:4561 Rx 1 0x702 s 8 22 00 00 00 00 00 00 B0 
15:25:42:4564 Rx 1 0x703 s 8 30 60 C0 10 00 00 7D 00 
15:25:42:4566 Rx 1 0x704 s 7 95 82 D8 98 83 22 22 
15:25:42:4568 Rx 1 0x705 s 8 86 A3 38 88 03 7D 00 00 
15:25:42:4571 Rx 1 0x706 s 8 1A C0 01 1A 00 7D 00 00 
15:25:42:4661 Rx 1 0x702 s 8 22 00 00 00 00 00 00 B0 
15:25:42:4664 Rx 1 0x703 s 8 30 62 C0 18 00 00 72 79 
15:25:42:4666 Rx 1 0x704 s 7 95 82 D8 98 83 22 22 
15:25:42:4669 Rx 1 0x705 s 8 86 A3 38 88 03 7D 00 00 
15:25:42:4671 Rx 1 0x706 s 8 1A C0 01 1A 00 7D 00 00 
15:25:42:4762 Rx 1 0x702 s 8 22 00 00 00 00 00 00 B0 
15:25:42:4764 Rx 1 0x703 s 8 30 62 C4 20 36 33 89 30 
15:25:42:4766 Rx 1 0x704 s 7 95 82 D8 98 83 22 22 
15:25:42:4768 Rx 1 0x705 s 8 86 A3 38 88 03 7D 00 00 
15:25:42:4771 Rx 1 0x706 s 8 18 C0 01 1A 00 7D 00 00 
15:25:42:4861 Rx 1 0x702 s 8 22 00 00 00 00 00 00 B0 
15:25:42:4864 Rx 1 0x703 s 8 31 62 C4 28 A5 71 5D 05 
15:25:42:4866 Rx 1 0x704 s 7 95 82 D8 98 83 22 22 
15:25:42:4868 Rx 1 0x705 s 8 86 A3 38 88 03 7D 00 00 
15:25:42:4871 Rx 1 0x706 s 8 1A C0 01 1A 00 7D 00 00 
15:25:42:4962 Rx 1 0x702 s 8 22 00 00 00 00 00 00 B0 
15:25:42:4964 Rx 1 0x703 s 8 31 62 C4 30 D0 07 E5 DF 
15:25:42:4966 Rx 1 0x704 s 7 95 82 D8 98 82 22 22 
15:25:42:4968 Rx 1 0x705 s 8 86 A3 38 88 03 7D 00 00 
15:25:42:4971 Rx 1 0x706 s 8 1A C0 01 1A 00 7D 00 00 
15:25:42:5061 Rx 1 0x702 s 8 22 00 00 00 00 00 00 B0 
15:25:42:5064 Rx 1 0x703 s 8 31 64 C8 38 DA 07 13 38 
15:25:42:5066 Rx 1 0x704 s 7 95 82 D8 98 83 22 22 
15:25:42:5068 Rx 1 0x705 s 8 86 A3 38 88 03 7D 00 00 
15:25:42:5071 Rx 1 0x706 s 8 1A C0 01 1A 00 7D 00 00 
15:25:42:5161 Rx 1 0x702 s 8 22 00 00 00 00 00 00 B0 
15:25:42:5164 Rx 1 0x703 s 8 32 64 C8 00 30 2E 2F 2F 
15:25:42:5166 Rx 1 0x704 s 7 95 82 D8 98 83 22 22 
15:25:42:5168 Rx 1 0x705 s 8 86 A3 38 88 03 7D 00 00 
15:25:42:5171 Rx 1 0x706 s 8 1A C0 01 1A 00 7D 00 00 
15:25:42:5262 Rx 1 0x702 s 8 22 00 00 00 00 00 00 B0 
15:25:42:5264 Rx 1 0x703 s 8 32 64 C8 08 2F 2F 00 40 
15:25:42:5266 Rx 1 0x704 s 7 95 82 D8 98 82 22 22 
15:25:42:5268 Rx 1 0x705 s 8 86 A3 38 88 03 7D 00 00 
15:25:42:5271 Rx 1 0x706 s 8 1A C0 01 1A 00 7D 00 00 
15:25:42:5361 Rx 1 0x703 s 8 32 66 C8 10 00 00 7D 00 
15:25:42:5364 Rx 1 0x702 s 8 62 00 00 00 00 00 00 B0 
15:25:42:5366 Rx 1 0x704 s 7 95 82 D8 98 83 22 22 
15:25:42:5368 Rx 1 0x705 s 8 86 A3 38 88 03 7D 00 00 
15:25:42:5371 Rx 1 0x706 s 8 1A C0 01 1A 00 7D 00 00 
15:25:42:5393 Rx 1 0x1043 x 7 08 65 64 63 63 64 64 
15:25:42:5396 Rx 1 0x1002 x 8 04 1A 00 60 64 00 00 00 
15:25:42:5399 Rx 1 0x1003 x 8 04 1A 00 00 64 00 00 00 
15:25:42:5401 Rx 1 0x1042 x 7 08 65 64 63 63 64 64 
15:25:42:5404 Rx 1 0x1083 x 7 02 50 00 03 00 7D 00 
15:25:42:5406 Rx 1 0x10C3 x 7 00 10 00 00 00 7D 00 
15:25:42:5409 Rx 1 0x1103 x 7 02 50 00 04 00 7D 00 
15:25:42:5412 Rx 1 0x1142 x 7 04 50 00 04 00 7D 00 
15:25:42:5415 Rx 1 0x1182 x 7 00 10 00 00 00 7D 00 
15:25:42:5417 Rx 1 0x11C2 x 7 02 40 00 03 00 7D 00 
15:25:42:5420 Rx 1 0x1403 x 7 02 A0 00 07 00 7D 00 
15:25:42:5423 Rx 1 0x1442 x 7 02 A0 00 07 00 7D 00 
15:25:42:5461 Rx 1 0x702 s 8 62 00 00 00 00 00 00 B0 
15:25:42:5464 Rx 1 0x703 s 8 32 66 CC 18 00 00 72 79 
15:25:42:5466 Rx 1 0x704 s 7 95 82 D8 98 82 22 22 
15:25:42:5469 Rx 1 0x705 s 8 86 A3 38 88 03 7D 00 00 
15:25:42:5471 Rx 1 0x706 s 8 1A C0 01 1A 00 7D 00 00 
15:25:42:5562 Rx 1 0x702 s 8 62 00 00 00 00 00 00 B0 
15:25:42:5564 Rx 1 0x703 s 8 33 66 CC 20 36 33 89 30 
15:25:42:5566 Rx 1 0x704 s 7 95 82 D8 98 82 22 22 
15:25:42:5568 Rx 1 0x705 s 8 86 A3 38 88 03 7D 00 00 
15:25:42:5571 Rx 1 0x706 s 8 1A C0 01 1A 00 7D 00 00 
15:25:42:5662 Rx 1 0x702 s 8 62 00 00 00 00 00 00 B0 
15:25:42:5664 Rx 1 0x703 s 8 33 66 CC 28 A5 71 5D 05 
15:25:42:5666 Rx 1 0x704 s 7 95 82 D8 98 83 22 22 
15:25:42:5669 Rx 1 0x705 s 8 88 A3 38 88 03 7D 00 00 
15:25:42:5671 Rx 1 0x706 s 8 1A C0 01 1A 00 7D 00 00 
15:25:42:5762 Rx 1 0x702 s 8 62 00 00 00 00 00 00 B0 
15:25:42:5764 Rx 1 0x703 s 8 33 68 D0 30 D0 07 E5 DF 
15:25:42:5766 Rx 1 0x704 s 7 95 82 D8 98 82 22 22 
15:25:42:5768 Rx 1 0x705 s 8 86 A3 38 88 03 7D 00 00 
15:25:42:5771 Rx 1 0x706 s 8 1A C0 01 1A 00 7D 00 00 
15:25:42:5862 Rx 1 0x703 s 8 34 68 D0 38 DA 07 13 38 
15:25:42:5864 Rx 1 0x702 s 8 62 00 00 00 00 00 00 B0 
15:25:42:5866 Rx 1 0x704 s 7 95 82 D8 98 83 22 22 
15:25:42:5868 Rx 1 0x705 s 8 86 A3 38 88 03 7D 00 00 
15:25:42:5871 Rx 1 0x706 s 8 1A C0 01 1A 00 7D 00 00 
15:25:42:5961 Rx 1 0x703 s 8 34 68 D0 00 30 2E 2F 2F 
15:25:42:5964 Rx 1 0x702 s 8 62 00 00 00 00 00 00 B0 
15:25:42:5966 Rx 1 0x704 s 7 95 82 D8 98 83 22 22 
15:25:42:5968 Rx 1 0x705 s 8 86 A3 38 88 03 7D 00 00 
15:25:42:5971 Rx 1 0x706 s 8 1A C0 01 1A 00 7D 00 00 
15:25:42:6062 Rx 1 0x702 s 8 62 00 00 00 00 00 00 B0 
15:25:42:6064 Rx 1 0x703 s 8 34 6A D0 08 2F 2E 00 40 
15:25:42:6066 Rx 1 0x704 s 7 95 82 D8 98 83 22 22 
15:25:42:6068 Rx 1 0x705 s 8 86 A3 38 88 03 7D 00 00 
15:25:42:6071 Rx 1 0x706 s 8 1A C0 01 1A 00 7D 00 00 
15:25:42:6161 Rx 1 0x703 s 8 34 6A D4 10 00 00 7D 00 
15:25:42:6164 Rx 1 0x702 s 8 62 00 00 00 00 00 00 B0 
15:25:42:6166 Rx 1 0x704 s 7 95 82 D8 98 83 22 22 
15:25:42:6168 Rx 1 0x705 s 8 86 A3 38 88 03 7D 00 00 
15:25:42:6171 Rx 1 0x706 s 8 1A C0 01 1A 00 7D 00 00 
15:25:42:6261 Rx 1 0x702 s 8 62 00 00 00 00 00 00 B0 
15:25:42:6264 Rx 1 0x703 s 8 35 6A D4 18 00 00 72 79 
15:25:42:6266 Rx 1 0x704 s 7 95 82 D8 98 83 22 22 
15:25:42:6269 Rx 1 0x705 s 8 86 A3 38 88 03 7D 00 00 
15:25:42:6271 Rx 1 0x706 s 8 1A C0 01 1A 00 7D 00 00 
15:25:42:6362 Rx 1 0x702 s 8 62 00 00 00 00 00 00 B0 
15:25:42:6364 Rx 1 0x703 s 8 35 6A D4 20 36 33 89 30 
15:25:42:6366 Rx 1 0x704 s 7 95 82 D9 98 83 22 22 
15:25:42:6368 Rx 1 0x705 s 8 86 A3 38 88 03 7D 00 00 
15:25:42:6371 Rx 1 0x706 s 8 1A C0 01 1A 00 7D 00 00 
15:25:42:6393 Rx 1 0x1003 x 8 0F 3E 00 20 5F 00 00 00 
15:25:42:6396 Rx 1 0x1002 x 8 0F 3E 00 80 5F 00 00 00 
15:25:42:6398 Rx 1 0x1042 x 7 09 65 64 00 00 00 00 
15:25:42:6401 Rx 1 0x1043 x 7 09 65 64 00 00 00 00 
15:25:42:6404 Rx 1 0x1083 x 7 01 50 00 03 00 7D 00 
15:25:42:6406 Rx 1 0x10C3 x 7 00 10 00 00 00 7D 00 
15:25:42:6409 Rx 1 0x1103 x 7 02 50 00 04 00 7D 00 
15:25:42:6412 Rx 1 0x1142 x 7 04 50 00 04 00 7D 00 
15:25:42:6414 Rx 1 0x1182 x 7 00 10 00 00 00 7D 00 
15:25:42:6417 Rx 1 0x11C2 x 7 02 40 00 03 00 7D 00 
15:25:42:6420 Rx 1 0x1403 x 7 01 A0 00 05 00 7D 00 
15:25:42:6423 Rx 1 0x1442 x 7 01 A0 00 05 00 7D 00 
15:25:42:6462 Rx 1 0x702 s 8 62 00 00 00 00 00 00 B0 
15:25:42:6464 Rx 1 0x703 s 8 35 6C D4 28 A5 71 5D 05 
15:25:42:6466 Rx 1 0x704 s 7 95 82 D8 98 83 22 22 
15:25:42:6469 Rx 1 0x705 s 8 86 A3 38 88 03 7D 00 00 
15:25:42:6471 Rx 1 0x706 s 8 1A C0 01 1A 00 7D 00 00 
15:25:42:6562 Rx 1 0x702 s 8 62 00 00 00 00 00 00 B0 
15:25:42:6564 Rx 1 0x703 s 8 35 6C D8 30 D0 07 E5 DF 
15:25:42:6566 Rx 1 0x704 s 7 95 82 D8 98 83 22 22 
15:25:42:6568 Rx 1 0x705 s 8 86 A3 38 88 03 7D 00 00 
15:25:42:6571 Rx 1 0x706 s 8 1A C0 01 1A 00 7D 00 00 
15:25:42:6662 Rx 1 0x703 s 8 36 6C D8 38 DA 07 13 38 
15:25:42:6664 Rx 1 0x702 s 8 62 00 00 00 00 00 00 B0 
15:25:42:6666 Rx 1 0x704 s 7 95 82 D8 98 82 22 22 
15:25:42:6668 Rx 1 0x705 s 8 86 A3 38 88 03 7D 00 00 
15:25:42:6671 Rx 1 0x706 s 8 1A C0 01 1A 00 7D 00 00 
15:25:42:6761 Rx 1 0x703 s 8 36 6C D8 00 30 2E 2F 2F 
15:25:42:6764 Rx 1 0x702 s 8 62 00 00 00 00 00 00 B0 
15:25:42:6766 Rx 1 0x704 s 7 95 82 D8 98 83 22 22 
15:25:42:6768 Rx 1 0x705 s 8 86 A3 38 88 03 7D 00 00 
15:25:42:6771 Rx 1 0x706 s 8 1A C0 01 1A 00 7D 00 00 
15:25:42:6862 Rx 1 0x702 s 8 62 00 00 00 00 00 00 B0 
15:25:42:6864 Rx 1 0x703 s 8 36 6E D8 08 2F 2E 00 40 
15:25:42:6866 Rx 1 0x704 s 7 95 82 D8 98 83 22 22 
15:25:42:6868 Rx 1 0x705 s 8 86 A3 38 88 03 7D 00 00 
15:25:42:6871 Rx 1 0x706 s 8 1A C0 01 1A 00 7D 00 00 
15:25:42:6962 Rx 1 0x702 s 8 62 00 00 00 00 00 00 B0 
15:25:42:6964 Rx 1 0x703 s 8 36 6E DC 10 00 00 7D 00 
15:25:42:6966 Rx 1 0x704 s 7 95 82 D8 98 82 22 22 
15:25:42:6969 Rx 1 0x705 s 8 88 A3 38 88 03 7D 00 00 
15:25:42:6971 Rx 1 0x706 s 8 18 C0 01 1A 00 7D 00 00 
15:25:42:7061 Rx 1 0x703 s 8 37 6E DC 18 00 00 72 79 
15:25:42:7064 Rx 1 0x702 s 8 62 00 00 00 00 00 00 B0 
15:25:42:7066 Rx 1 0x704 s 7 95 82 D8 98 83 22 22 
15:25:42:7068 Rx 1 0x705 s 8 86 A3 38 88 03 7D 00 00 
15:25:42:7071 Rx 1 0x706 s 8 1A C0 01 1A 00 7D 00 00 
15:25:42:7161 Rx 1 0x703 s 8 37 6E DC 20 36 33 89 30 
15:25:42:7164 Rx 1 0x702 s 8 62 00 00 00 00 00 00 B0 
15:25:42:7166 Rx 1 0x704 s 7 95 82 D8 98 83 22 22 
15:25:42:7168 Rx 1 0x705 s 8 86 A3 38 88 03 7D 00 00 
15:25:42:7171 Rx 1 0x706 s 8 1A C0 01 1A 00 7D 00 00 
15:25:42:7261 Rx 1 0x702 s 8 62 00 00 00 00 00 00 B0 
15:25:42:7264 Rx 1 0x703 s 8 37 70 DC 28 A5 71 5D 05 
15:25:42:7266 Rx 1 0x704 s 7 95 82 D8 98 83 22 22 
15:25:42:7268 Rx 1 0x705 s 8 88 A3 38 88 03 7D 00 00 
15:25:42:7271 Rx 1 0x706 s 8 1A C0 01 1A 00 7D 00 00 
15:25:42:7362 Rx 1 0x702 s 8 62 00 00 00 00 00 00 B0 
15:25:42:7364 Rx 1 0x703 s 8 37 70 E0 30 D0 07 E5 DF 
15:25:42:7366 Rx 1 0x704 s 7 95 82 D8 98 83 22 22 
15:25:42:7369 Rx 1 0x705 s 8 86 A3 38 88 03 7D 00 00 
15:25:42:7371 Rx 1 0x706 s 8 1A C0 01 1A 00 7D 00 00 
15:25:42:7392 Rx 1 0x1003 x 8 0F 3E 00 40 6F 00 00 00 
15:25:42:7395 Rx 1 0x1002 x 8 0F 3E 00 A0 6F 00 00 00 
15:25:42:7398 Rx 1 0x1042 x 7 00 59 A4 A5 83 00 00 
15:25:42:7401 Rx 1 0x1043 x 7 00 59 A4 A5 83 00 00 
15:25:42:7403 Rx 1 0x1083 x 7 01 40 00 02 00 7D 00 
15:25:42:7406 Rx 1 0x10C3 x 7 00 10 00 00 00 7D 00 
15:25:42:7409 Rx 1 0x1103 x 7 01 40 00 03 00 7D 00 
15:25:42:7412 Rx 1 0x1142 x 7 03 50 00 04 00 7D 00 
15:25:42:7414 Rx 1 0x1182 x 7 00 10 00 00 00 7D 00 
15:25:42:7417 Rx 1 0x11C2 x 7 02 40 00 03 00 7D 00 
15:25:42:7420 Rx 1 0x1403 x 7 00 80 00 05 00 7D 00 
15:25:42:7423 Rx 1 0x1442 x 7 00 80 00 05 00 7D 00 
15:25:42:7462 Rx 1 0x702 s 8 62 00 00 00 00 00 00 B0 
15:25:42:7464 Rx 1 0x703 s 8 38 70 E0 38 DA 07 13 38 
15:25:42:7466 Rx 1 0x704 s 7 95 82 D8 98 82 22 22 
15:25:42:7468 Rx 1 0x705 s 8 86 A3 38 88 03 7D 00 00 
15:25:42:7471 Rx 1 0x706 s 8 1A C0 01 1A 00 7D 00 00 
15:25:42:7562 Rx 1 0x702 s 8 62 00 00 00 00 00 00 B0 
15:25:42:7564 Rx 1 0x703 s 8 38 70 E0 00 30 2E 2F 2F 
15:25:42:7566 Rx 1 0x704 s 7 95 82 D8 98 83 22 22 
15:25:42:7569 Rx 1 0x705 s 8 86 A3 38 88 03 7D 00 00 
15:25:42:7571 Rx 1 0x706 s 8 1A C0 01 1A 00 7D 00 00 
15:25:42:7662 Rx 1 0x702 s 8 62 00 00 00 00 00 00 B0 
15:25:42:7664 Rx 1 0x703 s 8 38 72 E0 08 2F 2E 00 40 
15:25:42:7666 Rx 1 0x704 s 7 95 82 D8 98 83 22 22 
15:25:42:7668 Rx 1 0x705 s 8 86 A3 38 88 03 7D 00 00 
15:25:42:7671 Rx 1 0x706 s 8 1A C0 01 1A 00 7D 00 00 
15:25:42:7762 Rx 1 0x702 s 8 62 00 00 00 00 00 00 B0 
15:25:42:7764 Rx 1 0x703 s 8 38 72 E4 10 00 00 7D 00 
15:25:42:7766 Rx 1 0x704 s 7 95 82 D8 98 83 22 22 
15:25:42:7769 Rx 1 0x705 s 8 86 A3 38 88 03 7D 00 00 
15:25:42:7771 Rx 1 0x706 s 8 1A C0 01 1A 00 7D 00 00 
15:25:42:7861 Rx 1 0x703 s 8 39 72 E4 18 00 00 72 79 
15:25:42:7864 Rx 1 0x702 s 8 62 00 00 00 00 00 00 B0 
15:25:42:7866 Rx 1 0x704 s 7 95 82 D8 98 83 22 22 
15:25:42:7868 Rx 1 0x705 s 8 86 A3 38 88 03 7D 00 00 
15:25:42:7871 Rx 1 0x706 s 8 1A C0 01 1A 00 7D 00 00 
15:25:42:7961 Rx 1 0x703 s 8 39 72 E4 20 36 33 89 30 
15:25:42:7964 Rx 1 0x702 s 8 62 00 00 00 00 00 00 B0 
15:25:42:7966 Rx 1 0x704 s 7 95 82 D8 98 82 22 22 
15:25:42:7968 Rx 1 0x705 s 8 86 A3 38 88 03 7D 00 00 
15:25:42:7971 Rx 1 0x706 s 8 1A C0 01 1A 00 7D 00 00 
15:25:42:8061 Rx 1 0x702 s 8 62 00 00 00 00 00 00 B0 
15:25:42:8064 Rx 1 0x703 s 8 39 74 E4 28 A5 71 5D 05 
15:25:42:8066 Rx 1 0x704 s 7 95 82 D8 98 83 22 22 
15:25:42:8068 Rx 1 0x705 s 8 86 A3 38 88 03 7D 00 00 
15:25:42:8071 Rx 1 0x706 s 8 1A C0 01 1A 00 7D 00 00 
15:25:42:8162 Rx 1 0x702 s 8 62 00 00 00 00 00 00 B0 
15:25:42:8164 Rx 1 0x703 s 8 39 74 E8 30 D0 07 E5 DF 
15:25:42:8166 Rx 1 0x704 s 7 95 82 D8 98 83 22 22 
15:25:42:8169 Rx 1 0x705 s 8 86 A3 38 88 03 7D 00 00 
15:25:42:8171 Rx 1 0x706 s 8 1A C0 01 1A 00 7D 00 00 
15:25:42:8262 Rx 1 0x702 s 8 62 00 00 00 00 00 00 B0 
15:25:42:8264 Rx 1 0x703 s 8 3A 74 E8 38 DA 07 13 38 
15:25:42:8266 Rx 1 0x704 s 7 95 82 D8 98 83 22 22 
15:25:42:8268 Rx 1 0x705 s 8 86 A3 38 88 03 7D 00 00 
15:25:42:8271 Rx 1 0x706 s 8 1A C0 01 1A 00 7D 00 00 
15:25:42:8362 Rx 1 0x702 s 8 62 00 00 00 00 00 00 B0 
15:25:42:8364 Rx 1 0x703 s 8 3A 74 E8 00 30 2E 2F 2F 
15:25:42:8366 Rx 1 0x704 s 7 95 82 D8 98 83 22 22 
15:25:42:8369 Rx 1 0x705 s 8 86 A3 38 88 03 7D 00 00 
15:25:42:8371 Rx 1 0x706 s 8 1A C0 01 1A 00 7D 00 00 
15:25:42:8393 Rx 1 0x1003 x 8 0F 3E 00 00 6F 00 00 00 
15:25:42:8395 Rx 1 0x1002 x 8 0F 3E 00 60 6F 00 00 00 
15:25:42:8398 Rx 1 0x1042 x 7 01 2B 2B 2C 2C 2D 2D 
15:25:42:8401 Rx 1 0x1043 x 7 01 2E 2E 2E 2E 2C 2C 
15:25:42:8403 Rx 1 0x1083 x 7 01 40 00 02 00 7D 00 
15:25:42:8406 Rx 1 0x10C3 x 7 00 10 00 00 00 7D 00 
15:25:42:8409 Rx 1 0x1103 x 7 01 40 00 02 00 7D 00 
15:25:42:8412 Rx 1 0x1142 x 7 03 50 00 04 00 7D 00 
15:25:42:8414 Rx 1 0x1182 x 7 00 10 00 00 00 7D 00 
15:25:42:8417 Rx 1 0x11C2 x 7 02 40 00 03 00 7D 00 
15:25:42:8420 Rx 1 0x1403 x 7 00 80 00 05 00 7D 00 
15:25:42:8422 Rx 1 0x1442 x 7 00 80 00 05 00 7D 00 
15:25:42:8462 Rx 1 0x703 s 8 3A 74 E8 08 2F 2F 00 40 
15:25:42:8464 Rx 1 0x702 s 8 62 00 00 00 00 00 00 B0 
15:25:42:8466 Rx 1 0x704 s 7 95 82 D8 98 83 22 22 
15:25:42:8468 Rx 1 0x705 s 8 86 A3 38 88 03 7D 00 00 
15:25:42:8471 Rx 1 0x706 s 8 1A C0 01 1A 00 7D 00 00 
15:25:42:8562 Rx 1 0x702 s 8 62 00 00 00 00 00 00 B0 
15:25:42:8564 Rx 1 0x703 s 8 3A 76 EC 10 00 00 7D 00 
15:25:42:8566 Rx 1 0x704 s 7 95 82 D8 98 83 22 22 
15:25:42:8569 Rx 1 0x705 s 8 86 A3 38 88 03 7D 00 00 
15:25:42:8571 Rx 1 0x706 s 8 1A C0 01 1A 00 7D 00 00 
15:25:42:8661 Rx 1 0x703 s 8 3B 76 EC 18 00 00 72 79 
15:25:42:8664 Rx 1 0x702 s 8 62 00 00 00 00 00 00 B0 
15:25:42:8666 Rx 1 0x704 s 7 95 82 D8 98 83 22 22 
15:25:42:8668 Rx 1 0x705 s 8 88 A3 38 88 03 7D 00 00 
15:25:42:8671 Rx 1 0x706 s 8 1A C0 01 1A 00 7D 00 00 
15:25:42:8761 Rx 1 0x703 s 8 3B 76 EC 20 36 33 89 30 
15:25:42:8764 Rx 1 0x702 s 8 62 00 00 00 00 00 00 B0 
15:25:42:8766 Rx 1 0x704 s 7 95 82 D8 98 82 22 22 
15:25:42:8768 Rx 1 0x705 s 8 86 A3 38 88 03 7D 00 00 
15:25:42:8771 Rx 1 0x706 s 8 1A C0 01 1A 00 7D 00 00 
15:25:42:8861 Rx 1 0x702 s 8 62 00 00 00 00 00 00 B0 
15:25:42:8864 Rx 1 0x703 s 8 3B 76 EC 28 A5 71 5D 05 
15:25:42:8866 Rx 1 0x704 s 7 95 82 D8 98 83 22 22 
15:25:42:8868 Rx 1 0x705 s 8 86 A3 38 88 03 7D 00 00 
15:25:42:8871 Rx 1 0x706 s 8 1A C0 01 1A 00 7D 00 00 
15:25:42:8962 Rx 1 0x702 s 8 62 00 00 00 00 00 00 B0 
15:25:42:8964 Rx 1 0x703 s 8 3B 78 EC 30 D0 07 E5 DF 
15:25:42:8966 Rx 1 0x704 s 7 95 82 D8 98 83 22 22 
15:25:42:8969 Rx 1 0x705 s 8 86 A3 38 88 03 7D 00 00 
15:25:42:8971 Rx 1 0x706 s 8 1A C0 01 1A 00 7D 00 00 
15:25:42:9062 Rx 1 0x702 s 8 62 00 00 00 00 00 00 B0 
15:25:42:9064 Rx 1 0x703 s 8 3B 78 F0 38 DA 07 13 38 
15:25:42:9066 Rx 1 0x704 s 7 95 82 D8 98 83 22 22 
15:25:42:9068 Rx 1 0x705 s 8 86 A3 38 88 03 7D 00 00 
15:25:42:9071 Rx 1 0x706 s 8 1A C0 01 1A 00 7D 00 00 
15:25:42:9162 Rx 1 0x702 s 8 62 00 00 00 00 00 00 B0 
15:25:42:9164 Rx 1 0x703 s 8 3C 78 F0 00 30 2E 2F 2F 
15:25:42:9166 Rx 1 0x704 s 7 95 82 D8 98 83 22 22 
15:25:42:9169 Rx 1 0x705 s 8 86 A3 38 88 03 7D 00 00 
15:25:42:9171 Rx 1 0x706 s 8 1A C0 01 1A 00 7D 00 00 
15:25:42:9262 Rx 1 0x703 s 8 3C 78 F0 08 2F 2F 00 40 
15:25:42:9264 Rx 1 0x702 s 8 62 00 00 00 00 00 00 B0 
15:25:42:9266 Rx 1 0x704 s 7 95 82 D8 98 83 22 22 
15:25:42:9268 Rx 1 0x705 s 8 86 A3 38 88 03 7D 00 00 
15:25:42:9271 Rx 1 0x706 s 8 1A C0 01 1A 00 7D 00 00 
15:25:42:9361 Rx 1 0x702 s 8 62 00 00 00 00 00 00 B0 
15:25:42:9364 Rx 1 0x703 s 8 3C 78 F0 10 00 00 7D 00 
15:25:42:9366 Rx 1 0x704 s 7 95 82 D8 98 83 22 22 
15:25:42:9369 Rx 1 0x705 s 8 86 A3 38 88 03 7D 00 00 
15:25:42:9371 Rx 1 0x706 s 8 1A C0 01 1A 00 7D 00 00 
15:25:42:9393 Rx 1 0x1043 x 7 02 29 29 2A 2A 2D 2D 
15:25:42:9395 Rx 1 0x1002 x 8 0F 3E 00 80 5F 00 00 00 
15:25:42:9398 Rx 1 0x1003 x 8 0F 3E 00 20 5F 00 00 00 
15:25:42:9401 Rx 1 0x1042 x 7 02 2C 2C 2A 2A 2E 2E 
15:25:42:9404 Rx 1 0x1083 x 7 01 40 00 02 00 7D 00 
15:25:42:9406 Rx 1 0x10C3 x 7 00 10 00 00 00 7D 00 
15:25:42:9409 Rx 1 0x1103 x 7 01 40 00 02 00 7D 00 
15:25:42:9412 Rx 1 0x1142 x 7 03 40 00 04 00 7D 00 
15:25:42:9414 Rx 1 0x1182 x 7 00 10 00 00 00 7D 00 
15:25:42:9417 Rx 1 0x11C2 x 7 02 40 00 03 00 7D 00 
15:25:42:9420 Rx 1 0x1403 x 7 00 80 00 05 00 7D 00 
15:25:42:9422 Rx 1 0x1442 x 7 00 80 00 05 00 7D 00 
15:25:42:9462 Rx 1 0x702 s 8 62 00 00 00 00 00 00 B0 
15:25:42:9464 Rx 1 0x703 s 8 3C 7A F0 18 00 00 72 79 
15:25:42:9466 Rx 1 0x704 s 7 95 82 D8 98 83 22 22 
15:25:42:9469 Rx 1 0x705 s 8 86 A3 38 88 03 7D 00 00 
15:25:42:9471 Rx 1 0x706 s 8 1A C0 01 1A 00 7D 00 00 
15:25:42:9562 Rx 1 0x703 s 8 3C 7A F4 20 36 33 89 30 
15:25:42:9564 Rx 1 0x702 s 8 62 00 00 00 00 00 00 B0 
15:25:42:9566 Rx 1 0x704 s 7 95 82 D8 98 83 22 22 
15:25:42:9568 Rx 1 0x705 s 8 86 A3 38 88 03 7D 00 00 
15:25:42:9571 Rx 1 0x706 s 8 1A C0 01 1A 00 7D 00 00 
15:25:42:9661 Rx 1 0x703 s 8 3D 7A F4 28 A5 71 5D 05 
15:25:42:9664 Rx 1 0x702 s 8 62 00 00 00 00 00 00 B0 
15:25:42:9666 Rx 1 0x704 s 7 95 82 D8 98 83 22 22 
15:25:42:9668 Rx 1 0x705 s 8 86 A3 38 88 03 7D 00 00 
15:25:42:9671 Rx 1 0x706 s 8 1A C0 01 1A 00 7D 00 00 
15:25:42:9762 Rx 1 0x702 s 8 62 00 00 00 00 00 00 B0 
15:25:42:9764 Rx 1 0x703 s 8 3D 7A F4 30 D0 07 E5 DF 
15:25:42:9766 Rx 1 0x704 s 7 95 82 D8 98 83 22 22 
15:25:42:9769 Rx 1 0x705 s 8 86 A3 38 88 03 7D 00 00 
15:25:42:9771 Rx 1 0x706 s 8 1A C0 01 1A 00 7D 00 00 
15:25:42:9862 Rx 1 0x702 s 8 62 00 00 00 00 00 00 B0 
15:25:42:9864 Rx 1 0x703 s 8 3D 7A F4 38 DA 07 13 38 
15:25:42:9866 Rx 1 0x704 s 7 95 82 D8 98 83 22 22 
15:25:42:9869 Rx 1 0x705 s 8 88 A3 38 88 03 7D 00 00 
15:25:42:9871 Rx 1 0x706 s 8 1A C0 01 1A 00 7D 00 00 
15:25:42:9962 Rx 1 0x702 s 8 62 00 00 00 00 00 00 B0 
15:25:42:9964 Rx 1 0x703 s 8 3D 7C F4 00 30 2E 2F 2F 
15:25:42:9966 Rx 1 0x704 s 7 95 82 D8 98 83 22 22 
15:25:42:9969 Rx 1 0x705 s 8 86 A3 38 88 03 7D 00 00 
15:25:42:9971 Rx 1 0x706 s 8 1A C0 01 1A 00 7D 00 00 
15:25:43:0062 Rx 1 0x702 s 8 62 00 00 00 00 00 00 B0 
15:25:43:0064 Rx 1 0x703 s 8 3D 7C F8 08 2F 2F 00 40 
15:25:43:0066 Rx 1 0x704 s 7 95 82 D8 98 83 22 22 
15:25:43:0068 Rx 1 0x705 s 8 86 A3 38 88 03 7D 00 00 
15:25:43:0071 Rx 1 0x706 s 8 1A C0 01 1A 00 7D 00 00 
15:25:43:0162 Rx 1 0x702 s 8 62 00 00 00 00 00 00 B0 
15:25:43:0164 Rx 1 0x703 s 8 3E 7C F8 10 00 00 7D 00 
15:25:43:0167 Rx 1 0x704 s 7 95 82 D8 98 83 22 22 
15:25:43:0169 Rx 1 0x705 s 8 86 A3 38 88 03 7D 00 00 
15:25:43:0171 Rx 1 0x706 s 8 1A C0 01 1A 00 7D 00 00 
15:25:43:0262 Rx 1 0x703 s 8 3E 7C F8 18 00 00 72 79 
15:25:43:0264 Rx 1 0x702 s 8 62 00 00 00 00 00 00 B0 
15:25:43:0266 Rx 1 0x704 s 7 95 82 D8 98 82 22 22 
15:25:43:0269 Rx 1 0x705 s 8 86 A3 38 88 03 7D 00 00 
15:25:43:0271 Rx 1 0x706 s 8 1A C0 01 1A 00 7D 00 00 
15:25:43:0362 Rx 1 0x703 s 8 3E 7C F8 20 36 33 89 30 
15:25:43:0364 Rx 1 0x702 s 8 62 00 00 00 00 00 00 B0 
15:25:43:0366 Rx 1 0x704 s 7 95 82 D8 98 83 22 22 
15:25:43:0369 Rx 1 0x705 s 8 86 A3 38 88 03 7D 00 00 
15:25:43:0371 Rx 1 0x706 s 8 1A C0 01 1A 00 7D 00 00 
15:25:43:0393 Rx 1 0x1043 x 7 03 2D 2D 2B 2B 31 00 
15:25:43:0396 Rx 1 0x1002 x 8 0F 3E 00 A0 6F 00 00 00 
15:25:43:0398 Rx 1 0x1003 x 8 0F 3E 00 40 6F 00 00 00 
15:25:43:0401 Rx 1 0x1042 x 7 03 2C 2C 28 28 30 00 
15:25:43:0404 Rx 1 0x1083 x 7 01 40 00 02 00 7D 00 
15:25:43:0406 Rx 1 0x10C3 x 7 00 10 00 00 00 7D 00 
15:25:43:0409 Rx 1 0x1103 x 7 01 30 00 01 00 7D 00 
15:25:43:0412 Rx 1 0x1142 x 7 03 40 00 04 00 7D 00 
15:25:43:0415 Rx 1 0x1182 x 7 00 10 00 00 00 7D 00 
15:25:43:0417 Rx 1 0x11C2 x 7 01 40 00 02 00 7D 00 
15:25:43:0420 Rx 1 0x1403 x 7 00 80 00 05 00 7D 00 
15:25:43:0423 Rx 1 0x1442 x 7 00 80 00 05 00 7D 00 
15:25:43:0462 Rx 1 0x702 s 8 62 00 00 00 00 00 00 B0 
15:25:43:0464 Rx 1 0x703 s 8 3E 7C F8 28 A5 71 5D 05 
15:25:43:0466 Rx 1 0x704 s 7 95 82 D8 98 83 22 22 
15:25:43:0469 Rx 1 0x705 s 8 86 A3 38 88 03 7D 00 00 
15:25:43:0471 Rx 1 0x706 s 8 1A C0 01 1A 00 7D 00 00 
15:25:43:0562 Rx 1 0x702 s 8 62 00 00 00 00 00 00 B0 
15:25:43:0564 Rx 1 0x703 s 8 3E 7C F8 30 D0 07 E5 DF 
15:25:43:0566 Rx 1 0x704 s 7 95 82 D8 98 83 22 22 
15:25:43:0569 Rx 1 0x705 s 8 86 A3 38 88 03 7D 00 00 
15:25:43:0571 Rx 1 0x706 s 8 1A C0 01 1A 00 7D 00 00 
15:25:43:0662 Rx 1 0x702 s 8 62 00 00 00 00 00 00 B0 
15:25:43:0664 Rx 1 0x703 s 8 3E 7E F8 38 DA 07 13 38 
15:25:43:0667 Rx 1 0x704 s 7 95 82 D8 98 83 22 22 
15:25:43:0669 Rx 1 0x705 s 8 86 A3 38 88 03 7D 00 00 
15:25:43:0671 Rx 1 0x706 s 8 1A C0 01 1A 00 7D 00 00 
15:25:43:0762 Rx 1 0x702 s 8 62 00 00 00 00 00 00 B0 
15:25:43:0765 Rx 1 0x703 s 8 3E 7E FC 00 30 2E 2F 2F 
15:25:43:0767 Rx 1 0x704 s 7 95 82 D8 98 83 22 22 
15:25:43:0769 Rx 1 0x705 s 8 86 A3 38 88 03 7D 00 00 
15:25:43:0771 Rx 1 0x706 s 8 1A C0 01 1A 00 7D 00 00 
15:25:43:0862 Rx 1 0x703 s 8 3F 7E FC 08 2F 2F 00 40 
15:25:43:0864 Rx 1 0x702 s 8 62 00 00 00 00 00 00 B0 
15:25:43:0866 Rx 1 0x704 s 7 95 82 D8 98 83 22 22 
15:25:43:0869 Rx 1 0x705 s 8 86 A3 38 88 03 7D 00 00 
15:25:43:0871 Rx 1 0x706 s 8 1A C0 01 1A 00 7D 00 00 
15:25:43:0962 Rx 1 0x702 s 8 62 00 00 00 00 00 00 B0 
15:25:43:0964 Rx 1 0x703 s 8 3F 7E FC 10 00 00 7D 00 
15:25:43:0966 Rx 1 0x704 s 7 95 82 D8 98 83 22 22 
15:25:43:0969 Rx 1 0x705 s 8 86 A3 38 88 03 7D 00 00 
15:25:43:0971 Rx 1 0x706 s 8 1A C0 01 1A 00 7D 00 00 
15:25:43:1062 Rx 1 0x702 s 8 62 00 00 00 00 00 00 B0 
15:25:43:1065 Rx 1 0x703 s 8 3F 7E FC 18 00 00 72 79 
15:25:43:1067 Rx 1 0x704 s 7 95 82 D8 98 83 22 22 
15:25:43:1069 Rx 1 0x705 s 8 86 A3 38 88 03 7D 00 00 
15:25:43:1071 Rx 1 0x706 s 8 1A C0 01 1A 00 7D 00 00 
15:25:43:1162 Rx 1 0x703 s 8 3F 7E FC 20 36 33 89 30 
15:25:43:1164 Rx 1 0x702 s 8 62 00 00 00 00 00 00 B0 
15:25:43:1166 Rx 1 0x704 s 7 95 82 D8 98 82 22 22 
15:25:43:1169 Rx 1 0x705 s 8 86 A3 38 88 03 7D 00 00 
15:25:43:1171 Rx 1 0x706 s 8 1A C0 01 1A 00 7D 00 00 
15:25:43:1262 Rx 1 0x703 s 8 3F 7E FC 28 A5 71 5D 05 
15:25:43:1264 Rx 1 0x702 s 8 62 00 00 00 00 00 00 B0 
15:25:43:1266 Rx 1 0x704 s 7 95 82 D8 98 83 22 22 
15:25:43:1269 Rx 1 0x705 s 8 86 A3 38 88 03 7D 00 00 
15:25:43:1271 Rx 1 0x706 s 8 18 C0 01 1A 00 7D 00 00 
15:25:43:1362 Rx 1 0x702 s 8 62 00 00 00 00 00 00 B0 
15:25:43:1364 Rx 1 0x703 s 8 3F 80 FC 30 D0 07 E5 DF 
15:25:43:1366 Rx 1 0x704 s 7 95 82 D8 98 83 22 22 
15:25:43:1369 Rx 1 0x705 s 8 88 A3 38 88 03 7D 00 00 
15:25:43:1371 Rx 1 0x706 s 8 1A C0 01 1A 00 7D 00 00 
15:25:43:1392 Rx 1 0x1043 x 7 04 E8 03 86 96 BE 32 
15:25:43:1395 Rx 1 0x1002 x 8 0F 3E 00 60 6F 00 00 00 
15:25:43:1398 Rx 1 0x1003 x 8 0F 3E 00 00 6F 00 00 00 
15:25:43:1401 Rx 1 0x1042 x 7 04 E8 03 5C 76 BE 32 
15:25:43:1404 Rx 1 0x1083 x 7 01 40 00 02 00 7D 00 
15:25:43:1406 Rx 1 0x10C3 x 7 00 10 00 00 00 7D 00 
15:25:43:1409 Rx 1 0x1103 x 7 01 30 00 01 00 7D 00 
15:25:43:1412 Rx 1 0x1142 x 7 03 40 00 04 00 7D 00 
15:25:43:1414 Rx 1 0x1182 x 7 00 10 00 00 00 7D 00 
15:25:43:1417 Rx 1 0x11C2 x 7 01 30 00 02 00 7D 00 
15:25:43:1420 Rx 1 0x1403 x 7 00 80 00 05 00 7D 00 
15:25:43:1423 Rx 1 0x1442 x 7 00 80 00 05 00 7D 00 
15:25:43:1462 Rx 1 0x702 s 8 62 00 00 00 00 00 00 B0 
15:25:43:1464 Rx 1 0x703 s 8 3F 80 FC 38 DA 07 13 38 
15:25:43:1467 Rx 1 0x704 s 7 95 82 D8 98 82 22 22 
15:25:43:1469 Rx 1 0x705 s 8 86 A3 38 88 03 7D 00 00 
15:25:43:1471 Rx 1 0x706 s 8 1A C0 01 1A 00 7D 00 00 
15:25:43:1562 Rx 1 0x702 s 8 62 00 00 00 00 00 00 B0 
15:25:43:1565 Rx 1 0x703 s 8 3F 80 00 01 30 2E 2F 2F 
15:25:43:1567 Rx 1 0x704 s 7 95 82 D8 98 83 22 22 
15:25:43:1569 Rx 1 0x705 s 8 86 A3 38 88 03 7D 00 00 
15:25:43:1571 Rx 1 0x706 s 8 1A C0 01 1A 00 7D 00 00 
15:25:43:1662 Rx 1 0x703 s 8 40 80 00 09 2F 2F 00 40 
15:25:43:1664 Rx 1 0x702 s 8 62 00 00 00 00 00 00 B0 
15:25:43:1666 Rx 1 0x704 s 7 95 82 D8 98 83 22 22 
15:25:43:1669 Rx 1 0x705 s 8 86 A3 38 88 03 7D 00 00 
15:25:43:1671 Rx 1 0x706 s 8 1A C0 01 1A 00 7D 00 00 
15:25:43:1762 Rx 1 0x702 s 8 62 00 00 00 00 00 00 B0 
15:25:43:1764 Rx 1 0x703 s 8 40 80 00 11 00 00 7D 00 
15:25:43:1766 Rx 1 0x704 s 7 95 82 D8 98 83 22 22 
15:25:43:1769 Rx 1 0x705 s 8 86 A3 38 88 03 7D 00 00 
15:25:43:1771 Rx 1 0x706 s 8 1A C0 01 1A 00 7D 00 00 
15:25:43:1862 Rx 1 0x702 s 8 62 00 00 00 00 00 00 B0 
15:25:43:1865 Rx 1 0x703 s 8 40 80 00 19 00 00 72 79 
15:25:43:1867 Rx 1 0x704 s 7 95 82 D8 98 83 22 22 
15:25:43:1869 Rx 1 0x705 s 8 86 A3 38 88 03 7D 00 00 
15:25:43:1871 Rx 1 0x706 s 8 1A C0 01 1A 00 7D 00 00 
15:25:43:1962 Rx 1 0x703 s 8 40 80 00 21 36 33 89 30 
15:25:43:1964 Rx 1 0x702 s 8 62 00 00 00 00 00 00 B0 
15:25:43:1966 Rx 1 0x704 s 7 95 82 D8 98 83 22 22 
15:25:43:1969 Rx 1 0x705 s 8 86 A3 38 88 03 7D 00 00 
15:25:43:1971 Rx 1 0x706 s 8 1A C0 01 1A 00 7D 00 00 
15:25:43:2062 Rx 1 0x703 s 8 40 80 00 29 A5 71 5D 05 
15:25:43:2064 Rx 1 0x702 s 8 62 00 00 00 00 00 00 B0 
15:25:43:2066 Rx 1 0x704 s 7 95 82 D8 98 83 22 22 
15:25:43:2069 Rx 1 0x705 s 8 86 A3 38 88 03 7D 00 00 
15:25:43:2071 Rx 1 0x706 s 8 1A C0 01 1A 00 7D 00 00 
15:25:43:2162 Rx 1 0x702 s 8 62 00 00 00 00 00 00 B0 
15:25:43:2164 Rx 1 0x703 s 8 40 82 00 31 D0 07 E5 DF 
15:25:43:2166 Rx 1 0x704 s 7 95 82 D8 98 83 22 22 
15:25:43:2169 Rx 1 0x705 s 8 86 A3 38 88 03 7D 00 00 
15:25:43:2171 Rx 1 0x706 s 8 1A C0 01 1A 00 7D 00 00 
15:25:43:2262 Rx 1 0x702 s 8 62 00 00 00 00 00 00 B0 
15:25:43:2264 Rx 1 0x703 s 8 40 82 04 39 DA 07 13 38 
15:25:43:2267 Rx 1 0x704 s 7 95 82 D8 98 83 22 22 
15:25:43:2269 Rx 1 0x705 s 8 86 A3 38 88 03 7D 00 00 
15:25:43:2271 Rx 1 0x706 s 8 1A C0 01 1A 00 7D 00 00 
15:25:43:2362 Rx 1 0x702 s 8 62 00 00 00 00 00 00 B0 
15:25:43:2365 Rx 1 0x703 s 8 41 82 04 01 30 2E 2F 2F 
15:25:43:2367 Rx 1 0x704 s 7 95 82 D8 98 82 22 22 
15:25:43:2369 Rx 1 0x705 s 8 86 A3 38 88 03 7D 00 00 
15:25:43:2372 Rx 1 0x706 s 8 1A C0 01 1A 00 7D 00 00 
15:25:43:2392 Rx 1 0x1043 x 7 05 E9 03 D5 28 85 34 
15:25:43:2395 Rx 1 0x1002 x 8 0F 3E 00 80 5F 00 00 00 
15:25:43:2398 Rx 1 0x1003 x 8 0F 3E 00 20 5F 00 00 00 
15:25:43:2401 Rx 1 0x1042 x 7 05 E9 03 D5 28 85 34 
15:25:43:2404 Rx 1 0x1083 x 7 01 40 00 02 00 7D 00 
15:25:43:2406 Rx 1 0x10C3 x 7 00 10 00 00 00 7D 00 
15:25:43:2409 Rx 1 0x1103 x 7 01 30 00 01 00 7D 00 
15:25:43:2412 Rx 1 0x1142 x 7 03 40 00 04 00 7D 00 
15:25:43:2415 Rx 1 0x1182 x 7 00 10 00 00 00 7D 00 
15:25:43:2417 Rx 1 0x11C2 x 7 01 30 00 02 00 7D 00 
15:25:43:2420 Rx 1 0x1403 x 7 00 80 00 05 00 7D 00 
15:25:43:2423 Rx 1 0x1442 x 7 00 80 00 05 00 7D 00 
15:25:43:2462 Rx 1 0x703 s 8 41 82 04 09 2F 2E 00 40 
15:25:43:2464 Rx 1 0x702 s 8 62 00 00 00 00 00 00 B0 
15:25:43:2466 Rx 1 0x704 s 7 95 82 D8 98 83 22 22 
15:25:43:2469 Rx 1 0x705 s 8 86 A3 38 88 03 7D 00 00 
15:25:43:2471 Rx 1 0x706 s 8 1A C0 01 1A 00 7D 00 00 
15:25:43:2562 Rx 1 0x702 s 8 62 00 00 00 00 00 00 B0 
15:25:43:2564 Rx 1 0x703 s 8 41 82 04 11 00 00 7D 00 
15:25:43:2566 Rx 1 0x704 s 7 95 82 D8 98 83 22 22 
15:25:43:2569 Rx 1 0x705 s 8 86 A3 38 88 03 7D 00 00 
15:25:43:2571 Rx 1 0x706 s 8 1A C0 01 1A 00 7D 00 00 
15:25:43:2662 Rx 1 0x702 s 8 62 00 00 00 00 00 00 B0 
15:25:43:2665 Rx 1 0x703 s 8 41 82 04 19 00 00 72 79 
15:25:43:2667 Rx 1 0x704 s 7 95 82 D8 98 83 22 22 
15:25:43:2669 Rx 1 0x705 s 8 86 A3 38 88 03 7D 00 00 
15:25:43:2671 Rx 1 0x706 s 8 1A C0 01 1A 00 7D 00 00 
15:25:43:2762 Rx 1 0x702 s 8 62 00 00 00 00 00 00 B0 
15:25:43:2764 Rx 1 0x703 s 8 41 82 04 21 36 33 89 30 
15:25:43:2767 Rx 1 0x704 s 7 95 82 D8 98 83 22 22 
15:25:43:2769 Rx 1 0x705 s 8 86 A3 38 88 03 7D 00 00 
15:25:43:2771 Rx 1 0x706 s 8 1A C0 01 1A 00 7D 00 00 
15:25:43:2862 Rx 1 0x703 s 8 41 82 04 29 A5 71 5D 05 
15:25:43:2864 Rx 1 0x702 s 8 62 00 00 00 00 00 00 B0 
15:25:43:2866 Rx 1 0x704 s 7 95 82 D8 98 83 22 22 
15:25:43:2869 Rx 1 0x705 s 8 86 A3 38 88 03 7D 00 00 
15:25:43:2871 Rx 1 0x706 s 8 1A C0 01 1A 00 7D 00 00 
15:25:43:2962 Rx 1 0x703 s 8 41 84 04 31 D0 07 E5 DF 
15:25:43:2964 Rx 1 0x702 s 8 62 00 00 00 00 00 00 B0 
15:25:43:2966 Rx 1 0x704 s 7 95 82 D8 98 83 22 22 
15:25:43:2969 Rx 1 0x705 s 8 86 A3 38 88 03 7D 00 00 
15:25:43:2971 Rx 1 0x706 s 8 1A C0 01 1A 00 7D 00 00 
15:25:43:3062 Rx 1 0x702 s 8 62 00 00 00 00 00 00 B0 
15:25:43:3064 Rx 1 0x703 s 8 41 84 08 39 DA 07 13 38 
15:25:43:3067 Rx 1 0x704 s 7 95 82 D8 98 83 22 22 
15:25:43:3069 Rx 1 0x705 s 8 86 A3 38 88 03 7D 00 00 
15:25:43:3071 Rx 1 0x706 s 8 1A C0 01 1A 00 7D 00 00 
15:25:43:3162 Rx 1 0x702 s 8 62 00 00 00 00 00 00 B0 
15:25:43:3164 Rx 1 0x703 s 8 42 84 08 01 30 2E 2F 2F 
15:25:43:3166 Rx 1 0x704 s 7 95 82 D8 98 83 22 22 
15:25:43:3169 Rx 1 0x705 s 8 86 A3 38 88 03 7D 00 00 
15:25:43:3171 Rx 1 0x706 s 8 1A C0 01 1A 00 7D 00 00 
15:25:43:3262 Rx 1 0x703 s 8 42 84 08 09 2F 2F 00 40 
15:25:43:3264 Rx 1 0x702 s 8 62 00 00 00 00 00 00 B0 
15:25:43:3266 Rx 1 0x704 s 7 95 82 D8 98 83 22 22 
15:25:43:3269 Rx 1 0x705 s 8 86 A3 38 88 03 7D 00 00 
15:25:43:3271 Rx 1 0x706 s 8 1A C0 01 1A 00 7D 00 00 
15:25:43:3362 Rx 1 0x702 s 8 62 00 00 00 00 00 00 B0 
15:25:43:3364 Rx 1 0x703 s 8 42 84 08 11 00 00 7D 00 
15:25:43:3367 Rx 1 0x704 s 7 95 82 D8 98 82 22 22 
15:25:43:3369 Rx 1 0x705 s 8 86 A3 38 88 03 7D 00 00 
15:25:43:3371 Rx 1 0x706 s 8 1A C0 01 1A 00 7D 00 00 
15:25:43:3393 Rx 1 0x1003 x 8 0F 3E 00 40 6F 00 00 00 
15:25:43:3396 Rx 1 0x1002 x 8 0F 3E 00 A0 6F 00 00 00 
15:25:43:3399 Rx 1 0x1042 x 7 06 31 7E C1 64 25 0B 
15:25:43:3401 Rx 1 0x1043 x 7 06 31 7E FF FF FF FF 
15:25:43:3404 Rx 1 0x1083 x 7 01 40 00 02 00 7D 00 
15:25:43:3407 Rx 1 0x10C3 x 7 00 10 00 00 00 7D 00 
15:25:43:3409 Rx 1 0x1103 x 7 01 40 00 02 00 7D 00 
15:25:43:3412 Rx 1 0x1142 x 7 03 40 00 04 00 7D 00 
15:25:43:3415 Rx 1 0x1182 x 7 00 10 00 00 00 7D 00 
15:25:43:3418 Rx 1 0x11C2 x 7 01 30 00 02 00 7D 00 
15:25:43:3420 Rx 1 0x1403 x 7 00 80 00 05 00 7D 00 
15:25:43:3423 Rx 1 0x1442 x 7 00 80 00 05 00 7D 00 
15:25:43:3462 Rx 1 0x702 s 8 62 00 00 00 00 00 00 B0 
15:25:43:3465 Rx 1 0x703 s 8 42 84 08 19 00 00 72 79 
15:25:43:3467 Rx 1 0x704 s 7 95 82 D8 98 83 22 22 
15:25:43:3469 Rx 1 0x705 s 8 86 A3 38 88 03 7D 00 00 
15:25:43:3471 Rx 1 0x706 s 8 1A C0 01 1A 00 7D 00 00 
15:25:43:3562 Rx 1 0x702 s 8 62 00 00 00 00 00 00 B0 
15:25:43:3564 Rx 1 0x703 s 8 42 84 08 21 36 33 89 30 
15:25:43:3567 Rx 1 0x704 s 7 95 82 D8 98 83 22 22 
15:25:43:3569 Rx 1 0x705 s 8 86 A3 38 88 03 7D 00 00 
15:25:43:3571 Rx 1 0x706 s 8 1A C0 01 1A 00 7D 00 00 
15:25:43:3662 Rx 1 0x703 s 8 42 84 08 29 A5 71 5D 05 
15:25:43:3664 Rx 1 0x702 s 8 62 00 00 00 00 00 00 B0 
15:25:43:3666 Rx 1 0x704 s 7 95 82 D8 98 83 22 22 
15:25:43:3669 Rx 1 0x705 s 8 88 A3 38 88 03 7D 00 00 
15:25:43:3671 Rx 1 0x706 s 8 1A C0 01 1A 00 7D 00 00 
15:25:43:3762 Rx 1 0x703 s 8 42 86 08 31 D0 07 E5 DF 
15:25:43:3764 Rx 1 0x702 s 8 62 00 00 00 00 00 00 B0 
15:25:43:3766 Rx 1 0x704 s 7 95 82 D8 98 83 22 22 
15:25:43:3769 Rx 1 0x705 s 8 86 A3 38 88 03 7D 00 00 
15:25:43:3771 Rx 1 0x706 s 8 1A C0 01 1A 00 7D 00 00 
15:25:43:3862 Rx 1 0x702 s 8 62 00 00 00 00 00 00 B0 
15:25:43:3864 Rx 1 0x703 s 8 42 86 0C 39 DA 07 13 38 
15:25:43:3867 Rx 1 0x704 s 7 95 82 D8 98 83 22 22 
15:25:43:3869 Rx 1 0x705 s 8 86 A3 38 88 03 7D 00 00 
15:25:43:3871 Rx 1 0x706 s 8 1A C0 01 1A 00 7D 00 00 
15:25:43:3962 Rx 1 0x702 s 8 62 00 00 00 00 00 00 B0 
15:25:43:3964 Rx 1 0x703 s 8 42 86 0C 01 30 2E 2F 2F 
15:25:43:3966 Rx 1 0x704 s 7 95 82 D8 98 83 22 22 
15:25:43:3969 Rx 1 0x705 s 8 86 A3 38 88 03 7D 00 00 
15:25:43:3971 Rx 1 0x706 s 8 1A C0 01 1A 00 7D 00 00 
15:25:43:4062 Rx 1 0x702 s 8 62 00 00 00 00 00 00 B0 
15:25:43:4065 Rx 1 0x703 s 8 43 86 0C 09 2F 2F 00 40 
15:25:43:4067 Rx 1 0x704 s 7 95 82 D8 98 83 22 22 
15:25:43:4069 Rx 1 0x705 s 8 86 A3 38 88 03 7D 00 00 
15:25:43:4071 Rx 1 0x706 s 8 1A C0 01 1A 00 7D 00 00 
15:25:43:4162 Rx 1 0x702 s 8 62 00 00 00 00 00 00 B0 
15:25:43:4164 Rx 1 0x703 s 8 43 86 0C 11 00 00 7D 00 
15:25:43:4167 Rx 1 0x704 s 7 95 82 D8 98 83 22 22 
15:25:43:4169 Rx 1 0x705 s 8 86 A3 38 88 03 7D 00 00 
15:25:43:4171 Rx 1 0x706 s 8 1A C0 01 1A 00 7D 00 00 
15:25:43:4262 Rx 1 0x702 s 8 62 00 00 00 00 00 00 B0 
15:25:43:4265 Rx 1 0x703 s 8 43 86 0C 19 00 00 72 79 
15:25:43:4267 Rx 1 0x704 s 7 95 82 D8 98 83 22 22 
15:25:43:4269 Rx 1 0x705 s 8 86 A3 38 88 03 7D 00 00 
15:25:43:4271 Rx 1 0x706 s 8 1A C0 01 1A 00 7D 00 00 
15:25:43:4362 Rx 1 0x702 s 8 62 00 00 00 00 00 00 B0 
15:25:43:4364 Rx 1 0x703 s 8 43 86 0C 21 36 33 89 30 
15:25:43:4367 Rx 1 0x704 s 7 95 82 D8 98 83 22 22 
15:25:43:4369 Rx 1 0x705 s 8 86 A3 38 88 03 7D 00 00 
15:25:43:4371 Rx 1 0x706 s 8 1A C0 01 1A 00 7D 00 00 
15:25:43:4393 Rx 1 0x1003 x 8 0F 3E 00 00 6F 00 00 00 
15:25:43:4396 Rx 1 0x1002 x 8 0F 3E 00 60 6F 00 00 00 
15:25:43:4399 Rx 1 0x1042 x 7 07 00 00 00 00 00 00 
15:25:43:4401 Rx 1 0x1043 x 7 07 00 00 00 00 00 00 
15:25:43:4404 Rx 1 0x1083 x 7 01 40 00 02 00 7D 00 
15:25:43:4407 Rx 1 0x10C3 x 7 00 10 00 00 00 7D 00 
15:25:43:4409 Rx 1 0x1103 x 7 01 40 00 02 00 7D 00 
15:25:43:4412 Rx 1 0x1142 x 7 03 40 00 04 00 7D 00 
15:25:43:4415 Rx 1 0x1182 x 7 00 10 00 00 00 7D 00 
15:25:43:4418 Rx 1 0x11C2 x 7 01 30 00 02 00 7D 00 
15:25:43:4420 Rx 1 0x1403 x 7 00 80 00 05 00 7D 00 
15:25:43:4423 Rx 1 0x1442 x 7 00 80 00 05 00 7D 00 
15:25:43:4462 Rx 1 0x703 s 8 43 86 0C 29 A5 71 5D 05 
15:25:43:4464 Rx 1 0x702 s 8 62 00 00 00 00 00 00 B0 
15:25:43:4466 Rx 1 0x704 s 7 95 82 D8 98 83 22 22 
15:25:43:4469 Rx 1 0x705 s 8 86 A3 38 88 03 7D 00 00 
15:25:43:4471 Rx 1 0x706 s 8 1A C0 01 1A 00 7D 00 00 
15:25:43:4562 Rx 1 0x703 s 8 43 88 0C 31 D0 07 E5 DF 
15:25:43:4564 Rx 1 0x702 s 8 62 00 00 00 00 00 00 B0 
15:25:43:4566 Rx 1 0x704 s 7 95 82 D8 98 83 22 22 
15:25:43:4569 Rx 1 0x705 s 8 86 A3 38 88 03 7D 00 00 
15:25:43:4571 Rx 1 0x706 s 8 1A C0 01 1A 00 7D 00 00 
15:25:43:4662 Rx 1 0x702 s 8 62 00 00 00 00 00 00 B0 
15:25:43:4664 Rx 1 0x703 s 8 43 88 0C 39 DA 07 13 38 
15:25:43:4667 Rx 1 0x704 s 7 95 82 D8 98 83 22 22 
15:25:43:4669 Rx 1 0x705 s 8 86 A3 38 88 03 7D 00 00 
15:25:43:4671 Rx 1 0x706 s 8 1A C0 01 1A 00 7D 00 00 
15:25:43:4762 Rx 1 0x702 s 8 62 00 00 00 00 00 00 B0 
15:25:43:4764 Rx 1 0x703 s 8 43 88 10 01 30 2E 2F 2F 
15:25:43:4766 Rx 1 0x704 s 7 95 82 D8 98 83 22 22 
15:25:43:4769 Rx 1 0x705 s 8 86 A3 38 88 03 7D 00 00 
15:25:43:4771 Rx 1 0x706 s 8 1A C0 01 1A 00 7D 00 00 
15:25:43:4862 Rx 1 0x702 s 8 62 00 00 00 00 00 00 B0 
15:25:43:4865 Rx 1 0x703 s 8 44 88 10 09 2F 2E 00 40 
15:25:43:4867 Rx 1 0x704 s 7 95 82 D8 98 83 22 22 
15:25:43:4869 Rx 1 0x705 s 8 86 A3 38 88 03 7D 00 00 
15:25:43:4871 Rx 1 0x706 s 8 1A C0 01 1A 00 7D 00 00 
15:25:43:4962 Rx 1 0x703 s 8 44 88 10 11 00 00 7D 00 
15:25:43:4964 Rx 1 0x702 s 8 62 00 00 00 00 00 00 B0 
15:25:43:4967 Rx 1 0x704 s 7 95 82 D8 98 83 22 22 
15:25:43:4969 Rx 1 0x705 s 8 86 A3 38 88 03 7D 00 00 
15:25:43:4971 Rx 1 0x706 s 8 1A C0 01 1A 00 7D 00 00 
15:25:43:5062 Rx 1 0x702 s 8 62 00 00 00 00 00 00 B0 
15:25:43:5064 Rx 1 0x703 s 8 44 88 10 19 00 00 72 79 
15:25:43:5066 Rx 1 0x704 s 7 95 82 D8 98 83 22 22 
15:25:43:5069 Rx 1 0x705 s 8 86 A3 38 88 03 7D 00 00 
15:25:43:5071 Rx 1 0x706 s 8 1A C0 01 1A 00 7D 00 00 
15:25:43:5162 Rx 1 0x702 s 8 62 00 00 00 00 00 00 B0 
15:25:43:5164 Rx 1 0x703 s 8 44 88 10 21 36 33 89 30 
15:25:43:5167 Rx 1 0x704 s 7 95 82 D8 98 83 22 22 
15:25:43:5169 Rx 1 0x705 s 8 86 A3 38 88 03 7D 00 00 
15:25:43:5171 Rx 1 0x706 s 8 1A C0 01 1A 00 7D 00 00 
15:25:43:5262 Rx 1 0x702 s 8 62 00 00 00 00 00 00 B0 
15:25:43:5265 Rx 1 0x703 s 8 44 88 10 29 A5 71 5D 05 
15:25:43:5267 Rx 1 0x704 s 7 95 82 D8 98 83 22 22 
15:25:43:5269 Rx 1 0x705 s 8 86 A3 38 88 03 7D 00 00 
15:25:43:5272 Rx 1 0x706 s 8 1A C0 01 1A 00 7D 00 00 
15:25:43:5362 Rx 1 0x703 s 8 44 88 10 31 D0 07 E5 DF 
15:25:43:5364 Rx 1 0x702 s 8 62 00 00 00 00 00 00 B0 
15:25:43:5366 Rx 1 0x704 s 7 95 82 D8 98 82 22 22 
15:25:43:5369 Rx 1 0x705 s 8 86 A3 38 88 03 7D 00 00 
15:25:43:5371 Rx 1 0x706 s 8 1A C0 01 1A 00 7D 00 00 
15:25:43:5393 Rx 1 0x1043 x 7 08 65 64 63 63 64 64 
15:25:43:5396 Rx 1 0x1002 x 8 0F 3E 00 80 5F 00 00 00 
15:25:43:5399 Rx 1 0x1003 x 8 0F 3E 00 20 5F 00 00 00 
15:25:43:5401 Rx 1 0x1042 x 7 08 65 64 63 63 63 64 
15:25:43:5404 Rx 1 0x1083 x 7 00 40 00 02 00 7D 00 
15:25:43:5407 Rx 1 0x10C3 x 7 00 10 00 00 00 7D 00 
15:25:43:5409 Rx 1 0x1103 x 7 01 40 00 03 00 7D 00 
15:25:43:5412 Rx 1 0x1142 x 7 03 40 00 04 00 7D 00 
15:25:43:5415 Rx 1 0x1182 x 7 00 10 00 00 00 7D 00 
15:25:43:5418 Rx 1 0x11C2 x 7 01 40 00 02 00 7D 00 
15:25:43:5420 Rx 1 0x1403 x 7 00 80 00 05 00 7D 00 
15:25:43:5423 Rx 1 0x1442 x 7 00 80 00 05 00 7D 00 
15:25:43:5462 Rx 1 0x703 s 8 44 8A 10 39 DA 07 13 38 
15:25:43:5464 Rx 1 0x702 s 8 62 00 00 00 00 00 00 B0 
15:25:43:5467 Rx 1 0x704 s 7 95 82 D8 98 83 22 22 
15:25:43:5469 Rx 1 0x705 s 8 86 A3 38 88 03 7D 00 00 
15:25:43:5471 Rx 1 0x706 s 8 1A C0 01 1A 00 7D 00 00 
15:25:43:5562 Rx 1 0x702 s 8 62 00 00 00 00 00 00 B0 
15:25:43:5564 Rx 1 0x703 s 8 44 8A 10 01 30 2E 2F 2F 
15:25:43:5566 Rx 1 0x704 s 7 95 82 D8 98 83 22 22 
15:25:43:5569 Rx 1 0x705 s 8 86 A3 38 88 03 7D 00 00 
15:25:43:5571 Rx 1 0x706 s 8 1A C0 01 1A 00 7D 00 00 
15:25:43:5662 Rx 1 0x702 s 8 62 00 00 00 00 00 00 B0 
15:25:43:5665 Rx 1 0x703 s 8 44 8A 14 09 2F 2F 00 40 
15:25:43:5667 Rx 1 0x704 s 7 95 82 D8 98 83 22 22 
15:25:43:5669 Rx 1 0x705 s 8 86 A3 38 88 03 7D 00 00 
15:25:43:5671 Rx 1 0x706 s 8 1A C0 01 1A 00 7D 00 00 
15:25:43:5762 Rx 1 0x703 s 8 45 8A 14 11 00 00 7D 00 
15:25:43:5764 Rx 1 0x702 s 8 62 00 00 00 00 00 00 B0 
15:25:43:5767 Rx 1 0x704 s 7 95 82 D8 98 83 22 22 
15:25:43:5769 Rx 1 0x705 s 8 86 A3 38 88 03 7D 00 00 
15:25:43:5771 Rx 1 0x706 s 8 1A C0 01 1A 00 7D 00 00 
15:25:43:5862 Rx 1 0x702 s 8 62 00 00 00 00 00 00 B0 
15:25:43:5864 Rx 1 0x703 s 8 45 8A 14 19 00 00 72 79 
15:25:43:5866 Rx 1 0x704 s 7 95 82 D8 98 83 22 22 
15:25:43:5869 Rx 1 0x705 s 8 86 A3 38 88 03 7D 00 00 
15:25:43:5871 Rx 1 0x706 s 8 1A C0 01 1A 00 7D 00 00 
15:25:43:5962 Rx 1 0x702 s 8 62 00 00 00 00 00 00 B0 
15:25:43:5964 Rx 1 0x703 s 8 45 8A 14 21 36 33 89 30 
15:25:43:5967 Rx 1 0x704 s 7 95 82 D8 98 83 22 22 
15:25:43:5969 Rx 1 0x705 s 8 86 A3 38 88 03 7D 00 00 
15:25:43:5971 Rx 1 0x706 s 8 1A C0 01 1A 00 7D 00 00 
15:25:43:6062 Rx 1 0x702 s 8 62 00 00 00 00 00 00 B0 
15:25:43:6064 Rx 1 0x703 s 8 45 8A 14 29 A5 71 5D 05 
15:25:43:6066 Rx 1 0x704 s 7 95 82 D8 98 83 22 22 
15:25:43:6069 Rx 1 0x705 s 8 86 A3 38 88 03 7D 00 00 
15:25:43:6072 Rx 1 0x706 s 8 1A C0 01 1A 00 7D 00 00 
15:25:43:6162 Rx 1 0x703 s 8 45 8A 14 31 D0 07 E5 DF 
15:25:43:6164 Rx 1 0x702 s 8 62 00 00 00 00 00 00 B0 
15:25:43:6166 Rx 1 0x704 s 7 95 82 D8 98 83 22 22 
15:25:43:6169 Rx 1 0x705 s 8 86 A3 38 88 03 7D 00 00 
15:25:43:6171 Rx 1 0x706 s 8 1A C0 01 1A 00 7D 00 00 
15:25:43:6262 Rx 1 0x703 s 8 45 8A 14 39 DA 07 13 38 
15:25:43:6264 Rx 1 0x702 s 8 62 00 00 00 00 00 00 B0 
15:25:43:6267 Rx 1 0x704 s 7 95 82 D8 98 83 22 22 
15:25:43:6269 Rx 1 0x705 s 8 86 A3 38 88 03 7D 00 00 
15:25:43:6271 Rx 1 0x706 s 8 1A C0 01 1A 00 7D 00 00 
15:25:43:6325 Rx 1 0x687 x 8 01 00 00 00 00 00 00 01 
15:25:43:6362 Rx 1 0x702 s 8 62 00 00 00 00 00 00 B0 
15:25:43:6364 Rx 1 0x703 s 8 45 8C 14 01 30 2E 2F 2F 
15:25:43:6366 Rx 1 0x704 s 7 95 82 D8 98 83 22 22 
15:25:43:6369 Rx 1 0x705 s 8 86 A3 38 88 03 7D 00 00 
15:25:43:6371 Rx 1 0x706 s 8 1A C0 01 1A 00 7D 00 00 
15:25:43:6393 Rx 1 0x1003 x 8 0F 3E 00 40 6F 00 00 00 
15:25:43:6396 Rx 1 0x1002 x 8 0F 3E 00 A0 6F 00 00 00 
15:25:43:6398 Rx 1 0x1042 x 7 09 64 64 00 00 00 00 
15:25:43:6401 Rx 1 0x1043 x 7 09 64 65 00 00 00 00 
15:25:43:6404 Rx 1 0x1083 x 7 00 40 00 02 00 7D 00 
15:25:43:6407 Rx 1 0x10C3 x 7 00 10 00 00 00 7D 00 
15:25:43:6409 Rx 1 0x1103 x 7 01 40 00 03 00 7D 00 
15:25:43:6412 Rx 1 0x1142 x 7 03 40 00 04 00 7D 00 
15:25:43:6415 Rx 1 0x1182 x 7 00 10 00 00 00 7D 00 
15:25:43:6418 Rx 1 0x11C2 x 7 01 40 00 02 00 7D 00 
15:25:43:6420 Rx 1 0x1403 x 7 00 80 00 05 00 7D 00 
15:25:43:6423 Rx 1 0x1442 x 7 00 80 00 05 00 7D 00 
15:25:43:6462 Rx 1 0x702 s 8 62 00 00 00 00 00 00 B0 
15:25:43:6465 Rx 1 0x703 s 8 45 8C 14 09 2F 2E 00 40 
15:25:43:6467 Rx 1 0x704 s 7 95 82 D8 98 83 22 22 
15:25:43:6469 Rx 1 0x705 s 8 86 A3 38 88 03 7D 00 00 
15:25:43:6471 Rx 1 0x706 s 8 1A C0 01 1A 00 7D 00 00 
15:25:43:6562 Rx 1 0x703 s 8 45 8C 18 11 00 00 7D 00 
15:25:43:6564 Rx 1 0x702 s 8 62 00 00 00 00 00 00 B0 
15:25:43:6567 Rx 1 0x704 s 7 95 82 D8 98 83 22 22 
15:25:43:6569 Rx 1 0x705 s 8 86 A3 38 88 03 7D 00 00 
15:25:43:6571 Rx 1 0x706 s 8 1A C0 01 1A 00 7D 00 00 
15:25:43:6655 Rx 1 0x687 x 8 02 00 00 00 00 00 00 00 
15:25:43:6662 Rx 1 0x702 s 8 62 00 00 00 00 00 00 B0 
15:25:43:6664 Rx 1 0x703 s 8 46 8C 18 19 00 00 72 79 
15:25:43:6666 Rx 1 0x704 s 7 95 82 D8 98 83 22 22 
15:25:43:6669 Rx 1 0x705 s 8 86 A3 38 88 03 7D 00 00 
15:25:43:6671 Rx 1 0x706 s 8 1A C0 01 1A 00 7D 00 00 
15:25:43:6762 Rx 1 0x702 s 8 62 00 00 00 00 00 00 B0 
15:25:43:6765 Rx 1 0x703 s 8 46 8C 18 21 36 33 89 30 
15:25:43:6767 Rx 1 0x704 s 7 95 82 D8 98 83 22 22 
15:25:43:6769 Rx 1 0x705 s 8 86 A3 38 88 03 7D 00 00 
15:25:43:6771 Rx 1 0x706 s 8 1A C0 01 1A 00 7D 00 00 
15:25:43:6862 Rx 1 0x702 s 8 62 00 00 00 00 00 00 B0 
15:25:43:6865 Rx 1 0x703 s 8 46 8C 18 29 A5 71 5D 05 
15:25:43:6867 Rx 1 0x704 s 7 95 82 D8 98 83 22 22 
15:25:43:6869 Rx 1 0x705 s 8 86 A3 38 88 03 7D 00 00 
15:25:43:6872 Rx 1 0x706 s 8 1A C0 01 1A 00 7D 00 00 
15:25:43:6962 Rx 1 0x703 s 8 46 8C 18 31 D0 07 E5 DF 
15:25:43:6964 Rx 1 0x702 s 8 62 00 00 00 00 00 00 B0 
15:25:43:6966 Rx 1 0x704 s 7 95 82 D8 98 83 22 22 
15:25:43:6969 Rx 1 0x705 s 8 86 A3 38 88 03 7D 00 00 
15:25:43:6971 Rx 1 0x706 s 8 1A C0 01 1A 00 7D 00 00 
15:25:43:6985 Rx 1 0x687 x 8 03 70 93 7A 93 96 2D 2E 
15:25:43:7062 Rx 1 0x703 s 8 46 8C 18 39 DA 07 13 38 
15:25:43:7064 Rx 1 0x702 s 8 62 00 00 00 00 00 00 B0 
15:25:43:7067 Rx 1 0x704 s 7 95 82 D8 98 83 22 22 
15:25:43:7069 Rx 1 0x705 s 8 86 A3 38 88 03 7D 00 00 
15:25:43:7071 Rx 1 0x706 s 8 1A C0 01 1A 00 7D 00 00 
15:25:43:7162 Rx 1 0x702 s 8 62 00 00 00 00 00 00 B0 
15:25:43:7164 Rx 1 0x703 s 8 46 8C 18 01 30 2E 2F 2F 
15:25:43:7166 Rx 1 0x704 s 7 95 82 D8 98 82 22 22 
15:25:43:7169 Rx 1 0x705 s 8 86 A3 38 88 03 7D 00 00 
15:25:43:7172 Rx 1 0x706 s 8 1A C0 01 1A 00 7D 00 00 
15:25:43:7262 Rx 1 0x702 s 8 62 00 00 00 00 00 00 B0 
15:25:43:7265 Rx 1 0x703 s 8 46 8C 18 09 2F 2F 00 40 
15:25:43:7267 Rx 1 0x704 s 7 95 82 D8 98 83 22 22 
15:25:43:7269 Rx 1 0x705 s 8 86 A3 38 88 03 7D 00 00 
15:25:43:7271 Rx 1 0x706 s 8 1A C0 01 1A 00 7D 00 00 
15:25:43:7315 Rx 1 0x687 x 8 04 00 10 23 69 00 00 00 
15:25:43:7362 Rx 1 0x703 s 8 46 8E 18 11 00 00 7D 00 
15:25:43:7364 Rx 1 0x702 s 8 62 00 00 00 00 00 00 B0 
15:25:43:7367 Rx 1 0x704 s 7 95 82 D8 98 83 22 22 
15:25:43:7369 Rx 1 0x705 s 8 86 A3 38 88 03 7D 00 00 
15:25:43:7371 Rx 1 0x706 s 8 1A C0 01 1A 00 7D 00 00 
15:25:43:7393 Rx 1 0x1043 x 7 00 59 A4 A5 83 00 00 
15:25:43:7396 Rx 1 0x1002 x 8 0F 3E 00 60 6F 00 00 00 
15:25:43:7399 Rx 1 0x1003 x 8 0F 3E 00 00 6F 00 00 00 
15:25:43:7401 Rx 1 0x1042 x 7 00 59 A4 A5 83 00 00 
15:25:43:7404 Rx 1 0x1083 x 7 00 40 00 02 00 7D 00 
15:25:43:7407 Rx 1 0x10C3 x 7 00 10 00 00 00 7D 00 
15:25:43:7409 Rx 1 0x1103 x 7 01 40 00 03 00 7D 00 
15:25:43:7412 Rx 1 0x1142 x 7 03 40 00 04 00 7D 00 
15:25:43:7415 Rx 1 0x1182 x 7 00 10 00 00 00 7D 00 
15:25:43:7417 Rx 1 0x11C2 x 7 01 40 00 02 00 7D 00 
15:25:43:7420 Rx 1 0x1403 x 7 00 80 00 05 00 7D 00 
15:25:43:7423 Rx 1 0x1442 x 7 00 80 00 05 00 7D 00 
15:25:43:7462 Rx 1 0x702 s 8 62 00 00 00 00 00 00 B0 
15:25:43:7464 Rx 1 0x703 s 8 46 8E 18 19 00 00 72 79 
15:25:43:7466 Rx 1 0x704 s 7 95 82 D8 98 83 22 22 
15:25:43:7469 Rx 1 0x705 s 8 86 A3 38 88 03 7D 00 00 
15:25:43:7471 Rx 1 0x706 s 8 1A C0 01 1A 00 7D 00 00 
15:25:43:7562 Rx 1 0x702 s 8 62 00 00 00 00 00 00 B0 
15:25:43:7565 Rx 1 0x703 s 8 46 8E 1C 21 36 33 89 30 
15:25:43:7567 Rx 1 0x704 s 7 95 82 D8 98 83 22 22 
15:25:43:7569 Rx 1 0x705 s 8 86 A3 38 88 03 7D 00 00 
15:25:43:7571 Rx 1 0x706 s 8 1A C0 01 1A 00 7D 00 00 
15:25:43:7645 Rx 1 0x687 x 8 05 00 00 00 0A 00 00 00 
15:25:43:7662 Rx 1 0x702 s 8 62 00 00 00 00 00 00 B0 
15:25:43:7664 Rx 1 0x703 s 8 47 8E 1C 29 A5 71 5D 05 
15:25:43:7666 Rx 1 0x704 s 7 95 82 D8 98 83 22 22 
15:25:43:7669 Rx 1 0x705 s 8 86 A3 38 88 03 7D 00 00 
15:25:43:7672 Rx 1 0x706 s 8 1A C0 01 1A 00 7D 00 00 
15:25:43:7762 Rx 1 0x703 s 8 47 8E 1C 31 D0 07 E5 DF 
15:25:43:7764 Rx 1 0x702 s 8 62 00 00 00 00 00 00 B0 
15:25:43:7766 Rx 1 0x704 s 7 95 82 D8 98 82 22 22 
15:25:43:7769 Rx 1 0x705 s 8 86 A3 38 88 03 7D 00 00 
15:25:43:7771 Rx 1 0x706 s 8 1A C0 01 1A 00 7D 00 00 
15:25:43:7862 Rx 1 0x703 s 8 47 8E 1C 39 DA 07 13 38 
15:25:43:7864 Rx 1 0x702 s 8 62 00 00 00 00 00 00 B0 
15:25:43:7867 Rx 1 0x704 s 7 95 82 D8 98 83 22 22 
15:25:43:7869 Rx 1 0x705 s 8 86 A3 38 88 03 7D 00 00 
15:25:43:7871 Rx 1 0x706 s 8 1A C0 01 1A 00 7D 00 00 
15:25:43:7962 Rx 1 0x702 s 8 62 00 00 00 00 00 00 B0 
15:25:43:7964 Rx 1 0x703 s 8 47 8E 1C 01 30 2E 2F 2F 
15:25:43:7966 Rx 1 0x704 s 7 95 82 D8 98 83 22 22 
15:25:43:7969 Rx 1 0x705 s 8 86 A3 38 88 03 7D 00 00 
15:25:43:7971 Rx 1 0x706 s 8 1A C0 01 1A 00 7D 00 00 
15:25:43:8062 Rx 1 0x702 s 8 62 00 00 00 00 00 00 B0 
15:25:43:8065 Rx 1 0x703 s 8 47 8E 1C 09 2F 2E 00 40 
15:25:43:8067 Rx 1 0x704 s 7 95 82 D8 98 83 22 22 
15:25:43:8069 Rx 1 0x705 s 8 86 A3 38 88 03 7D 00 00 
15:25:43:8071 Rx 1 0x706 s 8 1A C0 01 1A 00 7D 00 00 
15:25:43:8162 Rx 1 0x702 s 8 62 00 00 00 00 00 00 B0 
15:25:43:8164 Rx 1 0x703 s 8 47 8E 1C 11 00 00 7D 00 
15:25:43:8167 Rx 1 0x704 s 7 95 82 D8 98 82 22 22 
15:25:43:8169 Rx 1 0x705 s 8 86 A3 38 88 03 7D 00 00 
15:25:43:8171 Rx 1 0x706 s 8 1A C0 01 1A 00 7D 00 00 
15:25:43:8262 Rx 1 0x702 s 8 62 00 00 00 00 00 00 B0 
15:25:43:8265 Rx 1 0x703 s 8 47 8E 1C 19 00 00 72 79 
15:25:43:8267 Rx 1 0x704 s 7 95 82 D8 98 83 22 22 
15:25:43:8269 Rx 1 0x705 s 8 86 A3 38 88 03 7D 00 00 
15:25:43:8271 Rx 1 0x706 s 8 1A C0 01 1A 00 7D 00 00 
15:25:43:8362 Rx 1 0x702 s 8 62 00 00 00 00 00 00 B0 
15:25:43:8365 Rx 1 0x703 s 8 47 8E 1C 21 36 33 89 30 
15:25:43:8367 Rx 1 0x704 s 7 95 82 D8 98 83 22 22 
15:25:43:8369 Rx 1 0x705 s 8 86 A3 38 88 03 7D 00 00 
15:25:43:8371 Rx 1 0x706 s 8 1A C0 01 1A 00 7D 00 00 
15:25:43:8393 Rx 1 0x1043 x 7 01 2E 2E 2E 2E 2C 2C 
15:25:43:8396 Rx 1 0x1002 x 8 0F 3E 00 80 5F 00 00 00 
15:25:43:8398 Rx 1 0x1003 x 8 0F 3E 00 20 5F 00 00 00 
15:25:43:8401 Rx 1 0x1042 x 7 01 2B 2B 2D 2D 2E 2E 
15:25:43:8404 Rx 1 0x1083 x 7 00 40 00 02 00 7D 00 
15:25:43:8406 Rx 1 0x10C3 x 7 00 10 00 00 00 7D 00 
15:25:43:8409 Rx 1 0x1103 x 7 01 40 00 03 00 7D 00 
15:25:43:8412 Rx 1 0x1142 x 7 03 40 00 04 00 7D 00 
15:25:43:8414 Rx 1 0x1182 x 7 00 10 00 00 00 7D 00 
15:25:43:8417 Rx 1 0x11C2 x 7 01 40 00 02 00 7D 00 
15:25:43:8420 Rx 1 0x1403 x 7 00 80 00 05 00 7D 00 
15:25:43:8423 Rx 1 0x1442 x 7 00 80 00 05 00 7D 00 
15:25:43:8462 Rx 1 0x703 s 8 47 90 1C 29 A5 71 5D 05 
15:25:43:8464 Rx 1 0x702 s 8 62 00 00 00 00 00 00 B0 
15:25:43:8466 Rx 1 0x704 s 7 95 82 D8 98 83 22 22 
15:25:43:8469 Rx 1 0x705 s 8 86 A3 38 88 03 7D 00 00 
15:25:43:8471 Rx 1 0x706 s 8 1A C0 01 1A 00 7D 00 00 
15:25:43:8562 Rx 1 0x703 s 8 47 90 1C 31 D0 07 E5 DF 
15:25:43:8564 Rx 1 0x702 s 8 62 00 00 00 00 00 00 B0 
15:25:43:8566 Rx 1 0x704 s 7 95 82 D8 98 83 22 22 
15:25:43:8569 Rx 1 0x705 s 8 86 A3 38 88 03 7D 00 00 
15:25:43:8571 Rx 1 0x706 s 8 1A C0 01 1A 00 7D 00 00 
15:25:43:8662 Rx 1 0x703 s 8 47 90 20 39 DA 07 13 38 
15:25:43:8664 Rx 1 0x702 s 8 62 00 00 00 00 00 00 B0 
15:25:43:8667 Rx 1 0x704 s 7 95 82 D8 98 83 22 22 
15:25:43:8669 Rx 1 0x705 s 8 86 A3 38 88 03 7D 00 00 
15:25:43:8671 Rx 1 0x706 s 8 1A C0 01 1A 00 7D 00 00 
15:25:43:8697 Rx 1 0x103F x 4 01 00 04 24 
15:25:43:8718 Rx 1 0x113F x 3 3F 05 FF 
15:25:43:8762 Rx 1 0x702 s 8 62 00 00 00 00 00 00 B0 
15:25:43:8764 Rx 1 0x703 s 8 48 90 20 01 30 2E 2F 2F 
15:25:43:8766 Rx 1 0x704 s 7 95 82 D8 98 83 22 22 
15:25:43:8769 Rx 1 0x705 s 8 86 A3 38 88 03 7D 00 00 
15:25:43:8772 Rx 1 0x706 s 8 1A C0 01 1A 00 7D 00 00 
15:25:43:8774 Rx 1 0x103F x 4 02 00 04 36 
15:25:43:8784 Rx 1 0x113F x 3 3F 05 FF 
15:25:43:8862 Rx 1 0x702 s 8 62 00 00 00 00 00 00 B0 
15:25:43:8865 Rx 1 0x703 s 8 48 90 20 09 2F 2E 00 40 
15:25:43:8867 Rx 1 0x704 s 7 95 82 D8 98 82 22 22 
15:25:43:8869 Rx 1 0x705 s 8 86 A3 38 88 03 7D 00 00 
15:25:43:8871 Rx 1 0x706 s 8 1A C0 01 1A 00 7D 00 00 
15:25:43:8962 Rx 1 0x703 s 8 48 90 20 11 00 00 7D 00 
15:25:43:8964 Rx 1 0x117F x 2 11 3C 
15:25:43:8966 Rx 1 0x117F x 2 21 E1 
15:25:43:8967 Rx 1 0x117F x 2 31 4F 
15:25:43:8969 Rx 1 0x117F x 2 41 74 
15:25:43:8971 Rx 1 0x117F x 2 51 DA 
15:25:43:8973 Rx 1 0x117F x 2 61 07 
15:25:43:8975 Rx 1 0x1642 x 6 05 00 C0 08 6E 05 
15:25:43:8978 Rx 1 0x1682 x 5 05 A4 79 BC 70 
15:25:43:8980 Rx 1 0x702 s 8 62 00 00 00 00 00 00 B0 
15:25:43:8982 Rx 1 0x704 s 7 95 82 D8 98 83 22 22 
15:25:43:8984 Rx 1 0x1642 x 6 06 00 28 6A 7C 06 
15:25:43:8987 Rx 1 0x1682 x 5 06 52 80 30 75 
15:25:43:8989 Rx 1 0x705 s 8 86 A3 38 88 03 7D 00 00 
15:25:43:8992 Rx 1 0x706 s 8 1A C0 01 1A 00 7D 00 00 
15:25:43:9062 Rx 1 0x702 s 8 62 00 00 00 00 00 00 B0 
15:25:43:9065 Rx 1 0x703 s 8 48 90 20 19 00 00 72 79 
15:25:43:9067 Rx 1 0x704 s 7 95 82 D8 98 83 22 22 
15:25:43:9069 Rx 1 0x705 s 8 86 A3 38 88 03 7D 00 00 
15:25:43:9072 Rx 1 0x706 s 8 1A C0 01 1A 00 7D 00 00 
15:25:43:9162 Rx 1 0x702 s 8 62 00 00 00 00 00 00 B0 
15:25:43:9165 Rx 1 0x703 s 8 48 90 20 21 36 33 89 30 
15:25:43:9167 Rx 1 0x704 s 7 95 82 D8 98 83 22 22 
15:25:43:9169 Rx 1 0x705 s 8 86 A3 38 88 03 7D 00 00 
15:25:43:9171 Rx 1 0x706 s 8 1A C0 01 1A 00 7D 00 00 
15:25:43:9262 Rx 1 0x702 s 8 62 00 00 00 00 00 00 B0 
15:25:43:9265 Rx 1 0x703 s 8 48 90 20 29 A5 71 5D 05 
15:25:43:9267 Rx 1 0x704 s 7 95 82 D8 98 82 22 22 
15:25:43:9269 Rx 1 0x705 s 8 86 A3 38 88 03 7D 00 00 
15:25:43:9272 Rx 1 0x706 s 8 1A C0 01 1A 00 7D 00 00 
15:25:43:9362 Rx 1 0x702 s 8 62 00 00 00 00 00 00 B0 
15:25:43:9365 Rx 1 0x703 s 8 48 90 20 31 D0 07 E5 DF 
15:25:43:9367 Rx 1 0x704 s 7 95 82 D8 98 83 22 22 
15:25:43:9369 Rx 1 0x705 s 8 86 A3 38 88 03 7D 00 00 
15:25:43:9371 Rx 1 0x706 s 8 1A C0 01 1A 00 7D 00 00 
15:25:43:9393 Rx 1 0x1003 x 8 04 12 00 40 64 00 00 00 
15:25:43:9396 Rx 1 0x1002 x 8 04 12 00 A0 64 00 00 00 
15:25:43:9399 Rx 1 0x1042 x 7 02 2C 2C 2A 2A 2E 2E 
15:25:43:9401 Rx 1 0x1043 x 7 02 29 29 2A 2A 2D 2D 
15:25:43:9404 Rx 1 0x1083 x 7 00 40 00 02 00 7D 00 
15:25:43:9406 Rx 1 0x10C3 x 7 00 10 00 00 00 7D 00 
15:25:43:9409 Rx 1 0x1103 x 7 02 40 00 03 00 7D 00 
15:25:43:9412 Rx 1 0x1142 x 7 03 40 00 04 00 7D 00 
15:25:43:9415 Rx 1 0x1182 x 7 00 10 00 00 00 7D 00 
15:25:43:9418 Rx 1 0x11C2 x 7 01 40 00 02 00 7D 00 
15:25:43:9420 Rx 1 0x1403 x 7 00 90 00 05 00 7D 00 
15:25:43:9423 Rx 1 0x1442 x 7 00 80 00 05 00 7D 00 
15:25:43:9462 Rx 1 0x703 s 8 48 90 20 39 DA 07 13 38 
15:25:43:9464 Rx 1 0x702 s 8 62 00 00 00 00 00 00 B0 
15:25:43:9467 Rx 1 0x704 s 7 95 82 D8 98 83 22 22 
15:25:43:9469 Rx 1 0x705 s 8 86 A3 38 88 03 7D 00 00 
15:25:43:9471 Rx 1 0x706 s 8 1A C0 01 1A 00 7D 00 00 
15:25:43:9562 Rx 1 0x703 s 8 48 92 20 01 30 2E 2F 2F 
15:25:43:9564 Rx 1 0x702 s 8 62 00 00 00 00 00 00 B0 
15:25:43:9566 Rx 1 0x704 s 7 95 82 D8 98 83 22 22 
15:25:43:9569 Rx 1 0x705 s 8 86 A3 38 88 03 7D 00 00 
15:25:43:9572 Rx 1 0x706 s 8 1A C0 01 1A 00 7D 00 00 
15:25:43:9662 Rx 1 0x702 s 8 62 00 00 00 00 00 00 B0 
15:25:43:9665 Rx 1 0x703 s 8 48 92 20 09 2F 2F 00 40 
15:25:43:9667 Rx 1 0x704 s 7 95 82 D8 98 83 22 22 
15:25:43:9669 Rx 1 0x705 s 8 86 A3 38 88 03 7D 00 00 
15:25:43:9671 Rx 1 0x706 s 8 1A C0 01 1A 00 7D 00 00 
15:25:43:9762 Rx 1 0x702 s 8 62 00 00 00 00 00 00 B0 
15:25:43:9765 Rx 1 0x703 s 8 48 92 24 11 00 00 7D 00 
15:25:43:9767 Rx 1 0x704 s 7 95 82 D8 98 83 22 22 
15:25:43:9769 Rx 1 0x705 s 8 86 A3 38 88 03 7D 00 00 
15:25:43:9772 Rx 1 0x706 s 8 1A C0 01 1A 00 7D 00 00 
15:25:43:9862 Rx 1 0x703 s 8 48 92 24 19 00 00 72 79 
15:25:43:9864 Rx 1 0x702 s 8 62 00 00 00 00 00 00 B0 
15:25:43:9866 Rx 1 0x704 s 7 95 82 D8 98 83 22 22 
15:25:43:9869 Rx 1 0x705 s 8 86 A3 38 88 03 7D 00 00 
15:25:43:9872 Rx 1 0x706 s 8 1A C0 01 1A 00 7D 00 00 
15:25:43:9962 Rx 1 0x702 s 8 62 00 00 00 00 00 00 B0 
15:25:43:9965 Rx 1 0x703 s 8 49 92 24 21 36 33 89 30 
15:25:43:9967 Rx 1 0x704 s 7 95 82 D8 98 83 22 22 
15:25:43:9969 Rx 1 0x705 s 8 86 A3 38 88 03 7D 00 00 
15:25:43:9971 Rx 1 0x706 s 8 1A C0 01 1A 00 7D 00 00 
15:25:43:9997 Rx 1 0x117F x 2 11 3C 
15:25:44:0000 Rx 1 0x117F x 2 21 E1 
15:25:44:0002 Rx 1 0x117F x 2 31 4F 
15:25:44:0003 Rx 1 0x117F x 2 41 74 
15:25:44:0005 Rx 1 0x117F x 2 51 DA 
15:25:44:0008 Rx 1 0x1643 x 6 02 00 C0 08 6E 05 
15:25:44:0009 Rx 1 0x117F x 2 61 07 
15:25:44:0012 Rx 1 0x1683 x 5 02 A4 79 BC 70 
15:25:44:0014 Rx 1 0x1642 x 6 06 00 28 6A 7C 06 
15:25:44:0017 Rx 1 0x1682 x 5 06 52 80 30 75 
15:25:44:0062 Rx 1 0x702 s 8 62 00 00 00 00 00 00 B0 
15:25:44:0065 Rx 1 0x703 s 8 49 92 24 29 A5 71 5D 05 
15:25:44:0067 Rx 1 0x704 s 7 95 82 D8 98 83 22 22 
15:25:44:0069 Rx 1 0x705 s 8 86 A3 38 88 03 7D 00 00 
15:25:44:0072 Rx 1 0x706 s 8 1A C0 01 1A 00 7D 00 00 
15:25:44:0163 Rx 1 0x702 s 8 62 00 00 00 00 00 00 B0 
15:25:44:0165 Rx 1 0x703 s 8 49 92 24 31 D0 07 E5 DF 
15:25:44:0167 Rx 1 0x704 s 7 95 82 D8 98 83 22 22 
15:25:44:0169 Rx 1 0x705 s 8 86 A3 38 88 03 7D 00 00 
15:25:44:0171 Rx 1 0x706 s 8 1A C0 01 1A 00 7D 00 00 
15:25:44:0230 Rx 1 0x103F x 4 03 00 04 38 
15:25:44:0262 Rx 1 0x703 s 8 49 92 24 39 DA 07 13 38 
15:25:44:0264 Rx 1 0x702 s 8 62 00 00 00 00 00 00 B0 
15:25:44:0267 Rx 1 0x704 s 7 95 82 D8 98 83 22 22 
15:25:44:0269 Rx 1 0x705 s 8 86 A3 38 88 03 7D 00 00 
15:25:44:0271 Rx 1 0x706 s 8 1A C0 01 1A 00 7D 00 00 
15:25:44:0277 Rx 1 0x103F x 4 04 00 04 12 
15:25:44:0362 Rx 1 0x703 s 8 49 92 24 01 30 2E 2F 2F 
15:25:44:0365 Rx 1 0x702 s 8 62 00 00 00 00 00 00 B0 
15:25:44:0367 Rx 1 0x704 s 7 95 82 D8 98 83 22 22 
15:25:44:0369 Rx 1 0x705 s 8 86 A3 38 88 03 7D 00 00 
15:25:44:0372 Rx 1 0x706 s 8 1A C0 01 1A 00 7D 00 00 
15:25:44:0393 Rx 1 0x1003 x 8 04 12 00 00 64 00 00 00 
15:25:44:0396 Rx 1 0x1002 x 8 04 12 00 60 64 00 00 00 
15:25:44:0399 Rx 1 0x1042 x 7 03 2C 2C 28 28 30 00 
15:25:44:0402 Rx 1 0x1043 x 7 03 2D 2D 2B 2B 31 00 
15:25:44:0404 Rx 1 0x1083 x 7 00 40 00 02 00 7D 00 
15:25:44:0407 Rx 1 0x10C3 x 7 00 10 00 00 00 7D 00 
15:25:44:0410 Rx 1 0x1103 x 7 01 40 00 03 00 7D 00 
15:25:44:0412 Rx 1 0x1142 x 7 03 40 00 04 00 7D 00 
15:25:44:0415 Rx 1 0x1182 x 7 00 10 00 00 00 7D 00 
15:25:44:0418 Rx 1 0x11C2 x 7 01 40 00 03 00 7D 00 
15:25:44:0420 Rx 1 0x1403 x 7 01 90 00 06 00 7D 00 
15:25:44:0423 Rx 1 0x1442 x 7 01 90 00 06 00 7D 00 
15:25:44:0463 Rx 1 0x702 s 8 62 00 00 00 00 00 00 B0 
15:25:44:0465 Rx 1 0x703 s 8 49 92 24 09 2F 2F 00 40 
15:25:44:0467 Rx 1 0x704 s 7 95 82 D8 98 83 22 22 
15:25:44:0469 Rx 1 0x705 s 8 86 A3 38 88 03 7D 00 00 
15:25:44:0472 Rx 1 0x706 s 8 1A C0 01 1A 00 7D 00 00 
15:25:44:0562 Rx 1 0x702 s 8 62 00 00 00 00 00 00 B0 
15:25:44:0565 Rx 1 0x703 s 8 49 92 24 11 00 00 7D 00 
15:25:44:0567 Rx 1 0x704 s 7 95 82 D8 98 83 22 22 
15:25:44:0569 Rx 1 0x705 s 8 86 A3 38 88 03 7D 00 00 
15:25:44:0572 Rx 1 0x706 s 8 1A C0 01 1A 00 7D 00 00 
15:25:44:0662 Rx 1 0x703 s 8 49 92 24 19 00 00 72 79 
15:25:44:0664 Rx 1 0x702 s 8 62 00 00 00 00 00 00 B0 
15:25:44:0667 Rx 1 0x704 s 7 95 82 D8 98 83 22 22 
15:25:44:0669 Rx 1 0x705 s 8 86 A3 38 88 03 7D 00 00 
15:25:44:0672 Rx 1 0x706 s 8 1A C0 01 1A 00 7D 00 00 
15:25:44:0762 Rx 1 0x702 s 8 62 00 00 00 00 00 00 B0 
15:25:44:0765 Rx 1 0x703 s 8 49 92 24 21 36 33 89 30 
15:25:44:0767 Rx 1 0x704 s 7 95 82 D8 98 83 22 22 
15:25:44:0769 Rx 1 0x705 s 8 86 A3 38 88 03 7D 00 00 
15:25:44:0772 Rx 1 0x706 s 8 1A C0 01 1A 00 7D 00 00 
15:25:44:0862 Rx 1 0x702 s 8 62 00 00 00 00 00 00 B0 
15:25:44:0865 Rx 1 0x703 s 8 49 94 24 29 A5 71 5D 05 
15:25:44:0867 Rx 1 0x704 s 7 95 82 D8 98 83 22 22 
15:25:44:0869 Rx 1 0x705 s 8 86 A3 38 88 03 7D 00 00 
15:25:44:0871 Rx 1 0x706 s 8 1A C0 01 1A 00 7D 00 00 
15:25:44:0923 Rx 1 0x117F x 2 11 3C 
15:25:44:0925 Rx 1 0x117F x 2 21 E1 
15:25:44:0926 Rx 1 0x117F x 2 31 4F 
15:25:44:0929 Rx 1 0x117F x 2 41 74 
15:25:44:0930 Rx 1 0x117F x 2 51 DA 
15:25:44:0932 Rx 1 0x117F x 2 61 07 
15:25:44:0935 Rx 1 0x1642 x 6 05 00 C0 08 6E 05 
15:25:44:0937 Rx 1 0x1682 x 5 05 A4 79 BC 70 
15:25:44:0944 Rx 1 0x1642 x 6 06 00 28 6A 7C 06 
15:25:44:0947 Rx 1 0x1682 x 5 06 52 80 30 75 
15:25:44:0963 Rx 1 0x702 s 8 62 00 00 00 00 00 00 B0 
15:25:44:0965 Rx 1 0x703 s 8 49 94 24 31 D0 07 E5 DF 
15:25:44:0967 Rx 1 0x704 s 7 95 82 D8 98 83 22 22 
15:25:44:0970 Rx 1 0x705 s 8 86 A3 38 88 03 7D 00 00 
15:25:44:0972 Rx 1 0x706 s 8 1A C0 01 1A 00 7D 00 00 
15:25:44:1063 Rx 1 0x702 s 8 62 00 00 00 00 00 00 B0 
15:25:44:1065 Rx 1 0x703 s 8 49 94 28 39 DA 07 13 38 
15:25:44:1067 Rx 1 0x704 s 7 95 82 D8 98 83 22 22 
15:25:44:1069 Rx 1 0x705 s 8 86 A3 38 88 03 7D 00 00 
15:25:44:1072 Rx 1 0x706 s 8 1A C0 01 1A 00 7D 00 00 
15:25:44:1162 Rx 1 0x702 s 8 62 00 00 00 00 00 00 B0 
15:25:44:1165 Rx 1 0x703 s 8 4A 94 28 01 30 2E 2F 2F 
15:25:44:1167 Rx 1 0x704 s 7 95 82 D8 98 83 22 22 
15:25:44:1169 Rx 1 0x705 s 8 86 A3 38 88 03 7D 00 00 
15:25:44:1172 Rx 1 0x706 s 8 1A C0 01 1A 00 7D 00 00 
15:25:44:1262 Rx 1 0x703 s 8 4A 94 28 09 2F 2F 00 40 
15:25:44:1265 Rx 1 0x702 s 8 62 00 00 00 00 00 00 B0 
15:25:44:1267 Rx 1 0x704 s 7 95 82 D8 98 83 22 22 
15:25:44:1269 Rx 1 0x705 s 8 86 A3 38 88 03 7D 00 00 
15:25:44:1272 Rx 1 0x706 s 8 1A C0 01 1A 00 7D 00 00 
15:25:44:1362 Rx 1 0x702 s 8 62 00 00 00 00 00 00 B0 
15:25:44:1365 Rx 1 0x703 s 8 4A 94 28 11 00 00 7D 00 
15:25:44:1367 Rx 1 0x704 s 7 95 82 D8 98 83 22 22 
15:25:44:1369 Rx 1 0x705 s 8 86 A3 38 88 03 7D 00 00 
15:25:44:1372 Rx 1 0x706 s 8 1A C0 01 1A 00 7D 00 00 
15:25:44:1388 Rx 1 0x117F x 2 11 3C 
15:25:44:1391 Rx 1 0x117F x 2 21 E1 
15:25:44:1394 Rx 1 0x1003 x 8 04 12 00 20 54 00 00 00 
15:25:44:1397 Rx 1 0x1002 x 8 04 12 00 80 54 00 00 00 
15:25:44:1399 Rx 1 0x1042 x 7 04 E8 03 5C 76 BE 32 
15:25:44:1402 Rx 1 0x1043 x 7 04 E8 03 86 96 BE 32 
15:25:44:1404 Rx 1 0x1083 x 7 01 40 00 02 00 7D 00 
15:25:44:1407 Rx 1 0x10C3 x 7 00 10 00 00 00 7D 00 
15:25:44:1410 Rx 1 0x1103 x 7 01 40 00 03 00 7D 00 
15:25:44:1412 Rx 1 0x1142 x 7 03 50 00 04 00 7D 00 
15:25:44:1415 Rx 1 0x117F x 2 31 4F 
15:25:44:1416 Rx 1 0x117F x 2 41 74 
15:25:44:1418 Rx 1 0x117F x 2 51 DA 
15:25:44:1420 Rx 1 0x117F x 2 61 07 
15:25:44:1423 Rx 1 0x1182 x 7 00 10 00 00 00 7D 00 
15:25:44:1425 Rx 1 0x11C2 x 7 01 40 00 03 00 7D 00 
15:25:44:1428 Rx 1 0x1403 x 7 01 90 00 06 00 7D 00 
15:25:44:1431 Rx 1 0x1442 x 7 01 90 00 06 00 7D 00 
15:25:44:1433 Rx 1 0x1642 x 6 06 00 28 6A 7C 06 
15:25:44:1435 Rx 1 0x1643 x 6 02 00 C0 08 6E 05 
15:25:44:1438 Rx 1 0x1682 x 5 06 52 80 30 75 
15:25:44:1440 Rx 1 0x1683 x 5 02 A4 79 BC 70 
15:25:44:1463 Rx 1 0x702 s 8 62 00 00 00 00 00 00 B0 
15:25:44:1465 Rx 1 0x703 s 8 4A 94 28 19 00 00 72 79 
15:25:44:1467 Rx 1 0x704 s 7 95 82 D8 98 83 22 22 
15:25:44:1470 Rx 1 0x705 s 8 86 A3 38 88 03 7D 00 00 
15:25:44:1472 Rx 1 0x706 s 8 1A C0 01 1A 00 7D 00 00 
15:25:44:1562 Rx 1 0x703 s 8 4A 94 28 21 36 33 89 30 
15:25:44:1565 Rx 1 0x702 s 8 62 00 00 00 00 00 00 B0 
15:25:44:1567 Rx 1 0x704 s 7 95 82 D8 98 83 22 22 
15:25:44:1569 Rx 1 0x705 s 8 86 A3 38 88 03 7D 00 00 
15:25:44:1572 Rx 1 0x706 s 8 1A C0 01 1A 00 7D 00 00 
15:25:44:1662 Rx 1 0x703 s 8 4A 94 28 29 A5 71 5D 05 
15:25:44:1665 Rx 1 0x702 s 8 62 00 00 00 00 00 00 B0 
15:25:44:1667 Rx 1 0x704 s 7 95 82 D8 98 83 22 22 
15:25:44:1669 Rx 1 0x705 s 8 86 A3 38 88 03 7D 00 00 
15:25:44:1671 Rx 1 0x706 s 8 1A C0 01 1A 00 7D 00 00 
15:25:44:1694 Rx 1 0x103F x 4 05 00 04 1C 
15:25:44:1762 Rx 1 0x702 s 8 62 00 00 00 00 00 00 B0 
15:25:44:1765 Rx 1 0x703 s 8 4A 94 28 31 D0 07 E5 DF 
15:25:44:1767 Rx 1 0x704 s 7 95 82 D8 98 82 22 22 
15:25:44:1769 Rx 1 0x705 s 8 86 A3 38 88 03 7D 00 00 
15:25:44:1772 Rx 1 0x706 s 8 1A C0 01 1A 00 7D 00 00 
15:25:44:1780 Rx 1 0x103F x 4 06 00 04 0E 
15:25:44:1863 Rx 1 0x702 s 8 62 00 00 00 00 00 00 B0 
15:25:44:1865 Rx 1 0x703 s 8 4A 94 28 39 DA 07 13 38 
15:25:44:1867 Rx 1 0x704 s 7 95 82 D8 98 83 22 22 
15:25:44:1869 Rx 1 0x705 s 8 86 A3 38 88 03 7D 00 00 
15:25:44:1872 Rx 1 0x706 s 8 1A C0 01 1A 00 7D 00 00 
15:25:44:1963 Rx 1 0x702 s 8 62 00 00 00 00 00 00 B0 
15:25:44:1965 Rx 1 0x703 s 8 4A 94 28 01 30 2E 2F 2F 
15:25:44:1967 Rx 1 0x704 s 7 95 82 D8 98 83 22 22 
15:25:44:1969 Rx 1 0x705 s 8 86 A3 38 88 03 7D 00 00 
15:25:44:1972 Rx 1 0x706 s 8 1A C0 01 1A 00 7D 00 00 
15:25:44:2062 Rx 1 0x702 s 8 62 00 00 00 00 00 00 B0 
15:25:44:2065 Rx 1 0x703 s 8 4A 94 28 09 2F 2E 00 40 
